!Agilent Technologies,E5071C,MY46214392,A.11.36
!Date: Thu Feb 26 21:26:40 2026
!Data & Calibration Information:
!Freq	S11:NONE(--)	S21:NONE(--)	S12:NONE(--)	S22:NONE(--)
!PortZ  Port1:50+j0    Port2:50+j0
!Above PortZ is port z conversion or system Z0 setting when saving the data.
!When reading, reference impedance value at option line is always used.
# Hz S dB R 50
900000000	-1.806708e+001	-1.200726e+002	-6.688879e+001	9.355739e+001	-2.000000e+002	0.000000e+000	-2.000000e+002	0.000000e+000
900037500	-1.805670e+001	-1.202473e+002	-6.598923e+001	9.505850e+001	-2.000000e+002	0.000000e+000	-2.000000e+002	0.000000e+000
900075000	-1.805821e+001	-1.204687e+002	-6.705653e+001	1.001094e+002	-2.000000e+002	0.000000e+000	-2.000000e+002	0.000000e+000
900112500	-1.805753e+001	-1.206943e+002	-6.586952e+001	9.155632e+001	-2.000000e+002	0.000000e+000	-2.000000e+002	0.000000e+000
900150000	-1.806109e+001	-1.208864e+002	-6.665514e+001	8.929310e+001	-2.000000e+002	0.000000e+000	-2.000000e+002	0.000000e+000
900187500	-1.805745e+001	-1.211274e+002	-6.727273e+001	8.787090e+001	-2.000000e+002	0.000000e+000	-2.000000e+002	0.000000e+000
900225000	-1.805767e+001	-1.212235e+002	-6.664260e+001	8.489541e+001	-2.000000e+002	0.000000e+000	-2.000000e+002	0.000000e+000
900262500	-1.805925e+001	-1.214722e+002	-6.600064e+001	7.950102e+001	-2.000000e+002	0.000000e+000	-2.000000e+002	0.000000e+000
900300000	-1.805350e+001	-1.216808e+002	-6.571600e+001	9.177473e+001	-2.000000e+002	0.000000e+000	-2.000000e+002	0.000000e+000
900337500	-1.805552e+001	-1.218622e+002	-6.655414e+001	8.416592e+001	-2.000000e+002	0.000000e+000	-2.000000e+002	0.000000e+000
900375000	-1.805807e+001	-1.220588e+002	-6.526004e+001	9.773681e+001	-2.000000e+002	0.000000e+000	-2.000000e+002	0.000000e+000
900412500	-1.804473e+001	-1.222171e+002	-6.696298e+001	8.253546e+001	-2.000000e+002	0.000000e+000	-2.000000e+002	0.000000e+000
900450000	-1.805932e+001	-1.225125e+002	-6.527254e+001	9.255753e+001	-2.000000e+002	0.000000e+000	-2.000000e+002	0.000000e+000
900487500	-1.805484e+001	-1.227088e+002	-6.650646e+001	9.303977e+001	-2.000000e+002	0.000000e+000	-2.000000e+002	0.000000e+000
900525000	-1.805665e+001	-1.228896e+002	-6.508312e+001	8.354671e+001	-2.000000e+002	0.000000e+000	-2.000000e+002	0.000000e+000
900562500	-1.805839e+001	-1.230959e+002	-6.538034e+001	1.027171e+002	-2.000000e+002	0.000000e+000	-2.000000e+002	0.000000e+000
900600000	-1.805119e+001	-1.232584e+002	-6.677538e+001	8.518847e+001	-2.000000e+002	0.000000e+000	-2.000000e+002	0.000000e+000
900637500	-1.805589e+001	-1.234222e+002	-6.593094e+001	7.907859e+001	-2.000000e+002	0.000000e+000	-2.000000e+002	0.000000e+000
900675000	-1.805462e+001	-1.236127e+002	-6.617049e+001	7.968429e+001	-2.000000e+002	0.000000e+000	-2.000000e+002	0.000000e+000
900712500	-1.805641e+001	-1.238504e+002	-6.651381e+001	7.525657e+001	-2.000000e+002	0.000000e+000	-2.000000e+002	0.000000e+000
900750000	-1.804760e+001	-1.240146e+002	-6.588120e+001	7.730050e+001	-2.000000e+002	0.000000e+000	-2.000000e+002	0.000000e+000
900787500	-1.805223e+001	-1.242480e+002	-6.588482e+001	6.174708e+001	-2.000000e+002	0.000000e+000	-2.000000e+002	0.000000e+000
900825000	-1.804146e+001	-1.244499e+002	-6.739986e+001	8.097611e+001	-2.000000e+002	0.000000e+000	-2.000000e+002	0.000000e+000
900862500	-1.805092e+001	-1.246448e+002	-6.529301e+001	7.406473e+001	-2.000000e+002	0.000000e+000	-2.000000e+002	0.000000e+000
900900000	-1.805176e+001	-1.248465e+002	-6.612864e+001	8.070662e+001	-2.000000e+002	0.000000e+000	-2.000000e+002	0.000000e+000
900937500	-1.804083e+001	-1.250725e+002	-6.627040e+001	8.248823e+001	-2.000000e+002	0.000000e+000	-2.000000e+002	0.000000e+000
900975000	-1.805522e+001	-1.251687e+002	-6.527464e+001	8.029398e+001	-2.000000e+002	0.000000e+000	-2.000000e+002	0.000000e+000
901012500	-1.805752e+001	-1.254301e+002	-6.703972e+001	8.010798e+001	-2.000000e+002	0.000000e+000	-2.000000e+002	0.000000e+000
901050000	-1.804642e+001	-1.256464e+002	-6.716283e+001	7.106607e+001	-2.000000e+002	0.000000e+000	-2.000000e+002	0.000000e+000
901087500	-1.803890e+001	-1.258252e+002	-6.494926e+001	7.175013e+001	-2.000000e+002	0.000000e+000	-2.000000e+002	0.000000e+000
901125000	-1.804630e+001	-1.259742e+002	-6.621975e+001	8.393095e+001	-2.000000e+002	0.000000e+000	-2.000000e+002	0.000000e+000
901162500	-1.804193e+001	-1.261623e+002	-6.456404e+001	8.637166e+001	-2.000000e+002	0.000000e+000	-2.000000e+002	0.000000e+000
901200000	-1.804439e+001	-1.264056e+002	-6.742393e+001	6.416944e+001	-2.000000e+002	0.000000e+000	-2.000000e+002	0.000000e+000
901237500	-1.804902e+001	-1.266370e+002	-6.540860e+001	7.189788e+001	-2.000000e+002	0.000000e+000	-2.000000e+002	0.000000e+000
901275000	-1.804533e+001	-1.268141e+002	-6.533701e+001	7.424302e+001	-2.000000e+002	0.000000e+000	-2.000000e+002	0.000000e+000
901312500	-1.803853e+001	-1.270504e+002	-6.612679e+001	7.849263e+001	-2.000000e+002	0.000000e+000	-2.000000e+002	0.000000e+000
901350000	-1.804300e+001	-1.272254e+002	-6.516383e+001	7.253141e+001	-2.000000e+002	0.000000e+000	-2.000000e+002	0.000000e+000
901387500	-1.803574e+001	-1.273502e+002	-6.557062e+001	7.840708e+001	-2.000000e+002	0.000000e+000	-2.000000e+002	0.000000e+000
901425000	-1.803897e+001	-1.276358e+002	-6.587880e+001	7.378694e+001	-2.000000e+002	0.000000e+000	-2.000000e+002	0.000000e+000
901462500	-1.804129e+001	-1.278098e+002	-6.555868e+001	7.948097e+001	-2.000000e+002	0.000000e+000	-2.000000e+002	0.000000e+000
901500000	-1.803067e+001	-1.279836e+002	-6.580553e+001	8.078509e+001	-2.000000e+002	0.000000e+000	-2.000000e+002	0.000000e+000
901537500	-1.803647e+001	-1.281573e+002	-6.556073e+001	6.883291e+001	-2.000000e+002	0.000000e+000	-2.000000e+002	0.000000e+000
901575000	-1.803637e+001	-1.283846e+002	-6.508239e+001	7.142966e+001	-2.000000e+002	0.000000e+000	-2.000000e+002	0.000000e+000
901612500	-1.802721e+001	-1.286058e+002	-6.557291e+001	7.117800e+001	-2.000000e+002	0.000000e+000	-2.000000e+002	0.000000e+000
901650000	-1.803186e+001	-1.288407e+002	-6.473215e+001	6.975531e+001	-2.000000e+002	0.000000e+000	-2.000000e+002	0.000000e+000
901687500	-1.803377e+001	-1.289601e+002	-6.521765e+001	7.450529e+001	-2.000000e+002	0.000000e+000	-2.000000e+002	0.000000e+000
901725000	-1.801702e+001	-1.292454e+002	-6.562198e+001	6.848486e+001	-2.000000e+002	0.000000e+000	-2.000000e+002	0.000000e+000
901762500	-1.802071e+001	-1.294341e+002	-6.667796e+001	7.492329e+001	-2.000000e+002	0.000000e+000	-2.000000e+002	0.000000e+000
901800000	-1.802075e+001	-1.296672e+002	-6.625197e+001	7.169351e+001	-2.000000e+002	0.000000e+000	-2.000000e+002	0.000000e+000
901837500	-1.802273e+001	-1.298421e+002	-6.447859e+001	7.056255e+001	-2.000000e+002	0.000000e+000	-2.000000e+002	0.000000e+000
901875000	-1.801984e+001	-1.300560e+002	-6.524371e+001	6.057903e+001	-2.000000e+002	0.000000e+000	-2.000000e+002	0.000000e+000
901912500	-1.801732e+001	-1.302819e+002	-6.626786e+001	6.019462e+001	-2.000000e+002	0.000000e+000	-2.000000e+002	0.000000e+000
901950000	-1.801207e+001	-1.304572e+002	-6.699429e+001	6.832554e+001	-2.000000e+002	0.000000e+000	-2.000000e+002	0.000000e+000
901987500	-1.800773e+001	-1.306718e+002	-6.564471e+001	6.787544e+001	-2.000000e+002	0.000000e+000	-2.000000e+002	0.000000e+000
902025000	-1.802109e+001	-1.308233e+002	-6.600659e+001	6.060039e+001	-2.000000e+002	0.000000e+000	-2.000000e+002	0.000000e+000
902062500	-1.800653e+001	-1.310897e+002	-6.469927e+001	6.483391e+001	-2.000000e+002	0.000000e+000	-2.000000e+002	0.000000e+000
902100000	-1.801517e+001	-1.313249e+002	-6.463135e+001	6.863394e+001	-2.000000e+002	0.000000e+000	-2.000000e+002	0.000000e+000
902137500	-1.800337e+001	-1.315315e+002	-6.574162e+001	6.666468e+001	-2.000000e+002	0.000000e+000	-2.000000e+002	0.000000e+000
902175000	-1.800354e+001	-1.316989e+002	-6.577247e+001	6.159399e+001	-2.000000e+002	0.000000e+000	-2.000000e+002	0.000000e+000
902212500	-1.800856e+001	-1.318947e+002	-6.494422e+001	5.985891e+001	-2.000000e+002	0.000000e+000	-2.000000e+002	0.000000e+000
902250000	-1.800334e+001	-1.321395e+002	-6.559312e+001	7.295962e+001	-2.000000e+002	0.000000e+000	-2.000000e+002	0.000000e+000
902287500	-1.799079e+001	-1.323681e+002	-6.536913e+001	6.220822e+001	-2.000000e+002	0.000000e+000	-2.000000e+002	0.000000e+000
902325000	-1.800107e+001	-1.325489e+002	-6.695634e+001	4.583142e+001	-2.000000e+002	0.000000e+000	-2.000000e+002	0.000000e+000
902362500	-1.799073e+001	-1.327877e+002	-6.669128e+001	6.729698e+001	-2.000000e+002	0.000000e+000	-2.000000e+002	0.000000e+000
902400000	-1.799647e+001	-1.330241e+002	-6.558843e+001	5.841349e+001	-2.000000e+002	0.000000e+000	-2.000000e+002	0.000000e+000
902437500	-1.799994e+001	-1.332756e+002	-6.377843e+001	5.819029e+001	-2.000000e+002	0.000000e+000	-2.000000e+002	0.000000e+000
902475000	-1.798980e+001	-1.335117e+002	-6.443542e+001	7.062030e+001	-2.000000e+002	0.000000e+000	-2.000000e+002	0.000000e+000
902512500	-1.799819e+001	-1.337310e+002	-6.352774e+001	6.046680e+001	-2.000000e+002	0.000000e+000	-2.000000e+002	0.000000e+000
902550000	-1.799272e+001	-1.339935e+002	-6.373842e+001	5.867249e+001	-2.000000e+002	0.000000e+000	-2.000000e+002	0.000000e+000
902587500	-1.798452e+001	-1.342081e+002	-6.476558e+001	5.971519e+001	-2.000000e+002	0.000000e+000	-2.000000e+002	0.000000e+000
902625000	-1.799607e+001	-1.344216e+002	-6.454638e+001	4.805697e+001	-2.000000e+002	0.000000e+000	-2.000000e+002	0.000000e+000
902662500	-1.799878e+001	-1.346731e+002	-6.369591e+001	5.468464e+001	-2.000000e+002	0.000000e+000	-2.000000e+002	0.000000e+000
902700000	-1.800082e+001	-1.349169e+002	-6.438865e+001	5.190832e+001	-2.000000e+002	0.000000e+000	-2.000000e+002	0.000000e+000
902737500	-1.800576e+001	-1.351247e+002	-6.305120e+001	6.040324e+001	-2.000000e+002	0.000000e+000	-2.000000e+002	0.000000e+000
902775000	-1.801094e+001	-1.353642e+002	-6.434664e+001	5.381265e+001	-2.000000e+002	0.000000e+000	-2.000000e+002	0.000000e+000
902812500	-1.802573e+001	-1.355236e+002	-6.510739e+001	5.043712e+001	-2.000000e+002	0.000000e+000	-2.000000e+002	0.000000e+000
902850000	-1.801408e+001	-1.357393e+002	-6.567882e+001	5.930290e+001	-2.000000e+002	0.000000e+000	-2.000000e+002	0.000000e+000
902887500	-1.802276e+001	-1.359859e+002	-6.478283e+001	4.641537e+001	-2.000000e+002	0.000000e+000	-2.000000e+002	0.000000e+000
902925000	-1.803153e+001	-1.361473e+002	-6.309185e+001	4.597142e+001	-2.000000e+002	0.000000e+000	-2.000000e+002	0.000000e+000
902962500	-1.802826e+001	-1.363573e+002	-6.429936e+001	5.185609e+001	-2.000000e+002	0.000000e+000	-2.000000e+002	0.000000e+000
903000000	-1.803085e+001	-1.364913e+002	-6.381744e+001	5.243364e+001	-2.000000e+002	0.000000e+000	-2.000000e+002	0.000000e+000
903037500	-1.803784e+001	-1.367166e+002	-6.441794e+001	4.895673e+001	-2.000000e+002	0.000000e+000	-2.000000e+002	0.000000e+000
903075000	-1.803264e+001	-1.369560e+002	-6.403699e+001	4.997868e+001	-2.000000e+002	0.000000e+000	-2.000000e+002	0.000000e+000
903112500	-1.803117e+001	-1.370507e+002	-6.339096e+001	5.801316e+001	-2.000000e+002	0.000000e+000	-2.000000e+002	0.000000e+000
903150000	-1.803213e+001	-1.372920e+002	-6.370896e+001	5.159992e+001	-2.000000e+002	0.000000e+000	-2.000000e+002	0.000000e+000
903187500	-1.803353e+001	-1.375375e+002	-6.357335e+001	4.720503e+001	-2.000000e+002	0.000000e+000	-2.000000e+002	0.000000e+000
903225000	-1.802605e+001	-1.377171e+002	-6.369937e+001	5.609208e+001	-2.000000e+002	0.000000e+000	-2.000000e+002	0.000000e+000
903262500	-1.802663e+001	-1.378800e+002	-6.322974e+001	4.991494e+001	-2.000000e+002	0.000000e+000	-2.000000e+002	0.000000e+000
903300000	-1.803145e+001	-1.381567e+002	-6.365259e+001	5.530783e+001	-2.000000e+002	0.000000e+000	-2.000000e+002	0.000000e+000
903337500	-1.803334e+001	-1.383627e+002	-6.461652e+001	5.592062e+001	-2.000000e+002	0.000000e+000	-2.000000e+002	0.000000e+000
903375000	-1.802772e+001	-1.385514e+002	-6.344209e+001	4.845404e+001	-2.000000e+002	0.000000e+000	-2.000000e+002	0.000000e+000
903412500	-1.802553e+001	-1.387645e+002	-6.422378e+001	5.949721e+001	-2.000000e+002	0.000000e+000	-2.000000e+002	0.000000e+000
903450000	-1.802704e+001	-1.389920e+002	-6.439347e+001	4.086360e+001	-2.000000e+002	0.000000e+000	-2.000000e+002	0.000000e+000
903487500	-1.802110e+001	-1.391961e+002	-6.461951e+001	4.205834e+001	-2.000000e+002	0.000000e+000	-2.000000e+002	0.000000e+000
903525000	-1.803398e+001	-1.394425e+002	-6.322919e+001	4.846385e+001	-2.000000e+002	0.000000e+000	-2.000000e+002	0.000000e+000
903562500	-1.803588e+001	-1.396402e+002	-6.316388e+001	4.492110e+001	-2.000000e+002	0.000000e+000	-2.000000e+002	0.000000e+000
903600000	-1.802878e+001	-1.398600e+002	-6.255786e+001	3.645038e+001	-2.000000e+002	0.000000e+000	-2.000000e+002	0.000000e+000
903637500	-1.802832e+001	-1.400021e+002	-6.418662e+001	5.059617e+001	-2.000000e+002	0.000000e+000	-2.000000e+002	0.000000e+000
903675000	-1.803140e+001	-1.402350e+002	-6.366741e+001	4.100715e+001	-2.000000e+002	0.000000e+000	-2.000000e+002	0.000000e+000
903712500	-1.803909e+001	-1.405112e+002	-6.354869e+001	4.661980e+001	-2.000000e+002	0.000000e+000	-2.000000e+002	0.000000e+000
903750000	-1.804396e+001	-1.407001e+002	-6.364331e+001	4.358264e+001	-2.000000e+002	0.000000e+000	-2.000000e+002	0.000000e+000
903787500	-1.803821e+001	-1.409166e+002	-6.313333e+001	4.576546e+001	-2.000000e+002	0.000000e+000	-2.000000e+002	0.000000e+000
903825000	-1.803879e+001	-1.411368e+002	-6.265268e+001	4.281910e+001	-2.000000e+002	0.000000e+000	-2.000000e+002	0.000000e+000
903862500	-1.804330e+001	-1.413541e+002	-6.361047e+001	4.129728e+001	-2.000000e+002	0.000000e+000	-2.000000e+002	0.000000e+000
903900000	-1.804517e+001	-1.415874e+002	-6.451857e+001	4.082971e+001	-2.000000e+002	0.000000e+000	-2.000000e+002	0.000000e+000
903937500	-1.804855e+001	-1.417783e+002	-6.459654e+001	3.809483e+001	-2.000000e+002	0.000000e+000	-2.000000e+002	0.000000e+000
903975000	-1.804887e+001	-1.419232e+002	-6.329779e+001	3.806017e+001	-2.000000e+002	0.000000e+000	-2.000000e+002	0.000000e+000
904012500	-1.805386e+001	-1.421762e+002	-6.372504e+001	3.310269e+001	-2.000000e+002	0.000000e+000	-2.000000e+002	0.000000e+000
904050000	-1.805853e+001	-1.423884e+002	-6.353325e+001	3.956518e+001	-2.000000e+002	0.000000e+000	-2.000000e+002	0.000000e+000
904087500	-1.805258e+001	-1.425805e+002	-6.452003e+001	4.802696e+001	-2.000000e+002	0.000000e+000	-2.000000e+002	0.000000e+000
904125000	-1.805763e+001	-1.427830e+002	-6.416054e+001	3.599596e+001	-2.000000e+002	0.000000e+000	-2.000000e+002	0.000000e+000
904162500	-1.806391e+001	-1.430386e+002	-6.300193e+001	3.681493e+001	-2.000000e+002	0.000000e+000	-2.000000e+002	0.000000e+000
904200000	-1.804804e+001	-1.432225e+002	-6.269412e+001	3.788460e+001	-2.000000e+002	0.000000e+000	-2.000000e+002	0.000000e+000
904237500	-1.805920e+001	-1.433811e+002	-6.276173e+001	3.104833e+001	-2.000000e+002	0.000000e+000	-2.000000e+002	0.000000e+000
904275000	-1.805590e+001	-1.435360e+002	-6.247632e+001	4.172790e+001	-2.000000e+002	0.000000e+000	-2.000000e+002	0.000000e+000
904312500	-1.806494e+001	-1.437491e+002	-6.380838e+001	4.207246e+001	-2.000000e+002	0.000000e+000	-2.000000e+002	0.000000e+000
904350000	-1.807053e+001	-1.440042e+002	-6.304875e+001	3.414619e+001	-2.000000e+002	0.000000e+000	-2.000000e+002	0.000000e+000
904387500	-1.806979e+001	-1.441880e+002	-6.339440e+001	3.127841e+001	-2.000000e+002	0.000000e+000	-2.000000e+002	0.000000e+000
904425000	-1.806604e+001	-1.444079e+002	-6.236691e+001	3.230831e+001	-2.000000e+002	0.000000e+000	-2.000000e+002	0.000000e+000
904462500	-1.806367e+001	-1.446132e+002	-6.308748e+001	3.512854e+001	-2.000000e+002	0.000000e+000	-2.000000e+002	0.000000e+000
904500000	-1.806572e+001	-1.447917e+002	-6.301174e+001	3.934645e+001	-2.000000e+002	0.000000e+000	-2.000000e+002	0.000000e+000
904537500	-1.806987e+001	-1.449743e+002	-6.246479e+001	3.724616e+001	-2.000000e+002	0.000000e+000	-2.000000e+002	0.000000e+000
904575000	-1.807276e+001	-1.451778e+002	-6.262737e+001	3.502023e+001	-2.000000e+002	0.000000e+000	-2.000000e+002	0.000000e+000
904612500	-1.807199e+001	-1.453998e+002	-6.248480e+001	3.628121e+001	-2.000000e+002	0.000000e+000	-2.000000e+002	0.000000e+000
904650000	-1.806941e+001	-1.456061e+002	-6.190231e+001	2.836527e+001	-2.000000e+002	0.000000e+000	-2.000000e+002	0.000000e+000
904687500	-1.807774e+001	-1.458687e+002	-6.337985e+001	3.437152e+001	-2.000000e+002	0.000000e+000	-2.000000e+002	0.000000e+000
904725000	-1.807927e+001	-1.460707e+002	-6.277509e+001	3.295815e+001	-2.000000e+002	0.000000e+000	-2.000000e+002	0.000000e+000
904762500	-1.808274e+001	-1.462221e+002	-6.207640e+001	3.418772e+001	-2.000000e+002	0.000000e+000	-2.000000e+002	0.000000e+000
904800000	-1.808229e+001	-1.464224e+002	-6.185241e+001	3.123973e+001	-2.000000e+002	0.000000e+000	-2.000000e+002	0.000000e+000
904837500	-1.808151e+001	-1.466033e+002	-6.366446e+001	2.515003e+001	-2.000000e+002	0.000000e+000	-2.000000e+002	0.000000e+000
904875000	-1.809725e+001	-1.468150e+002	-6.427634e+001	3.709801e+001	-2.000000e+002	0.000000e+000	-2.000000e+002	0.000000e+000
904912500	-1.808389e+001	-1.470710e+002	-6.391159e+001	3.140890e+001	-2.000000e+002	0.000000e+000	-2.000000e+002	0.000000e+000
904950000	-1.808010e+001	-1.472078e+002	-6.229593e+001	2.326994e+001	-2.000000e+002	0.000000e+000	-2.000000e+002	0.000000e+000
904987500	-1.808493e+001	-1.474396e+002	-6.237190e+001	2.767104e+001	-2.000000e+002	0.000000e+000	-2.000000e+002	0.000000e+000
905025000	-1.809741e+001	-1.476422e+002	-6.151149e+001	2.914266e+001	-2.000000e+002	0.000000e+000	-2.000000e+002	0.000000e+000
905062500	-1.808645e+001	-1.477716e+002	-6.311544e+001	3.274450e+001	-2.000000e+002	0.000000e+000	-2.000000e+002	0.000000e+000
905100000	-1.809452e+001	-1.480151e+002	-6.208738e+001	2.321923e+001	-2.000000e+002	0.000000e+000	-2.000000e+002	0.000000e+000
905137500	-1.809589e+001	-1.482123e+002	-6.336865e+001	3.430634e+001	-2.000000e+002	0.000000e+000	-2.000000e+002	0.000000e+000
905175000	-1.809362e+001	-1.483942e+002	-6.239681e+001	2.005842e+001	-2.000000e+002	0.000000e+000	-2.000000e+002	0.000000e+000
905212500	-1.809402e+001	-1.485903e+002	-6.122949e+001	1.938516e+001	-2.000000e+002	0.000000e+000	-2.000000e+002	0.000000e+000
905250000	-1.809082e+001	-1.487736e+002	-6.101109e+001	2.442967e+001	-2.000000e+002	0.000000e+000	-2.000000e+002	0.000000e+000
905287500	-1.809372e+001	-1.489951e+002	-6.305800e+001	3.119852e+001	-2.000000e+002	0.000000e+000	-2.000000e+002	0.000000e+000
905325000	-1.809317e+001	-1.491437e+002	-6.155080e+001	2.820583e+001	-2.000000e+002	0.000000e+000	-2.000000e+002	0.000000e+000
905362500	-1.808753e+001	-1.493614e+002	-6.234358e+001	2.854137e+001	-2.000000e+002	0.000000e+000	-2.000000e+002	0.000000e+000
905400000	-1.808610e+001	-1.495857e+002	-6.162440e+001	1.650380e+001	-2.000000e+002	0.000000e+000	-2.000000e+002	0.000000e+000
905437500	-1.809425e+001	-1.497919e+002	-6.207062e+001	1.275292e+001	-2.000000e+002	0.000000e+000	-2.000000e+002	0.000000e+000
905475000	-1.808125e+001	-1.499640e+002	-6.163550e+001	1.806869e+001	-2.000000e+002	0.000000e+000	-2.000000e+002	0.000000e+000
905512500	-1.808866e+001	-1.502016e+002	-6.263927e+001	1.664984e+001	-2.000000e+002	0.000000e+000	-2.000000e+002	0.000000e+000
905550000	-1.808751e+001	-1.503753e+002	-6.263303e+001	2.534098e+001	-2.000000e+002	0.000000e+000	-2.000000e+002	0.000000e+000
905587500	-1.808866e+001	-1.505907e+002	-6.256244e+001	2.064476e+001	-2.000000e+002	0.000000e+000	-2.000000e+002	0.000000e+000
905625000	-1.807325e+001	-1.508379e+002	-6.200343e+001	1.567405e+001	-2.000000e+002	0.000000e+000	-2.000000e+002	0.000000e+000
905662500	-1.808790e+001	-1.510051e+002	-6.245182e+001	2.145190e+001	-2.000000e+002	0.000000e+000	-2.000000e+002	0.000000e+000
905700000	-1.808704e+001	-1.512793e+002	-6.097611e+001	1.425669e+001	-2.000000e+002	0.000000e+000	-2.000000e+002	0.000000e+000
