!Agilent Technologies,E5071C,MY46214392,A.11.36
!Date: Thu Feb 26 21:12:01 2026
!Data & Calibration Information:
!Freq	S11:NONE(--)	S21:NONE(--)	S12:NONE(--)	S22:NONE(--)
!PortZ  Port1:50+j0    Port2:50+j0
!Above PortZ is port z conversion or system Z0 setting when saving the data.
!When reading, reference impedance value at option line is always used.
# Hz S dB R 50
900000000	-1.811252e+001	-1.204127e+002	-4.764675e+001	6.964478e+001	-2.000000e+002	0.000000e+000	-2.000000e+002	0.000000e+000
900037500	-1.811290e+001	-1.205815e+002	-4.743788e+001	6.941169e+001	-2.000000e+002	0.000000e+000	-2.000000e+002	0.000000e+000
900075000	-1.811437e+001	-1.207911e+002	-4.773412e+001	6.812757e+001	-2.000000e+002	0.000000e+000	-2.000000e+002	0.000000e+000
900112500	-1.811143e+001	-1.210073e+002	-4.739297e+001	6.781864e+001	-2.000000e+002	0.000000e+000	-2.000000e+002	0.000000e+000
900150000	-1.810889e+001	-1.211780e+002	-4.735362e+001	6.579605e+001	-2.000000e+002	0.000000e+000	-2.000000e+002	0.000000e+000
900187500	-1.811319e+001	-1.213919e+002	-4.729514e+001	6.554756e+001	-2.000000e+002	0.000000e+000	-2.000000e+002	0.000000e+000
900225000	-1.810352e+001	-1.216021e+002	-4.743991e+001	6.642306e+001	-2.000000e+002	0.000000e+000	-2.000000e+002	0.000000e+000
900262500	-1.810835e+001	-1.217745e+002	-4.732982e+001	6.517273e+001	-2.000000e+002	0.000000e+000	-2.000000e+002	0.000000e+000
900300000	-1.810079e+001	-1.219737e+002	-4.710118e+001	6.331763e+001	-2.000000e+002	0.000000e+000	-2.000000e+002	0.000000e+000
900337500	-1.811544e+001	-1.221550e+002	-4.704818e+001	6.245241e+001	-2.000000e+002	0.000000e+000	-2.000000e+002	0.000000e+000
900375000	-1.809939e+001	-1.223863e+002	-4.685253e+001	6.297380e+001	-2.000000e+002	0.000000e+000	-2.000000e+002	0.000000e+000
900412500	-1.810451e+001	-1.225743e+002	-4.691385e+001	6.203028e+001	-2.000000e+002	0.000000e+000	-2.000000e+002	0.000000e+000
900450000	-1.809703e+001	-1.227777e+002	-4.692967e+001	6.125476e+001	-2.000000e+002	0.000000e+000	-2.000000e+002	0.000000e+000
900487500	-1.810051e+001	-1.229651e+002	-4.675382e+001	6.077782e+001	-2.000000e+002	0.000000e+000	-2.000000e+002	0.000000e+000
900525000	-1.809931e+001	-1.231805e+002	-4.681635e+001	6.035633e+001	-2.000000e+002	0.000000e+000	-2.000000e+002	0.000000e+000
900562500	-1.810053e+001	-1.233293e+002	-4.656978e+001	5.853726e+001	-2.000000e+002	0.000000e+000	-2.000000e+002	0.000000e+000
900600000	-1.810658e+001	-1.235083e+002	-4.664783e+001	5.830185e+001	-2.000000e+002	0.000000e+000	-2.000000e+002	0.000000e+000
900637500	-1.810071e+001	-1.237595e+002	-4.654005e+001	5.805179e+001	-2.000000e+002	0.000000e+000	-2.000000e+002	0.000000e+000
900675000	-1.809698e+001	-1.239356e+002	-4.644962e+001	5.756381e+001	-2.000000e+002	0.000000e+000	-2.000000e+002	0.000000e+000
900712500	-1.809964e+001	-1.241552e+002	-4.620640e+001	5.703467e+001	-2.000000e+002	0.000000e+000	-2.000000e+002	0.000000e+000
900750000	-1.809953e+001	-1.244019e+002	-4.618375e+001	5.622226e+001	-2.000000e+002	0.000000e+000	-2.000000e+002	0.000000e+000
900787500	-1.809348e+001	-1.245706e+002	-4.602694e+001	5.433031e+001	-2.000000e+002	0.000000e+000	-2.000000e+002	0.000000e+000
900825000	-1.809992e+001	-1.247295e+002	-4.633638e+001	5.326903e+001	-2.000000e+002	0.000000e+000	-2.000000e+002	0.000000e+000
900862500	-1.809712e+001	-1.249202e+002	-4.590458e+001	5.465451e+001	-2.000000e+002	0.000000e+000	-2.000000e+002	0.000000e+000
900900000	-1.809614e+001	-1.250704e+002	-4.598009e+001	5.299032e+001	-2.000000e+002	0.000000e+000	-2.000000e+002	0.000000e+000
900937500	-1.809540e+001	-1.253943e+002	-4.583024e+001	5.094044e+001	-2.000000e+002	0.000000e+000	-2.000000e+002	0.000000e+000
900975000	-1.810083e+001	-1.255022e+002	-4.565033e+001	5.091672e+001	-2.000000e+002	0.000000e+000	-2.000000e+002	0.000000e+000
901012500	-1.810263e+001	-1.257106e+002	-4.585540e+001	5.039383e+001	-2.000000e+002	0.000000e+000	-2.000000e+002	0.000000e+000
901050000	-1.808623e+001	-1.259254e+002	-4.561840e+001	4.862831e+001	-2.000000e+002	0.000000e+000	-2.000000e+002	0.000000e+000
901087500	-1.809432e+001	-1.261452e+002	-4.530479e+001	4.805164e+001	-2.000000e+002	0.000000e+000	-2.000000e+002	0.000000e+000
901125000	-1.808805e+001	-1.262997e+002	-4.541599e+001	4.726330e+001	-2.000000e+002	0.000000e+000	-2.000000e+002	0.000000e+000
901162500	-1.809376e+001	-1.265141e+002	-4.529367e+001	4.779681e+001	-2.000000e+002	0.000000e+000	-2.000000e+002	0.000000e+000
901200000	-1.808718e+001	-1.267338e+002	-4.515401e+001	4.595339e+001	-2.000000e+002	0.000000e+000	-2.000000e+002	0.000000e+000
901237500	-1.808312e+001	-1.269406e+002	-4.543742e+001	4.459683e+001	-2.000000e+002	0.000000e+000	-2.000000e+002	0.000000e+000
901275000	-1.809479e+001	-1.271483e+002	-4.507950e+001	4.523300e+001	-2.000000e+002	0.000000e+000	-2.000000e+002	0.000000e+000
901312500	-1.809610e+001	-1.273450e+002	-4.500535e+001	4.392810e+001	-2.000000e+002	0.000000e+000	-2.000000e+002	0.000000e+000
901350000	-1.808702e+001	-1.275197e+002	-4.494555e+001	4.362261e+001	-2.000000e+002	0.000000e+000	-2.000000e+002	0.000000e+000
901387500	-1.808561e+001	-1.277493e+002	-4.490049e+001	4.217946e+001	-2.000000e+002	0.000000e+000	-2.000000e+002	0.000000e+000
901425000	-1.808622e+001	-1.279425e+002	-4.486272e+001	4.184705e+001	-2.000000e+002	0.000000e+000	-2.000000e+002	0.000000e+000
901462500	-1.808333e+001	-1.281690e+002	-4.473534e+001	4.188914e+001	-2.000000e+002	0.000000e+000	-2.000000e+002	0.000000e+000
901500000	-1.807818e+001	-1.283904e+002	-4.472966e+001	3.896438e+001	-2.000000e+002	0.000000e+000	-2.000000e+002	0.000000e+000
901537500	-1.808676e+001	-1.285091e+002	-4.448563e+001	3.869991e+001	-2.000000e+002	0.000000e+000	-2.000000e+002	0.000000e+000
901575000	-1.808332e+001	-1.287350e+002	-4.450646e+001	3.775995e+001	-2.000000e+002	0.000000e+000	-2.000000e+002	0.000000e+000
901612500	-1.807800e+001	-1.289363e+002	-4.440589e+001	3.791503e+001	-2.000000e+002	0.000000e+000	-2.000000e+002	0.000000e+000
901650000	-1.807756e+001	-1.291392e+002	-4.427900e+001	3.625962e+001	-2.000000e+002	0.000000e+000	-2.000000e+002	0.000000e+000
901687500	-1.807728e+001	-1.293952e+002	-4.426960e+001	3.611231e+001	-2.000000e+002	0.000000e+000	-2.000000e+002	0.000000e+000
901725000	-1.807936e+001	-1.295938e+002	-4.433214e+001	3.598316e+001	-2.000000e+002	0.000000e+000	-2.000000e+002	0.000000e+000
901762500	-1.806872e+001	-1.297696e+002	-4.419309e+001	3.497337e+001	-2.000000e+002	0.000000e+000	-2.000000e+002	0.000000e+000
901800000	-1.805558e+001	-1.299862e+002	-4.417554e+001	3.334051e+001	-2.000000e+002	0.000000e+000	-2.000000e+002	0.000000e+000
901837500	-1.806698e+001	-1.301826e+002	-4.411785e+001	3.306795e+001	-2.000000e+002	0.000000e+000	-2.000000e+002	0.000000e+000
901875000	-1.807261e+001	-1.303397e+002	-4.387836e+001	3.176383e+001	-2.000000e+002	0.000000e+000	-2.000000e+002	0.000000e+000
901912500	-1.806053e+001	-1.306369e+002	-4.386415e+001	3.124197e+001	-2.000000e+002	0.000000e+000	-2.000000e+002	0.000000e+000
901950000	-1.805732e+001	-1.308319e+002	-4.389239e+001	2.973981e+001	-2.000000e+002	0.000000e+000	-2.000000e+002	0.000000e+000
901987500	-1.805759e+001	-1.310233e+002	-4.372310e+001	3.021169e+001	-2.000000e+002	0.000000e+000	-2.000000e+002	0.000000e+000
902025000	-1.805861e+001	-1.312648e+002	-4.371173e+001	2.842163e+001	-2.000000e+002	0.000000e+000	-2.000000e+002	0.000000e+000
902062500	-1.805162e+001	-1.314013e+002	-4.364994e+001	2.677993e+001	-2.000000e+002	0.000000e+000	-2.000000e+002	0.000000e+000
902100000	-1.805584e+001	-1.316132e+002	-4.357399e+001	2.679479e+001	-2.000000e+002	0.000000e+000	-2.000000e+002	0.000000e+000
902137500	-1.805290e+001	-1.317983e+002	-4.363776e+001	2.561847e+001	-2.000000e+002	0.000000e+000	-2.000000e+002	0.000000e+000
902175000	-1.805189e+001	-1.320565e+002	-4.350392e+001	2.477022e+001	-2.000000e+002	0.000000e+000	-2.000000e+002	0.000000e+000
902212500	-1.804325e+001	-1.323119e+002	-4.338860e+001	2.374345e+001	-2.000000e+002	0.000000e+000	-2.000000e+002	0.000000e+000
902250000	-1.805160e+001	-1.324513e+002	-4.351393e+001	2.399792e+001	-2.000000e+002	0.000000e+000	-2.000000e+002	0.000000e+000
902287500	-1.804972e+001	-1.327529e+002	-4.335478e+001	2.299129e+001	-2.000000e+002	0.000000e+000	-2.000000e+002	0.000000e+000
902325000	-1.804650e+001	-1.329389e+002	-4.336505e+001	2.228947e+001	-2.000000e+002	0.000000e+000	-2.000000e+002	0.000000e+000
902362500	-1.803636e+001	-1.331318e+002	-4.311633e+001	2.070599e+001	-2.000000e+002	0.000000e+000	-2.000000e+002	0.000000e+000
902400000	-1.803072e+001	-1.333416e+002	-4.311573e+001	2.129522e+001	-2.000000e+002	0.000000e+000	-2.000000e+002	0.000000e+000
902437500	-1.803725e+001	-1.335834e+002	-4.303176e+001	2.023583e+001	-2.000000e+002	0.000000e+000	-2.000000e+002	0.000000e+000
902475000	-1.803199e+001	-1.338330e+002	-4.327697e+001	1.939840e+001	-2.000000e+002	0.000000e+000	-2.000000e+002	0.000000e+000
902512500	-1.803165e+001	-1.340642e+002	-4.305046e+001	1.876537e+001	-2.000000e+002	0.000000e+000	-2.000000e+002	0.000000e+000
902550000	-1.804136e+001	-1.343521e+002	-4.299255e+001	1.902598e+001	-2.000000e+002	0.000000e+000	-2.000000e+002	0.000000e+000
902587500	-1.803951e+001	-1.345513e+002	-4.292617e+001	1.820341e+001	-2.000000e+002	0.000000e+000	-2.000000e+002	0.000000e+000
902625000	-1.803032e+001	-1.347857e+002	-4.275388e+001	1.805766e+001	-2.000000e+002	0.000000e+000	-2.000000e+002	0.000000e+000
902662500	-1.804330e+001	-1.350470e+002	-4.287658e+001	1.730402e+001	-2.000000e+002	0.000000e+000	-2.000000e+002	0.000000e+000
902700000	-1.804464e+001	-1.352308e+002	-4.270714e+001	1.608709e+001	-2.000000e+002	0.000000e+000	-2.000000e+002	0.000000e+000
902737500	-1.804953e+001	-1.355385e+002	-4.254579e+001	1.511486e+001	-2.000000e+002	0.000000e+000	-2.000000e+002	0.000000e+000
902775000	-1.805070e+001	-1.356770e+002	-4.257274e+001	1.465818e+001	-2.000000e+002	0.000000e+000	-2.000000e+002	0.000000e+000
902812500	-1.805388e+001	-1.359389e+002	-4.243484e+001	1.334156e+001	-2.000000e+002	0.000000e+000	-2.000000e+002	0.000000e+000
902850000	-1.805762e+001	-1.361043e+002	-4.221984e+001	1.302892e+001	-2.000000e+002	0.000000e+000	-2.000000e+002	0.000000e+000
902887500	-1.806050e+001	-1.363266e+002	-4.222581e+001	1.239883e+001	-2.000000e+002	0.000000e+000	-2.000000e+002	0.000000e+000
902925000	-1.806829e+001	-1.365101e+002	-4.227196e+001	1.077330e+001	-2.000000e+002	0.000000e+000	-2.000000e+002	0.000000e+000
902962500	-1.806659e+001	-1.366877e+002	-4.209283e+001	9.534943e+000	-2.000000e+002	0.000000e+000	-2.000000e+002	0.000000e+000
903000000	-1.807096e+001	-1.368904e+002	-4.209675e+001	8.771032e+000	-2.000000e+002	0.000000e+000	-2.000000e+002	0.000000e+000
903037500	-1.807424e+001	-1.371209e+002	-4.208083e+001	7.176661e+000	-2.000000e+002	0.000000e+000	-2.000000e+002	0.000000e+000
903075000	-1.807836e+001	-1.372752e+002	-4.203781e+001	6.853851e+000	-2.000000e+002	0.000000e+000	-2.000000e+002	0.000000e+000
903112500	-1.807457e+001	-1.374765e+002	-4.200256e+001	5.584959e+000	-2.000000e+002	0.000000e+000	-2.000000e+002	0.000000e+000
903150000	-1.807127e+001	-1.376329e+002	-4.212094e+001	3.531916e+000	-2.000000e+002	0.000000e+000	-2.000000e+002	0.000000e+000
903187500	-1.807452e+001	-1.378615e+002	-4.202299e+001	3.383227e+000	-2.000000e+002	0.000000e+000	-2.000000e+002	0.000000e+000
903225000	-1.807156e+001	-1.380956e+002	-4.209496e+001	2.322320e+000	-2.000000e+002	0.000000e+000	-2.000000e+002	0.000000e+000
903262500	-1.807152e+001	-1.382842e+002	-4.216826e+001	5.925574e-001	-2.000000e+002	0.000000e+000	-2.000000e+002	0.000000e+000
903300000	-1.806661e+001	-1.384593e+002	-4.217162e+001	-2.809292e-001	-2.000000e+002	0.000000e+000	-2.000000e+002	0.000000e+000
903337500	-1.807023e+001	-1.387221e+002	-4.221796e+001	-1.180792e+000	-2.000000e+002	0.000000e+000	-2.000000e+002	0.000000e+000
903375000	-1.806844e+001	-1.388827e+002	-4.231728e+001	-2.604098e+000	-2.000000e+002	0.000000e+000	-2.000000e+002	0.000000e+000
903412500	-1.807006e+001	-1.391056e+002	-4.235288e+001	-3.751018e+000	-2.000000e+002	0.000000e+000	-2.000000e+002	0.000000e+000
903450000	-1.806682e+001	-1.393961e+002	-4.248399e+001	-4.784972e+000	-2.000000e+002	0.000000e+000	-2.000000e+002	0.000000e+000
903487500	-1.807283e+001	-1.395365e+002	-4.251844e+001	-5.161667e+000	-2.000000e+002	0.000000e+000	-2.000000e+002	0.000000e+000
903525000	-1.807818e+001	-1.397638e+002	-4.273154e+001	-5.988674e+000	-2.000000e+002	0.000000e+000	-2.000000e+002	0.000000e+000
903562500	-1.806458e+001	-1.399838e+002	-4.279313e+001	-6.674903e+000	-2.000000e+002	0.000000e+000	-2.000000e+002	0.000000e+000
903600000	-1.806547e+001	-1.402637e+002	-4.295419e+001	-7.565430e+000	-2.000000e+002	0.000000e+000	-2.000000e+002	0.000000e+000
903637500	-1.807453e+001	-1.404367e+002	-4.332252e+001	-9.672123e+000	-2.000000e+002	0.000000e+000	-2.000000e+002	0.000000e+000
903675000	-1.807510e+001	-1.406256e+002	-4.352717e+001	-8.645883e+000	-2.000000e+002	0.000000e+000	-2.000000e+002	0.000000e+000
903712500	-1.808063e+001	-1.408112e+002	-4.370704e+001	-9.991042e+000	-2.000000e+002	0.000000e+000	-2.000000e+002	0.000000e+000
903750000	-1.807512e+001	-1.410657e+002	-4.397154e+001	-1.082772e+001	-2.000000e+002	0.000000e+000	-2.000000e+002	0.000000e+000
903787500	-1.807506e+001	-1.412732e+002	-4.441149e+001	-1.109301e+001	-2.000000e+002	0.000000e+000	-2.000000e+002	0.000000e+000
903825000	-1.808179e+001	-1.414721e+002	-4.489036e+001	-1.229598e+001	-2.000000e+002	0.000000e+000	-2.000000e+002	0.000000e+000
903862500	-1.808019e+001	-1.417069e+002	-4.542922e+001	-1.312981e+001	-2.000000e+002	0.000000e+000	-2.000000e+002	0.000000e+000
903900000	-1.808393e+001	-1.419339e+002	-4.601261e+001	-1.190179e+001	-2.000000e+002	0.000000e+000	-2.000000e+002	0.000000e+000
903937500	-1.808183e+001	-1.421109e+002	-4.705283e+001	-1.109332e+001	-2.000000e+002	0.000000e+000	-2.000000e+002	0.000000e+000
903975000	-1.809010e+001	-1.423211e+002	-4.773816e+001	-9.025472e+000	-2.000000e+002	0.000000e+000	-2.000000e+002	0.000000e+000
904012500	-1.808135e+001	-1.425559e+002	-4.894057e+001	-5.321066e+000	-2.000000e+002	0.000000e+000	-2.000000e+002	0.000000e+000
904050000	-1.808666e+001	-1.427338e+002	-4.998256e+001	-2.659090e+000	-2.000000e+002	0.000000e+000	-2.000000e+002	0.000000e+000
904087500	-1.809038e+001	-1.429411e+002	-5.179729e+001	8.098057e+000	-2.000000e+002	0.000000e+000	-2.000000e+002	0.000000e+000
904125000	-1.808690e+001	-1.431335e+002	-5.338131e+001	2.139717e+001	-2.000000e+002	0.000000e+000	-2.000000e+002	0.000000e+000
904162500	-1.810171e+001	-1.433457e+002	-5.420829e+001	4.451869e+001	-2.000000e+002	0.000000e+000	-2.000000e+002	0.000000e+000
904200000	-1.809585e+001	-1.436168e+002	-5.326880e+001	6.852564e+001	-2.000000e+002	0.000000e+000	-2.000000e+002	0.000000e+000
904237500	-1.810363e+001	-1.437818e+002	-5.069729e+001	8.507387e+001	-2.000000e+002	0.000000e+000	-2.000000e+002	0.000000e+000
904275000	-1.809257e+001	-1.439107e+002	-4.853170e+001	9.643236e+001	-2.000000e+002	0.000000e+000	-2.000000e+002	0.000000e+000
904312500	-1.810421e+001	-1.441288e+002	-4.586955e+001	1.031063e+002	-2.000000e+002	0.000000e+000	-2.000000e+002	0.000000e+000
904350000	-1.810886e+001	-1.443467e+002	-4.370555e+001	1.062751e+002	-2.000000e+002	0.000000e+000	-2.000000e+002	0.000000e+000
904387500	-1.811047e+001	-1.445660e+002	-4.173765e+001	1.066169e+002	-2.000000e+002	0.000000e+000	-2.000000e+002	0.000000e+000
904425000	-1.810559e+001	-1.447399e+002	-3.999182e+001	1.069630e+002	-2.000000e+002	0.000000e+000	-2.000000e+002	0.000000e+000
904462500	-1.810030e+001	-1.450051e+002	-3.835127e+001	1.064197e+002	-2.000000e+002	0.000000e+000	-2.000000e+002	0.000000e+000
904500000	-1.810751e+001	-1.451565e+002	-3.688572e+001	1.052692e+002	-2.000000e+002	0.000000e+000	-2.000000e+002	0.000000e+000
904537500	-1.810671e+001	-1.453452e+002	-3.540977e+001	1.035624e+002	-2.000000e+002	0.000000e+000	-2.000000e+002	0.000000e+000
904575000	-1.810899e+001	-1.456183e+002	-3.402902e+001	1.013433e+002	-2.000000e+002	0.000000e+000	-2.000000e+002	0.000000e+000
904612500	-1.811447e+001	-1.458310e+002	-3.275218e+001	9.933071e+001	-2.000000e+002	0.000000e+000	-2.000000e+002	0.000000e+000
904650000	-1.811529e+001	-1.460440e+002	-3.152055e+001	9.673958e+001	-2.000000e+002	0.000000e+000	-2.000000e+002	0.000000e+000
904687500	-1.811378e+001	-1.461835e+002	-3.030199e+001	9.384295e+001	-2.000000e+002	0.000000e+000	-2.000000e+002	0.000000e+000
904725000	-1.812112e+001	-1.464028e+002	-2.909092e+001	9.096925e+001	-2.000000e+002	0.000000e+000	-2.000000e+002	0.000000e+000
904762500	-1.812072e+001	-1.466798e+002	-2.794801e+001	8.747686e+001	-2.000000e+002	0.000000e+000	-2.000000e+002	0.000000e+000
904800000	-1.811598e+001	-1.468229e+002	-2.685713e+001	8.400900e+001	-2.000000e+002	0.000000e+000	-2.000000e+002	0.000000e+000
904837500	-1.811843e+001	-1.470183e+002	-2.574688e+001	8.022514e+001	-2.000000e+002	0.000000e+000	-2.000000e+002	0.000000e+000
904875000	-1.811898e+001	-1.472170e+002	-2.469012e+001	7.608583e+001	-2.000000e+002	0.000000e+000	-2.000000e+002	0.000000e+000
904912500	-1.812193e+001	-1.474448e+002	-2.366378e+001	7.161921e+001	-2.000000e+002	0.000000e+000	-2.000000e+002	0.000000e+000
904950000	-1.811980e+001	-1.475915e+002	-2.264206e+001	6.676892e+001	-2.000000e+002	0.000000e+000	-2.000000e+002	0.000000e+000
904987500	-1.813406e+001	-1.477743e+002	-2.167610e+001	6.180078e+001	-2.000000e+002	0.000000e+000	-2.000000e+002	0.000000e+000
905025000	-1.813053e+001	-1.480323e+002	-2.074223e+001	5.620587e+001	-2.000000e+002	0.000000e+000	-2.000000e+002	0.000000e+000
905062500	-1.813596e+001	-1.482116e+002	-1.986019e+001	5.045707e+001	-2.000000e+002	0.000000e+000	-2.000000e+002	0.000000e+000
905100000	-1.813279e+001	-1.484170e+002	-1.901754e+001	4.437892e+001	-2.000000e+002	0.000000e+000	-2.000000e+002	0.000000e+000
905137500	-1.813323e+001	-1.485524e+002	-1.824069e+001	3.791776e+001	-2.000000e+002	0.000000e+000	-2.000000e+002	0.000000e+000
905175000	-1.814073e+001	-1.487576e+002	-1.752400e+001	3.130802e+001	-2.000000e+002	0.000000e+000	-2.000000e+002	0.000000e+000
905212500	-1.813172e+001	-1.489562e+002	-1.689329e+001	2.442513e+001	-2.000000e+002	0.000000e+000	-2.000000e+002	0.000000e+000
905250000	-1.812626e+001	-1.491466e+002	-1.633637e+001	1.745097e+001	-2.000000e+002	0.000000e+000	-2.000000e+002	0.000000e+000
905287500	-1.813103e+001	-1.493017e+002	-1.584736e+001	1.032986e+001	-2.000000e+002	0.000000e+000	-2.000000e+002	0.000000e+000
905325000	-1.812482e+001	-1.495124e+002	-1.545418e+001	3.339847e+000	-2.000000e+002	0.000000e+000	-2.000000e+002	0.000000e+000
905362500	-1.813029e+001	-1.498148e+002	-1.512428e+001	-3.599262e+000	-2.000000e+002	0.000000e+000	-2.000000e+002	0.000000e+000
905400000	-1.812324e+001	-1.498735e+002	-1.486410e+001	-1.039043e+001	-2.000000e+002	0.000000e+000	-2.000000e+002	0.000000e+000
905437500	-1.811996e+001	-1.500990e+002	-1.465523e+001	-1.694386e+001	-2.000000e+002	0.000000e+000	-2.000000e+002	0.000000e+000
905475000	-1.812219e+001	-1.503580e+002	-1.449437e+001	-2.323861e+001	-2.000000e+002	0.000000e+000	-2.000000e+002	0.000000e+000
905512500	-1.812544e+001	-1.505335e+002	-1.437935e+001	-2.932298e+001	-2.000000e+002	0.000000e+000	-2.000000e+002	0.000000e+000
905550000	-1.812001e+001	-1.507060e+002	-1.430080e+001	-3.513598e+001	-2.000000e+002	0.000000e+000	-2.000000e+002	0.000000e+000
905587500	-1.811249e+001	-1.509820e+002	-1.423089e+001	-4.065042e+001	-2.000000e+002	0.000000e+000	-2.000000e+002	0.000000e+000
905625000	-1.810685e+001	-1.512124e+002	-1.418912e+001	-4.597905e+001	-2.000000e+002	0.000000e+000	-2.000000e+002	0.000000e+000
905662500	-1.812072e+001	-1.514382e+002	-1.415216e+001	-5.103873e+001	-2.000000e+002	0.000000e+000	-2.000000e+002	0.000000e+000
905700000	-1.812155e+001	-1.516464e+002	-1.412628e+001	-5.592732e+001	-2.000000e+002	0.000000e+000	-2.000000e+002	0.000000e+000
