!Agilent Technologies,E5071C,MY46214392,A.11.36
!Date: Thu Feb 26 21:48:24 2026
!Data & Calibration Information:
!Freq	S11:NONE(--)	S21:NONE(--)	S12:NONE(--)	S22:NONE(--)
!PortZ  Port1:50+j0    Port2:50+j0
!Above PortZ is port z conversion or system Z0 setting when saving the data.
!When reading, reference impedance value at option line is always used.
# Hz S dB R 50
900000000	-1.804171e+001	-1.198914e+002	-7.905199e+001	-5.920003e+001	-2.000000e+002	0.000000e+000	-2.000000e+002	0.000000e+000
900037500	-1.803134e+001	-1.200932e+002	-8.745554e+001	-4.085502e+001	-2.000000e+002	0.000000e+000	-2.000000e+002	0.000000e+000
900075000	-1.804014e+001	-1.202535e+002	-7.519557e+001	-9.459813e+001	-2.000000e+002	0.000000e+000	-2.000000e+002	0.000000e+000
900112500	-1.803345e+001	-1.204419e+002	-7.391414e+001	-7.180890e+001	-2.000000e+002	0.000000e+000	-2.000000e+002	0.000000e+000
900150000	-1.804558e+001	-1.206199e+002	-7.905281e+001	-7.606241e+001	-2.000000e+002	0.000000e+000	-2.000000e+002	0.000000e+000
900187500	-1.803553e+001	-1.208865e+002	-7.674970e+001	-5.654083e+001	-2.000000e+002	0.000000e+000	-2.000000e+002	0.000000e+000
900225000	-1.803094e+001	-1.210502e+002	-7.729235e+001	-6.081678e+001	-2.000000e+002	0.000000e+000	-2.000000e+002	0.000000e+000
900262500	-1.803604e+001	-1.212249e+002	-7.674066e+001	-6.333537e+001	-2.000000e+002	0.000000e+000	-2.000000e+002	0.000000e+000
900300000	-1.802534e+001	-1.214822e+002	-8.019877e+001	-9.633965e+001	-2.000000e+002	0.000000e+000	-2.000000e+002	0.000000e+000
900337500	-1.803246e+001	-1.216065e+002	-7.760983e+001	-5.066158e+001	-2.000000e+002	0.000000e+000	-2.000000e+002	0.000000e+000
900375000	-1.802494e+001	-1.218595e+002	-8.153722e+001	-5.675449e+001	-2.000000e+002	0.000000e+000	-2.000000e+002	0.000000e+000
900412500	-1.803402e+001	-1.219790e+002	-8.348397e+001	-1.542785e+001	-2.000000e+002	0.000000e+000	-2.000000e+002	0.000000e+000
900450000	-1.803744e+001	-1.222786e+002	-8.284297e+001	-2.399931e+001	-2.000000e+002	0.000000e+000	-2.000000e+002	0.000000e+000
900487500	-1.802951e+001	-1.223811e+002	-8.168282e+001	-7.923008e+001	-2.000000e+002	0.000000e+000	-2.000000e+002	0.000000e+000
900525000	-1.802952e+001	-1.225986e+002	-7.970102e+001	-5.163332e+001	-2.000000e+002	0.000000e+000	-2.000000e+002	0.000000e+000
900562500	-1.802728e+001	-1.228489e+002	-8.524412e+001	4.815485e+000	-2.000000e+002	0.000000e+000	-2.000000e+002	0.000000e+000
900600000	-1.803041e+001	-1.230715e+002	-8.877666e+001	-7.817814e+001	-2.000000e+002	0.000000e+000	-2.000000e+002	0.000000e+000
900637500	-1.803665e+001	-1.232198e+002	-9.333937e+001	-1.606875e+001	-2.000000e+002	0.000000e+000	-2.000000e+002	0.000000e+000
900675000	-1.802583e+001	-1.233826e+002	-7.201843e+001	-9.739393e+001	-2.000000e+002	0.000000e+000	-2.000000e+002	0.000000e+000
900712500	-1.802940e+001	-1.236289e+002	-8.564896e+001	3.633922e+000	-2.000000e+002	0.000000e+000	-2.000000e+002	0.000000e+000
900750000	-1.801837e+001	-1.238099e+002	-7.791768e+001	-6.460134e+001	-2.000000e+002	0.000000e+000	-2.000000e+002	0.000000e+000
900787500	-1.802848e+001	-1.240180e+002	-8.640145e+001	3.443714e+001	-2.000000e+002	0.000000e+000	-2.000000e+002	0.000000e+000
900825000	-1.802346e+001	-1.242243e+002	-8.134121e+001	-8.321505e+001	-2.000000e+002	0.000000e+000	-2.000000e+002	0.000000e+000
900862500	-1.802434e+001	-1.244101e+002	-8.474211e+001	-2.980932e+001	-2.000000e+002	0.000000e+000	-2.000000e+002	0.000000e+000
900900000	-1.802545e+001	-1.245984e+002	-7.865473e+001	-5.553094e+001	-2.000000e+002	0.000000e+000	-2.000000e+002	0.000000e+000
900937500	-1.803108e+001	-1.247769e+002	-7.430951e+001	-9.344471e+001	-2.000000e+002	0.000000e+000	-2.000000e+002	0.000000e+000
900975000	-1.802652e+001	-1.250616e+002	-8.268192e+001	-5.537903e+001	-2.000000e+002	0.000000e+000	-2.000000e+002	0.000000e+000
901012500	-1.802187e+001	-1.252297e+002	-8.153045e+001	-1.573044e+002	-2.000000e+002	0.000000e+000	-2.000000e+002	0.000000e+000
901050000	-1.802381e+001	-1.253863e+002	-8.308569e+001	-8.632282e+001	-2.000000e+002	0.000000e+000	-2.000000e+002	0.000000e+000
901087500	-1.802625e+001	-1.255899e+002	-8.471908e+001	-1.362557e+002	-2.000000e+002	0.000000e+000	-2.000000e+002	0.000000e+000
901125000	-1.802264e+001	-1.258267e+002	-9.503896e+001	6.095859e+001	-2.000000e+002	0.000000e+000	-2.000000e+002	0.000000e+000
901162500	-1.802557e+001	-1.260319e+002	-8.384636e+001	-8.604613e+001	-2.000000e+002	0.000000e+000	-2.000000e+002	0.000000e+000
901200000	-1.801996e+001	-1.261478e+002	-7.797570e+001	-5.078824e+001	-2.000000e+002	0.000000e+000	-2.000000e+002	0.000000e+000
901237500	-1.801920e+001	-1.264130e+002	-7.479913e+001	-9.986953e+001	-2.000000e+002	0.000000e+000	-2.000000e+002	0.000000e+000
901275000	-1.801669e+001	-1.265856e+002	-7.764044e+001	-5.945209e+001	-2.000000e+002	0.000000e+000	-2.000000e+002	0.000000e+000
901312500	-1.801767e+001	-1.268009e+002	-8.083790e+001	-6.426737e+001	-2.000000e+002	0.000000e+000	-2.000000e+002	0.000000e+000
901350000	-1.801381e+001	-1.270134e+002	-7.836101e+001	-9.026699e+001	-2.000000e+002	0.000000e+000	-2.000000e+002	0.000000e+000
901387500	-1.801798e+001	-1.272196e+002	-8.522114e+001	-1.675059e+002	-2.000000e+002	0.000000e+000	-2.000000e+002	0.000000e+000
901425000	-1.802147e+001	-1.273924e+002	-7.640798e+001	-4.788550e+001	-2.000000e+002	0.000000e+000	-2.000000e+002	0.000000e+000
901462500	-1.801585e+001	-1.276003e+002	-7.329472e+001	-1.086235e+002	-2.000000e+002	0.000000e+000	-2.000000e+002	0.000000e+000
901500000	-1.801374e+001	-1.277777e+002	-7.461409e+001	-9.622260e+001	-2.000000e+002	0.000000e+000	-2.000000e+002	0.000000e+000
901537500	-1.802439e+001	-1.279757e+002	-8.167113e+001	-4.910198e+001	-2.000000e+002	0.000000e+000	-2.000000e+002	0.000000e+000
901575000	-1.801124e+001	-1.281663e+002	-8.041367e+001	-1.503717e+002	-2.000000e+002	0.000000e+000	-2.000000e+002	0.000000e+000
901612500	-1.800874e+001	-1.283865e+002	-7.722992e+001	-9.361322e+001	-2.000000e+002	0.000000e+000	-2.000000e+002	0.000000e+000
901650000	-1.800482e+001	-1.285578e+002	-7.441743e+001	-7.798796e+001	-2.000000e+002	0.000000e+000	-2.000000e+002	0.000000e+000
901687500	-1.801118e+001	-1.287547e+002	-9.379713e+001	-1.330623e+002	-2.000000e+002	0.000000e+000	-2.000000e+002	0.000000e+000
901725000	-1.801155e+001	-1.290021e+002	-7.826043e+001	-1.014207e+002	-2.000000e+002	0.000000e+000	-2.000000e+002	0.000000e+000
901762500	-1.800854e+001	-1.292126e+002	-8.028749e+001	-5.214831e+001	-2.000000e+002	0.000000e+000	-2.000000e+002	0.000000e+000
901800000	-1.800285e+001	-1.294172e+002	-7.505471e+001	-8.435145e+001	-2.000000e+002	0.000000e+000	-2.000000e+002	0.000000e+000
901837500	-1.798972e+001	-1.296104e+002	-8.230122e+001	-8.254288e+001	-2.000000e+002	0.000000e+000	-2.000000e+002	0.000000e+000
901875000	-1.799866e+001	-1.298068e+002	-7.394579e+001	-8.517546e+001	-2.000000e+002	0.000000e+000	-2.000000e+002	0.000000e+000
901912500	-1.799432e+001	-1.300287e+002	-7.481792e+001	-1.154169e+002	-2.000000e+002	0.000000e+000	-2.000000e+002	0.000000e+000
901950000	-1.799155e+001	-1.302288e+002	-7.480908e+001	-8.064939e+001	-2.000000e+002	0.000000e+000	-2.000000e+002	0.000000e+000
901987500	-1.798689e+001	-1.304753e+002	-7.796938e+001	-7.880209e+001	-2.000000e+002	0.000000e+000	-2.000000e+002	0.000000e+000
902025000	-1.798886e+001	-1.305740e+002	-7.708524e+001	-7.173013e+001	-2.000000e+002	0.000000e+000	-2.000000e+002	0.000000e+000
902062500	-1.798743e+001	-1.308553e+002	-8.654609e+001	-4.852029e+001	-2.000000e+002	0.000000e+000	-2.000000e+002	0.000000e+000
902100000	-1.799034e+001	-1.310787e+002	-8.840089e+001	-1.319201e+002	-2.000000e+002	0.000000e+000	-2.000000e+002	0.000000e+000
902137500	-1.797912e+001	-1.313214e+002	-7.734164e+001	-1.047870e+002	-2.000000e+002	0.000000e+000	-2.000000e+002	0.000000e+000
902175000	-1.799286e+001	-1.314894e+002	-8.480875e+001	-8.238271e+001	-2.000000e+002	0.000000e+000	-2.000000e+002	0.000000e+000
902212500	-1.798185e+001	-1.317273e+002	-7.751084e+001	-8.737278e+001	-2.000000e+002	0.000000e+000	-2.000000e+002	0.000000e+000
902250000	-1.798313e+001	-1.319383e+002	-7.911769e+001	-1.662164e+002	-2.000000e+002	0.000000e+000	-2.000000e+002	0.000000e+000
902287500	-1.797613e+001	-1.321554e+002	-7.298109e+001	-9.076855e+001	-2.000000e+002	0.000000e+000	-2.000000e+002	0.000000e+000
902325000	-1.797643e+001	-1.323782e+002	-7.848973e+001	-8.437798e+001	-2.000000e+002	0.000000e+000	-2.000000e+002	0.000000e+000
902362500	-1.797577e+001	-1.325832e+002	-7.855680e+001	-1.096361e+002	-2.000000e+002	0.000000e+000	-2.000000e+002	0.000000e+000
902400000	-1.797441e+001	-1.328067e+002	-7.617027e+001	-5.932060e+001	-2.000000e+002	0.000000e+000	-2.000000e+002	0.000000e+000
902437500	-1.797224e+001	-1.329998e+002	-8.090216e+001	-1.387591e+002	-2.000000e+002	0.000000e+000	-2.000000e+002	0.000000e+000
902475000	-1.796266e+001	-1.332774e+002	-7.890481e+001	-1.669804e+002	-2.000000e+002	0.000000e+000	-2.000000e+002	0.000000e+000
902512500	-1.796808e+001	-1.335532e+002	-7.486396e+001	-9.917171e+001	-2.000000e+002	0.000000e+000	-2.000000e+002	0.000000e+000
902550000	-1.796889e+001	-1.337522e+002	-7.417440e+001	-7.617150e+001	-2.000000e+002	0.000000e+000	-2.000000e+002	0.000000e+000
902587500	-1.797268e+001	-1.339870e+002	-9.273151e+001	-3.262522e+001	-2.000000e+002	0.000000e+000	-2.000000e+002	0.000000e+000
902625000	-1.796987e+001	-1.342046e+002	-8.849504e+001	-8.429129e+001	-2.000000e+002	0.000000e+000	-2.000000e+002	0.000000e+000
902662500	-1.797382e+001	-1.344491e+002	-8.372141e+001	-1.760653e+002	-2.000000e+002	0.000000e+000	-2.000000e+002	0.000000e+000
902700000	-1.797188e+001	-1.346962e+002	-7.863993e+001	-1.139213e+002	-2.000000e+002	0.000000e+000	-2.000000e+002	0.000000e+000
902737500	-1.798200e+001	-1.349305e+002	-7.545593e+001	-8.197984e+001	-2.000000e+002	0.000000e+000	-2.000000e+002	0.000000e+000
902775000	-1.799239e+001	-1.351622e+002	-7.803646e+001	-1.067902e+002	-2.000000e+002	0.000000e+000	-2.000000e+002	0.000000e+000
902812500	-1.799030e+001	-1.352801e+002	-8.005047e+001	-1.003331e+002	-2.000000e+002	0.000000e+000	-2.000000e+002	0.000000e+000
902850000	-1.799802e+001	-1.355341e+002	-7.557468e+001	-1.435635e+002	-2.000000e+002	0.000000e+000	-2.000000e+002	0.000000e+000
902887500	-1.800183e+001	-1.357234e+002	-8.205301e+001	-7.320894e+001	-2.000000e+002	0.000000e+000	-2.000000e+002	0.000000e+000
902925000	-1.800301e+001	-1.359138e+002	-7.915188e+001	-5.398117e+001	-2.000000e+002	0.000000e+000	-2.000000e+002	0.000000e+000
902962500	-1.800917e+001	-1.361055e+002	-8.014396e+001	-8.547563e+001	-2.000000e+002	0.000000e+000	-2.000000e+002	0.000000e+000
903000000	-1.800286e+001	-1.362744e+002	-7.827968e+001	-7.494921e+001	-2.000000e+002	0.000000e+000	-2.000000e+002	0.000000e+000
903037500	-1.800561e+001	-1.364759e+002	-7.780944e+001	-1.236225e+002	-2.000000e+002	0.000000e+000	-2.000000e+002	0.000000e+000
903075000	-1.800633e+001	-1.367016e+002	-8.304398e+001	-4.238945e+001	-2.000000e+002	0.000000e+000	-2.000000e+002	0.000000e+000
903112500	-1.801001e+001	-1.368821e+002	-7.631402e+001	-1.186206e+002	-2.000000e+002	0.000000e+000	-2.000000e+002	0.000000e+000
903150000	-1.801054e+001	-1.370632e+002	-7.616581e+001	-1.314409e+002	-2.000000e+002	0.000000e+000	-2.000000e+002	0.000000e+000
903187500	-1.800487e+001	-1.372852e+002	-7.981896e+001	-8.501658e+001	-2.000000e+002	0.000000e+000	-2.000000e+002	0.000000e+000
903225000	-1.800950e+001	-1.374935e+002	-8.092649e+001	-9.356437e+001	-2.000000e+002	0.000000e+000	-2.000000e+002	0.000000e+000
903262500	-1.799993e+001	-1.376819e+002	-7.879214e+001	-7.882009e+001	-2.000000e+002	0.000000e+000	-2.000000e+002	0.000000e+000
903300000	-1.800618e+001	-1.379616e+002	-8.667215e+001	2.760081e+001	-2.000000e+002	0.000000e+000	-2.000000e+002	0.000000e+000
903337500	-1.800937e+001	-1.381901e+002	-7.710502e+001	-5.009583e+001	-2.000000e+002	0.000000e+000	-2.000000e+002	0.000000e+000
903375000	-1.800445e+001	-1.383190e+002	-7.399558e+001	-9.986800e+001	-2.000000e+002	0.000000e+000	-2.000000e+002	0.000000e+000
903412500	-1.800749e+001	-1.385251e+002	-7.778405e+001	-1.309950e+002	-2.000000e+002	0.000000e+000	-2.000000e+002	0.000000e+000
903450000	-1.801060e+001	-1.387842e+002	-7.624267e+001	-1.520201e+002	-2.000000e+002	0.000000e+000	-2.000000e+002	0.000000e+000
903487500	-1.800756e+001	-1.389938e+002	-7.953330e+001	-1.440601e+002	-2.000000e+002	0.000000e+000	-2.000000e+002	0.000000e+000
903525000	-1.801573e+001	-1.392165e+002	-8.149527e+001	-1.637632e+002	-2.000000e+002	0.000000e+000	-2.000000e+002	0.000000e+000
903562500	-1.801333e+001	-1.393711e+002	-7.638907e+001	-9.431755e+001	-2.000000e+002	0.000000e+000	-2.000000e+002	0.000000e+000
903600000	-1.801186e+001	-1.396197e+002	-7.660723e+001	-1.545603e+002	-2.000000e+002	0.000000e+000	-2.000000e+002	0.000000e+000
903637500	-1.800788e+001	-1.398237e+002	-7.764842e+001	-1.091148e+002	-2.000000e+002	0.000000e+000	-2.000000e+002	0.000000e+000
903675000	-1.801490e+001	-1.401104e+002	-7.558346e+001	-9.914209e+001	-2.000000e+002	0.000000e+000	-2.000000e+002	0.000000e+000
903712500	-1.801284e+001	-1.402735e+002	-7.781211e+001	-1.458215e+002	-2.000000e+002	0.000000e+000	-2.000000e+002	0.000000e+000
903750000	-1.801263e+001	-1.404571e+002	-7.891318e+001	-1.014772e+002	-2.000000e+002	0.000000e+000	-2.000000e+002	0.000000e+000
903787500	-1.801715e+001	-1.407037e+002	-7.941214e+001	-9.377935e+001	-2.000000e+002	0.000000e+000	-2.000000e+002	0.000000e+000
903825000	-1.802001e+001	-1.409314e+002	-7.664477e+001	-1.447182e+002	-2.000000e+002	0.000000e+000	-2.000000e+002	0.000000e+000
903862500	-1.802912e+001	-1.410758e+002	-8.295616e+001	-9.382562e+001	-2.000000e+002	0.000000e+000	-2.000000e+002	0.000000e+000
903900000	-1.802219e+001	-1.413507e+002	-7.886152e+001	-1.382901e+002	-2.000000e+002	0.000000e+000	-2.000000e+002	0.000000e+000
903937500	-1.802035e+001	-1.415501e+002	-9.306667e+001	3.653668e+000	-2.000000e+002	0.000000e+000	-2.000000e+002	0.000000e+000
903975000	-1.803039e+001	-1.417169e+002	-8.198963e+001	-5.788498e+001	-2.000000e+002	0.000000e+000	-2.000000e+002	0.000000e+000
904012500	-1.802688e+001	-1.419359e+002	-7.770905e+001	-1.201440e+002	-2.000000e+002	0.000000e+000	-2.000000e+002	0.000000e+000
904050000	-1.802569e+001	-1.421043e+002	-7.225974e+001	-1.161653e+002	-2.000000e+002	0.000000e+000	-2.000000e+002	0.000000e+000
904087500	-1.803577e+001	-1.423324e+002	-7.909441e+001	-1.174173e+001	-2.000000e+002	0.000000e+000	-2.000000e+002	0.000000e+000
904125000	-1.803842e+001	-1.425776e+002	-7.930530e+001	-1.141117e+002	-2.000000e+002	0.000000e+000	-2.000000e+002	0.000000e+000
904162500	-1.803494e+001	-1.427534e+002	-8.136026e+001	-1.157648e+002	-2.000000e+002	0.000000e+000	-2.000000e+002	0.000000e+000
904200000	-1.804400e+001	-1.429462e+002	-8.281485e+001	-7.752438e+001	-2.000000e+002	0.000000e+000	-2.000000e+002	0.000000e+000
904237500	-1.804371e+001	-1.431027e+002	-7.673614e+001	-1.138692e+002	-2.000000e+002	0.000000e+000	-2.000000e+002	0.000000e+000
904275000	-1.803737e+001	-1.433662e+002	-7.424719e+001	-1.331110e+002	-2.000000e+002	0.000000e+000	-2.000000e+002	0.000000e+000
904312500	-1.804763e+001	-1.435964e+002	-7.768985e+001	-1.142480e+002	-2.000000e+002	0.000000e+000	-2.000000e+002	0.000000e+000
904350000	-1.804608e+001	-1.437106e+002	-7.659324e+001	-1.139611e+002	-2.000000e+002	0.000000e+000	-2.000000e+002	0.000000e+000
904387500	-1.804482e+001	-1.440287e+002	-8.351939e+001	-7.621090e+001	-2.000000e+002	0.000000e+000	-2.000000e+002	0.000000e+000
904425000	-1.804243e+001	-1.441437e+002	-7.591867e+001	-1.086705e+002	-2.000000e+002	0.000000e+000	-2.000000e+002	0.000000e+000
904462500	-1.804591e+001	-1.443654e+002	-7.854401e+001	-1.204732e+002	-2.000000e+002	0.000000e+000	-2.000000e+002	0.000000e+000
904500000	-1.805127e+001	-1.445706e+002	-7.896491e+001	-8.928254e+001	-2.000000e+002	0.000000e+000	-2.000000e+002	0.000000e+000
904537500	-1.804803e+001	-1.447744e+002	-7.553027e+001	-1.212409e+002	-2.000000e+002	0.000000e+000	-2.000000e+002	0.000000e+000
904575000	-1.805734e+001	-1.449871e+002	-7.552687e+001	-1.332570e+002	-2.000000e+002	0.000000e+000	-2.000000e+002	0.000000e+000
904612500	-1.805747e+001	-1.451859e+002	-7.452516e+001	-1.370223e+002	-2.000000e+002	0.000000e+000	-2.000000e+002	0.000000e+000
904650000	-1.805587e+001	-1.453557e+002	-8.868323e+001	1.087532e+002	-2.000000e+002	0.000000e+000	-2.000000e+002	0.000000e+000
904687500	-1.805108e+001	-1.456066e+002	-8.195569e+001	-1.105580e+002	-2.000000e+002	0.000000e+000	-2.000000e+002	0.000000e+000
904725000	-1.805936e+001	-1.458083e+002	-8.323898e+001	-1.187605e+002	-2.000000e+002	0.000000e+000	-2.000000e+002	0.000000e+000
904762500	-1.805733e+001	-1.459962e+002	-7.342414e+001	-1.099817e+002	-2.000000e+002	0.000000e+000	-2.000000e+002	0.000000e+000
904800000	-1.806012e+001	-1.462498e+002	-7.575951e+001	-1.131844e+002	-2.000000e+002	0.000000e+000	-2.000000e+002	0.000000e+000
904837500	-1.806371e+001	-1.464252e+002	-8.347617e+001	-1.497261e+002	-2.000000e+002	0.000000e+000	-2.000000e+002	0.000000e+000
904875000	-1.806918e+001	-1.466298e+002	-7.954029e+001	-1.396847e+002	-2.000000e+002	0.000000e+000	-2.000000e+002	0.000000e+000
904912500	-1.806755e+001	-1.468220e+002	-8.924709e+001	-1.347645e+002	-2.000000e+002	0.000000e+000	-2.000000e+002	0.000000e+000
904950000	-1.807067e+001	-1.469802e+002	-7.606812e+001	-9.353226e+001	-2.000000e+002	0.000000e+000	-2.000000e+002	0.000000e+000
904987500	-1.807121e+001	-1.471615e+002	-7.688217e+001	-9.839951e+001	-2.000000e+002	0.000000e+000	-2.000000e+002	0.000000e+000
905025000	-1.807589e+001	-1.473481e+002	-8.774096e+001	-1.180900e+002	-2.000000e+002	0.000000e+000	-2.000000e+002	0.000000e+000
905062500	-1.807420e+001	-1.475897e+002	-7.677652e+001	-1.080256e+002	-2.000000e+002	0.000000e+000	-2.000000e+002	0.000000e+000
905100000	-1.806739e+001	-1.477958e+002	-9.290717e+001	-1.587497e+002	-2.000000e+002	0.000000e+000	-2.000000e+002	0.000000e+000
905137500	-1.807755e+001	-1.480012e+002	-7.986940e+001	-1.195247e+002	-2.000000e+002	0.000000e+000	-2.000000e+002	0.000000e+000
905175000	-1.807294e+001	-1.481091e+002	-7.788440e+001	-1.134886e+002	-2.000000e+002	0.000000e+000	-2.000000e+002	0.000000e+000
905212500	-1.807914e+001	-1.483890e+002	-7.356519e+001	-1.030516e+002	-2.000000e+002	0.000000e+000	-2.000000e+002	0.000000e+000
905250000	-1.807429e+001	-1.485551e+002	-7.730515e+001	-1.199776e+002	-2.000000e+002	0.000000e+000	-2.000000e+002	0.000000e+000
905287500	-1.807530e+001	-1.487253e+002	-7.990980e+001	-1.191528e+002	-2.000000e+002	0.000000e+000	-2.000000e+002	0.000000e+000
905325000	-1.807431e+001	-1.489218e+002	-9.259979e+001	-1.486918e+002	-2.000000e+002	0.000000e+000	-2.000000e+002	0.000000e+000
905362500	-1.808156e+001	-1.491544e+002	-8.172812e+001	1.517045e+002	-2.000000e+002	0.000000e+000	-2.000000e+002	0.000000e+000
905400000	-1.807137e+001	-1.493159e+002	-7.687916e+001	-1.335298e+002	-2.000000e+002	0.000000e+000	-2.000000e+002	0.000000e+000
905437500	-1.807511e+001	-1.495192e+002	-7.640575e+001	-1.405506e+002	-2.000000e+002	0.000000e+000	-2.000000e+002	0.000000e+000
905475000	-1.806823e+001	-1.497332e+002	-7.481064e+001	-9.704964e+001	-2.000000e+002	0.000000e+000	-2.000000e+002	0.000000e+000
905512500	-1.806501e+001	-1.499372e+002	-7.293347e+001	-1.210518e+002	-2.000000e+002	0.000000e+000	-2.000000e+002	0.000000e+000
905550000	-1.806542e+001	-1.502017e+002	-7.255812e+001	1.730802e+002	-2.000000e+002	0.000000e+000	-2.000000e+002	0.000000e+000
905587500	-1.807071e+001	-1.503314e+002	-8.234682e+001	-1.150897e+002	-2.000000e+002	0.000000e+000	-2.000000e+002	0.000000e+000
905625000	-1.806645e+001	-1.505680e+002	-7.983456e+001	-1.709520e+002	-2.000000e+002	0.000000e+000	-2.000000e+002	0.000000e+000
905662500	-1.806622e+001	-1.508797e+002	-7.988294e+001	-1.632600e+002	-2.000000e+002	0.000000e+000	-2.000000e+002	0.000000e+000
