!Agilent Technologies,E5071C,MY46214392,A.11.36
!Date: Thu Feb 26 21:24:06 2026
!Data & Calibration Information:
!Freq	S11:NONE(--)	S21:NONE(--)	S12:NONE(--)	S22:NONE(--)
!PortZ  Port1:50+j0    Port2:50+j0
!Above PortZ is port z conversion or system Z0 setting when saving the data.
!When reading, reference impedance value at option line is always used.
# Hz S dB R 50
900000000	-1.804013e+001	-1.197768e+002	-6.435192e+001	2.264759e+001	-2.000000e+002	0.000000e+000	-2.000000e+002	0.000000e+000
900037500	-1.804660e+001	-1.199960e+002	-6.408145e+001	2.541478e+001	-2.000000e+002	0.000000e+000	-2.000000e+002	0.000000e+000
900075000	-1.803307e+001	-1.201960e+002	-6.362537e+001	2.266611e+001	-2.000000e+002	0.000000e+000	-2.000000e+002	0.000000e+000
900112500	-1.804347e+001	-1.203906e+002	-6.249588e+001	2.868091e+001	-2.000000e+002	0.000000e+000	-2.000000e+002	0.000000e+000
900150000	-1.804039e+001	-1.206343e+002	-6.397281e+001	1.827235e+001	-2.000000e+002	0.000000e+000	-2.000000e+002	0.000000e+000
900187500	-1.803790e+001	-1.207742e+002	-6.323655e+001	1.973478e+001	-2.000000e+002	0.000000e+000	-2.000000e+002	0.000000e+000
900225000	-1.803712e+001	-1.209628e+002	-6.346739e+001	3.068899e+001	-2.000000e+002	0.000000e+000	-2.000000e+002	0.000000e+000
900262500	-1.803517e+001	-1.211447e+002	-6.475755e+001	2.864349e+001	-2.000000e+002	0.000000e+000	-2.000000e+002	0.000000e+000
900300000	-1.804686e+001	-1.213569e+002	-6.302766e+001	1.634842e+001	-2.000000e+002	0.000000e+000	-2.000000e+002	0.000000e+000
900337500	-1.803208e+001	-1.215771e+002	-6.258773e+001	1.741811e+001	-2.000000e+002	0.000000e+000	-2.000000e+002	0.000000e+000
900375000	-1.802991e+001	-1.217547e+002	-6.338059e+001	1.840443e+001	-2.000000e+002	0.000000e+000	-2.000000e+002	0.000000e+000
900412500	-1.803145e+001	-1.219378e+002	-6.347757e+001	1.424234e+001	-2.000000e+002	0.000000e+000	-2.000000e+002	0.000000e+000
900450000	-1.803626e+001	-1.222073e+002	-6.453794e+001	1.612452e+001	-2.000000e+002	0.000000e+000	-2.000000e+002	0.000000e+000
900487500	-1.803032e+001	-1.223621e+002	-6.317606e+001	1.761886e+001	-2.000000e+002	0.000000e+000	-2.000000e+002	0.000000e+000
900525000	-1.803200e+001	-1.225706e+002	-6.418417e+001	1.479826e+001	-2.000000e+002	0.000000e+000	-2.000000e+002	0.000000e+000
900562500	-1.802607e+001	-1.227461e+002	-6.426453e+001	1.549043e+001	-2.000000e+002	0.000000e+000	-2.000000e+002	0.000000e+000
900600000	-1.803091e+001	-1.228980e+002	-6.295563e+001	2.245308e+001	-2.000000e+002	0.000000e+000	-2.000000e+002	0.000000e+000
900637500	-1.802746e+001	-1.231713e+002	-6.238132e+001	1.896162e+001	-2.000000e+002	0.000000e+000	-2.000000e+002	0.000000e+000
900675000	-1.802904e+001	-1.233640e+002	-6.470249e+001	9.819469e+000	-2.000000e+002	0.000000e+000	-2.000000e+002	0.000000e+000
900712500	-1.803153e+001	-1.235256e+002	-6.374107e+001	1.872811e+001	-2.000000e+002	0.000000e+000	-2.000000e+002	0.000000e+000
900750000	-1.803399e+001	-1.237661e+002	-6.386939e+001	7.285292e+000	-2.000000e+002	0.000000e+000	-2.000000e+002	0.000000e+000
900787500	-1.802616e+001	-1.239042e+002	-6.240542e+001	1.888607e+001	-2.000000e+002	0.000000e+000	-2.000000e+002	0.000000e+000
900825000	-1.802459e+001	-1.241472e+002	-6.397008e+001	8.880574e+000	-2.000000e+002	0.000000e+000	-2.000000e+002	0.000000e+000
900862500	-1.803750e+001	-1.243307e+002	-6.334476e+001	1.549730e+001	-2.000000e+002	0.000000e+000	-2.000000e+002	0.000000e+000
900900000	-1.802243e+001	-1.245205e+002	-6.385258e+001	4.868578e+000	-2.000000e+002	0.000000e+000	-2.000000e+002	0.000000e+000
900937500	-1.802159e+001	-1.246937e+002	-6.322611e+001	7.882209e+000	-2.000000e+002	0.000000e+000	-2.000000e+002	0.000000e+000
900975000	-1.802771e+001	-1.248821e+002	-6.359697e+001	9.510057e+000	-2.000000e+002	0.000000e+000	-2.000000e+002	0.000000e+000
901012500	-1.802625e+001	-1.251002e+002	-6.424953e+001	1.697706e+001	-2.000000e+002	0.000000e+000	-2.000000e+002	0.000000e+000
901050000	-1.802231e+001	-1.253140e+002	-6.328046e+001	1.204601e+001	-2.000000e+002	0.000000e+000	-2.000000e+002	0.000000e+000
901087500	-1.802561e+001	-1.255212e+002	-6.246624e+001	9.784871e+000	-2.000000e+002	0.000000e+000	-2.000000e+002	0.000000e+000
901125000	-1.803163e+001	-1.257387e+002	-6.372519e+001	3.545021e+000	-2.000000e+002	0.000000e+000	-2.000000e+002	0.000000e+000
901162500	-1.802130e+001	-1.259136e+002	-6.335380e+001	-3.700851e-001	-2.000000e+002	0.000000e+000	-2.000000e+002	0.000000e+000
901200000	-1.802351e+001	-1.261071e+002	-6.304676e+001	7.138360e+000	-2.000000e+002	0.000000e+000	-2.000000e+002	0.000000e+000
901237500	-1.803039e+001	-1.262672e+002	-6.266246e+001	4.876647e+000	-2.000000e+002	0.000000e+000	-2.000000e+002	0.000000e+000
901275000	-1.802096e+001	-1.264781e+002	-6.395096e+001	1.141027e+001	-2.000000e+002	0.000000e+000	-2.000000e+002	0.000000e+000
901312500	-1.802452e+001	-1.266550e+002	-6.287690e+001	6.471521e+000	-2.000000e+002	0.000000e+000	-2.000000e+002	0.000000e+000
901350000	-1.801417e+001	-1.269011e+002	-6.277850e+001	4.506157e+000	-2.000000e+002	0.000000e+000	-2.000000e+002	0.000000e+000
901387500	-1.801535e+001	-1.271175e+002	-6.279322e+001	5.458292e+000	-2.000000e+002	0.000000e+000	-2.000000e+002	0.000000e+000
901425000	-1.802051e+001	-1.273247e+002	-6.329496e+001	4.620995e+000	-2.000000e+002	0.000000e+000	-2.000000e+002	0.000000e+000
901462500	-1.801035e+001	-1.275426e+002	-6.324475e+001	8.962531e+000	-2.000000e+002	0.000000e+000	-2.000000e+002	0.000000e+000
901500000	-1.802319e+001	-1.277320e+002	-6.119905e+001	9.395064e+000	-2.000000e+002	0.000000e+000	-2.000000e+002	0.000000e+000
901537500	-1.801169e+001	-1.279157e+002	-6.232301e+001	2.408218e+000	-2.000000e+002	0.000000e+000	-2.000000e+002	0.000000e+000
901575000	-1.802059e+001	-1.280976e+002	-6.264007e+001	6.137394e+000	-2.000000e+002	0.000000e+000	-2.000000e+002	0.000000e+000
901612500	-1.801555e+001	-1.283007e+002	-6.192035e+001	-8.713551e-001	-2.000000e+002	0.000000e+000	-2.000000e+002	0.000000e+000
901650000	-1.800927e+001	-1.284838e+002	-6.355379e+001	6.915703e+000	-2.000000e+002	0.000000e+000	-2.000000e+002	0.000000e+000
901687500	-1.800569e+001	-1.287224e+002	-6.329652e+001	-2.840239e+000	-2.000000e+002	0.000000e+000	-2.000000e+002	0.000000e+000
901725000	-1.800859e+001	-1.288687e+002	-6.160187e+001	7.095901e+000	-2.000000e+002	0.000000e+000	-2.000000e+002	0.000000e+000
901762500	-1.801155e+001	-1.291285e+002	-6.265851e+001	6.832990e+000	-2.000000e+002	0.000000e+000	-2.000000e+002	0.000000e+000
901800000	-1.801182e+001	-1.292789e+002	-6.413999e+001	2.062425e+000	-2.000000e+002	0.000000e+000	-2.000000e+002	0.000000e+000
901837500	-1.800403e+001	-1.295476e+002	-6.256059e+001	-3.037794e+000	-2.000000e+002	0.000000e+000	-2.000000e+002	0.000000e+000
901875000	-1.800005e+001	-1.297963e+002	-6.340149e+001	-3.643255e-001	-2.000000e+002	0.000000e+000	-2.000000e+002	0.000000e+000
901912500	-1.799917e+001	-1.299290e+002	-6.235893e+001	3.020607e+000	-2.000000e+002	0.000000e+000	-2.000000e+002	0.000000e+000
901950000	-1.800059e+001	-1.301504e+002	-6.222426e+001	-1.442723e+001	-2.000000e+002	0.000000e+000	-2.000000e+002	0.000000e+000
901987500	-1.798593e+001	-1.303847e+002	-6.201444e+001	-1.362349e+000	-2.000000e+002	0.000000e+000	-2.000000e+002	0.000000e+000
902025000	-1.799301e+001	-1.305908e+002	-6.256936e+001	-2.303436e+000	-2.000000e+002	0.000000e+000	-2.000000e+002	0.000000e+000
902062500	-1.798831e+001	-1.307708e+002	-6.220955e+001	2.735564e+000	-2.000000e+002	0.000000e+000	-2.000000e+002	0.000000e+000
902100000	-1.798469e+001	-1.309977e+002	-6.251373e+001	-3.639584e+000	-2.000000e+002	0.000000e+000	-2.000000e+002	0.000000e+000
902137500	-1.799166e+001	-1.312082e+002	-6.155825e+001	-4.674872e+000	-2.000000e+002	0.000000e+000	-2.000000e+002	0.000000e+000
902175000	-1.798554e+001	-1.314239e+002	-6.281889e+001	-6.081911e+000	-2.000000e+002	0.000000e+000	-2.000000e+002	0.000000e+000
902212500	-1.798528e+001	-1.315909e+002	-6.123478e+001	-8.353039e+000	-2.000000e+002	0.000000e+000	-2.000000e+002	0.000000e+000
902250000	-1.798225e+001	-1.318519e+002	-6.155655e+001	9.959934e-001	-2.000000e+002	0.000000e+000	-2.000000e+002	0.000000e+000
902287500	-1.797774e+001	-1.320221e+002	-6.098072e+001	-1.040626e+001	-2.000000e+002	0.000000e+000	-2.000000e+002	0.000000e+000
902325000	-1.797654e+001	-1.322954e+002	-6.116725e+001	-6.593783e+000	-2.000000e+002	0.000000e+000	-2.000000e+002	0.000000e+000
902362500	-1.797892e+001	-1.325320e+002	-6.223239e+001	-1.414064e+001	-2.000000e+002	0.000000e+000	-2.000000e+002	0.000000e+000
902400000	-1.797151e+001	-1.326946e+002	-6.174021e+001	-1.919324e+000	-2.000000e+002	0.000000e+000	-2.000000e+002	0.000000e+000
902437500	-1.797100e+001	-1.329667e+002	-6.205975e+001	-7.261697e+000	-2.000000e+002	0.000000e+000	-2.000000e+002	0.000000e+000
902475000	-1.797083e+001	-1.332264e+002	-6.318592e+001	-1.446296e+001	-2.000000e+002	0.000000e+000	-2.000000e+002	0.000000e+000
902512500	-1.796899e+001	-1.334240e+002	-6.218673e+001	-6.947304e+000	-2.000000e+002	0.000000e+000	-2.000000e+002	0.000000e+000
902550000	-1.797074e+001	-1.336529e+002	-6.157449e+001	-9.371451e+000	-2.000000e+002	0.000000e+000	-2.000000e+002	0.000000e+000
902587500	-1.797490e+001	-1.339140e+002	-6.113577e+001	-8.569733e+000	-2.000000e+002	0.000000e+000	-2.000000e+002	0.000000e+000
902625000	-1.798124e+001	-1.341473e+002	-6.162040e+001	-1.104570e+001	-2.000000e+002	0.000000e+000	-2.000000e+002	0.000000e+000
902662500	-1.797638e+001	-1.343692e+002	-6.143786e+001	-8.475831e+000	-2.000000e+002	0.000000e+000	-2.000000e+002	0.000000e+000
902700000	-1.797612e+001	-1.345470e+002	-6.158311e+001	-1.006834e+001	-2.000000e+002	0.000000e+000	-2.000000e+002	0.000000e+000
902737500	-1.797365e+001	-1.348827e+002	-6.095627e+001	-1.694573e+001	-2.000000e+002	0.000000e+000	-2.000000e+002	0.000000e+000
902775000	-1.799347e+001	-1.350198e+002	-6.264819e+001	-1.385619e+001	-2.000000e+002	0.000000e+000	-2.000000e+002	0.000000e+000
902812500	-1.799447e+001	-1.352114e+002	-6.097791e+001	-1.435390e+001	-2.000000e+002	0.000000e+000	-2.000000e+002	0.000000e+000
902850000	-1.799807e+001	-1.354247e+002	-6.125315e+001	-1.117200e+001	-2.000000e+002	0.000000e+000	-2.000000e+002	0.000000e+000
902887500	-1.800363e+001	-1.356418e+002	-6.062455e+001	-1.528638e+001	-2.000000e+002	0.000000e+000	-2.000000e+002	0.000000e+000
902925000	-1.800187e+001	-1.358197e+002	-6.096755e+001	-1.622712e+001	-2.000000e+002	0.000000e+000	-2.000000e+002	0.000000e+000
902962500	-1.800735e+001	-1.360428e+002	-6.106101e+001	-1.447270e+001	-2.000000e+002	0.000000e+000	-2.000000e+002	0.000000e+000
903000000	-1.801510e+001	-1.362578e+002	-6.168593e+001	-1.637323e+001	-2.000000e+002	0.000000e+000	-2.000000e+002	0.000000e+000
903037500	-1.801334e+001	-1.363843e+002	-6.051021e+001	-1.540614e+001	-2.000000e+002	0.000000e+000	-2.000000e+002	0.000000e+000
903075000	-1.800917e+001	-1.366116e+002	-6.186825e+001	-1.717281e+001	-2.000000e+002	0.000000e+000	-2.000000e+002	0.000000e+000
903112500	-1.800976e+001	-1.367810e+002	-6.106156e+001	-1.162794e+001	-2.000000e+002	0.000000e+000	-2.000000e+002	0.000000e+000
903150000	-1.801077e+001	-1.369659e+002	-6.194831e+001	-1.620167e+001	-2.000000e+002	0.000000e+000	-2.000000e+002	0.000000e+000
903187500	-1.800999e+001	-1.371914e+002	-6.120350e+001	-1.474229e+001	-2.000000e+002	0.000000e+000	-2.000000e+002	0.000000e+000
903225000	-1.801364e+001	-1.373921e+002	-6.114228e+001	-1.781782e+001	-2.000000e+002	0.000000e+000	-2.000000e+002	0.000000e+000
903262500	-1.801353e+001	-1.376010e+002	-6.054992e+001	-1.353066e+001	-2.000000e+002	0.000000e+000	-2.000000e+002	0.000000e+000
903300000	-1.800878e+001	-1.378018e+002	-6.043540e+001	-1.373864e+001	-2.000000e+002	0.000000e+000	-2.000000e+002	0.000000e+000
903337500	-1.801696e+001	-1.380080e+002	-6.082304e+001	-2.582486e+001	-2.000000e+002	0.000000e+000	-2.000000e+002	0.000000e+000
903375000	-1.800749e+001	-1.382721e+002	-6.091849e+001	-1.725084e+001	-2.000000e+002	0.000000e+000	-2.000000e+002	0.000000e+000
903412500	-1.801670e+001	-1.384868e+002	-6.114129e+001	-2.472664e+001	-2.000000e+002	0.000000e+000	-2.000000e+002	0.000000e+000
903450000	-1.800345e+001	-1.386743e+002	-6.056948e+001	-2.379673e+001	-2.000000e+002	0.000000e+000	-2.000000e+002	0.000000e+000
903487500	-1.801173e+001	-1.388675e+002	-6.046862e+001	-2.117917e+001	-2.000000e+002	0.000000e+000	-2.000000e+002	0.000000e+000
903525000	-1.801200e+001	-1.390870e+002	-6.114666e+001	-2.179986e+001	-2.000000e+002	0.000000e+000	-2.000000e+002	0.000000e+000
903562500	-1.801699e+001	-1.393000e+002	-5.980725e+001	-2.153570e+001	-2.000000e+002	0.000000e+000	-2.000000e+002	0.000000e+000
903600000	-1.800320e+001	-1.395518e+002	-5.974251e+001	-2.907309e+001	-2.000000e+002	0.000000e+000	-2.000000e+002	0.000000e+000
903637500	-1.801644e+001	-1.397558e+002	-6.024953e+001	-2.832249e+001	-2.000000e+002	0.000000e+000	-2.000000e+002	0.000000e+000
903675000	-1.801296e+001	-1.399904e+002	-6.035744e+001	-2.918784e+001	-2.000000e+002	0.000000e+000	-2.000000e+002	0.000000e+000
903712500	-1.801584e+001	-1.401376e+002	-6.086491e+001	-2.771968e+001	-2.000000e+002	0.000000e+000	-2.000000e+002	0.000000e+000
903750000	-1.801592e+001	-1.404092e+002	-6.070630e+001	-2.326112e+001	-2.000000e+002	0.000000e+000	-2.000000e+002	0.000000e+000
903787500	-1.801653e+001	-1.405872e+002	-6.005735e+001	-3.001607e+001	-2.000000e+002	0.000000e+000	-2.000000e+002	0.000000e+000
903825000	-1.802741e+001	-1.407755e+002	-6.110614e+001	-2.707340e+001	-2.000000e+002	0.000000e+000	-2.000000e+002	0.000000e+000
903862500	-1.803388e+001	-1.410388e+002	-5.904933e+001	-3.007033e+001	-2.000000e+002	0.000000e+000	-2.000000e+002	0.000000e+000
903900000	-1.802669e+001	-1.412414e+002	-6.065581e+001	-2.491656e+001	-2.000000e+002	0.000000e+000	-2.000000e+002	0.000000e+000
903937500	-1.802571e+001	-1.414285e+002	-5.891384e+001	-2.707120e+001	-2.000000e+002	0.000000e+000	-2.000000e+002	0.000000e+000
903975000	-1.803022e+001	-1.416711e+002	-6.055675e+001	-1.893685e+001	-2.000000e+002	0.000000e+000	-2.000000e+002	0.000000e+000
904012500	-1.802117e+001	-1.418735e+002	-5.937915e+001	-3.324445e+001	-2.000000e+002	0.000000e+000	-2.000000e+002	0.000000e+000
904050000	-1.803649e+001	-1.420615e+002	-5.997824e+001	-3.115461e+001	-2.000000e+002	0.000000e+000	-2.000000e+002	0.000000e+000
904087500	-1.803796e+001	-1.422080e+002	-5.923230e+001	-3.329078e+001	-2.000000e+002	0.000000e+000	-2.000000e+002	0.000000e+000
904125000	-1.803601e+001	-1.424545e+002	-6.111891e+001	-3.149642e+001	-2.000000e+002	0.000000e+000	-2.000000e+002	0.000000e+000
904162500	-1.803360e+001	-1.426787e+002	-6.056668e+001	-3.359187e+001	-2.000000e+002	0.000000e+000	-2.000000e+002	0.000000e+000
904200000	-1.805514e+001	-1.428420e+002	-5.896170e+001	-3.559107e+001	-2.000000e+002	0.000000e+000	-2.000000e+002	0.000000e+000
904237500	-1.804289e+001	-1.431159e+002	-5.938062e+001	-2.763475e+001	-2.000000e+002	0.000000e+000	-2.000000e+002	0.000000e+000
904275000	-1.804641e+001	-1.432630e+002	-5.935057e+001	-3.089870e+001	-2.000000e+002	0.000000e+000	-2.000000e+002	0.000000e+000
904312500	-1.805042e+001	-1.434759e+002	-5.978962e+001	-3.557753e+001	-2.000000e+002	0.000000e+000	-2.000000e+002	0.000000e+000
904350000	-1.804161e+001	-1.437114e+002	-5.914705e+001	-3.245365e+001	-2.000000e+002	0.000000e+000	-2.000000e+002	0.000000e+000
904387500	-1.804525e+001	-1.438638e+002	-5.970398e+001	-3.137500e+001	-2.000000e+002	0.000000e+000	-2.000000e+002	0.000000e+000
904425000	-1.805141e+001	-1.441209e+002	-5.968904e+001	-3.222613e+001	-2.000000e+002	0.000000e+000	-2.000000e+002	0.000000e+000
904462500	-1.804943e+001	-1.443039e+002	-5.987053e+001	-3.642242e+001	-2.000000e+002	0.000000e+000	-2.000000e+002	0.000000e+000
904500000	-1.805619e+001	-1.444714e+002	-5.969580e+001	-3.002592e+001	-2.000000e+002	0.000000e+000	-2.000000e+002	0.000000e+000
904537500	-1.805070e+001	-1.446705e+002	-5.950218e+001	-3.592634e+001	-2.000000e+002	0.000000e+000	-2.000000e+002	0.000000e+000
904575000	-1.805438e+001	-1.448877e+002	-5.919919e+001	-3.666857e+001	-2.000000e+002	0.000000e+000	-2.000000e+002	0.000000e+000
904612500	-1.806118e+001	-1.450961e+002	-6.046745e+001	-3.506635e+001	-2.000000e+002	0.000000e+000	-2.000000e+002	0.000000e+000
904650000	-1.805083e+001	-1.453116e+002	-5.918428e+001	-3.081607e+001	-2.000000e+002	0.000000e+000	-2.000000e+002	0.000000e+000
904687500	-1.805570e+001	-1.454615e+002	-5.896336e+001	-4.136650e+001	-2.000000e+002	0.000000e+000	-2.000000e+002	0.000000e+000
904725000	-1.806226e+001	-1.456439e+002	-5.863342e+001	-3.494478e+001	-2.000000e+002	0.000000e+000	-2.000000e+002	0.000000e+000
904762500	-1.806111e+001	-1.459050e+002	-5.967555e+001	-4.236053e+001	-2.000000e+002	0.000000e+000	-2.000000e+002	0.000000e+000
904800000	-1.806375e+001	-1.461083e+002	-6.007209e+001	-4.245387e+001	-2.000000e+002	0.000000e+000	-2.000000e+002	0.000000e+000
904837500	-1.806124e+001	-1.463365e+002	-6.011371e+001	-4.625093e+001	-2.000000e+002	0.000000e+000	-2.000000e+002	0.000000e+000
904875000	-1.806208e+001	-1.464753e+002	-5.933669e+001	-3.624550e+001	-2.000000e+002	0.000000e+000	-2.000000e+002	0.000000e+000
904912500	-1.806764e+001	-1.466644e+002	-5.942846e+001	-3.927343e+001	-2.000000e+002	0.000000e+000	-2.000000e+002	0.000000e+000
904950000	-1.807721e+001	-1.469462e+002	-5.891306e+001	-3.820877e+001	-2.000000e+002	0.000000e+000	-2.000000e+002	0.000000e+000
904987500	-1.806815e+001	-1.471030e+002	-5.909529e+001	-4.461010e+001	-2.000000e+002	0.000000e+000	-2.000000e+002	0.000000e+000
905025000	-1.807542e+001	-1.473136e+002	-5.849620e+001	-3.595383e+001	-2.000000e+002	0.000000e+000	-2.000000e+002	0.000000e+000
905062500	-1.808254e+001	-1.475079e+002	-6.025641e+001	-3.179258e+001	-2.000000e+002	0.000000e+000	-2.000000e+002	0.000000e+000
905100000	-1.807863e+001	-1.476733e+002	-5.910358e+001	-4.263300e+001	-2.000000e+002	0.000000e+000	-2.000000e+002	0.000000e+000
905137500	-1.808715e+001	-1.478067e+002	-5.938148e+001	-4.548715e+001	-2.000000e+002	0.000000e+000	-2.000000e+002	0.000000e+000
905175000	-1.807434e+001	-1.480513e+002	-5.868845e+001	-3.818508e+001	-2.000000e+002	0.000000e+000	-2.000000e+002	0.000000e+000
905212500	-1.807883e+001	-1.482335e+002	-5.932868e+001	-4.142690e+001	-2.000000e+002	0.000000e+000	-2.000000e+002	0.000000e+000
905250000	-1.808090e+001	-1.484621e+002	-5.901353e+001	-4.166929e+001	-2.000000e+002	0.000000e+000	-2.000000e+002	0.000000e+000
905287500	-1.808141e+001	-1.486381e+002	-5.842083e+001	-4.659776e+001	-2.000000e+002	0.000000e+000	-2.000000e+002	0.000000e+000
905325000	-1.808143e+001	-1.488081e+002	-5.821718e+001	-3.780079e+001	-2.000000e+002	0.000000e+000	-2.000000e+002	0.000000e+000
905362500	-1.808004e+001	-1.489914e+002	-5.892751e+001	-4.517966e+001	-2.000000e+002	0.000000e+000	-2.000000e+002	0.000000e+000
905400000	-1.807518e+001	-1.492283e+002	-5.960017e+001	-4.888515e+001	-2.000000e+002	0.000000e+000	-2.000000e+002	0.000000e+000
905437500	-1.807650e+001	-1.494569e+002	-5.829974e+001	-4.940594e+001	-2.000000e+002	0.000000e+000	-2.000000e+002	0.000000e+000
905475000	-1.807287e+001	-1.496679e+002	-5.830267e+001	-4.018029e+001	-2.000000e+002	0.000000e+000	-2.000000e+002	0.000000e+000
905512500	-1.807262e+001	-1.498551e+002	-5.831866e+001	-4.704739e+001	-2.000000e+002	0.000000e+000	-2.000000e+002	0.000000e+000
905550000	-1.807808e+001	-1.500662e+002	-5.852555e+001	-5.477172e+001	-2.000000e+002	0.000000e+000	-2.000000e+002	0.000000e+000
905587500	-1.808115e+001	-1.503181e+002	-5.854284e+001	-4.554554e+001	-2.000000e+002	0.000000e+000	-2.000000e+002	0.000000e+000
905625000	-1.806554e+001	-1.505234e+002	-5.849335e+001	-5.195934e+001	-2.000000e+002	0.000000e+000	-2.000000e+002	0.000000e+000
905662500	-1.807550e+001	-1.507323e+002	-5.794283e+001	-4.750288e+001	-2.000000e+002	0.000000e+000	-2.000000e+002	0.000000e+000
