!Agilent Technologies,E5071C,MY46214392,A.11.36
!Date: Thu Feb 26 21:39:47 2026
!Data & Calibration Information:
!Freq	S11:NONE(--)	S21:NONE(--)	S12:NONE(--)	S22:NONE(--)
!PortZ  Port1:50+j0    Port2:50+j0
!Above PortZ is port z conversion or system Z0 setting when saving the data.
!When reading, reference impedance value at option line is always used.
# Hz S dB R 50
900000000	-1.804906e+001	-1.198462e+002	-8.176641e+001	-2.866085e+001	-2.000000e+002	0.000000e+000	-2.000000e+002	0.000000e+000
900037500	-1.803842e+001	-1.200213e+002	-7.526832e+001	4.019052e+001	-2.000000e+002	0.000000e+000	-2.000000e+002	0.000000e+000
900075000	-1.803761e+001	-1.201947e+002	-7.513695e+001	2.813435e+001	-2.000000e+002	0.000000e+000	-2.000000e+002	0.000000e+000
900112500	-1.804585e+001	-1.204082e+002	-7.128726e+001	1.213799e+001	-2.000000e+002	0.000000e+000	-2.000000e+002	0.000000e+000
900150000	-1.805597e+001	-1.205750e+002	-7.514651e+001	1.054291e+001	-2.000000e+002	0.000000e+000	-2.000000e+002	0.000000e+000
900187500	-1.803489e+001	-1.207890e+002	-7.104145e+001	2.281936e+001	-2.000000e+002	0.000000e+000	-2.000000e+002	0.000000e+000
900225000	-1.804206e+001	-1.210025e+002	-7.574654e+001	2.761624e+001	-2.000000e+002	0.000000e+000	-2.000000e+002	0.000000e+000
900262500	-1.804795e+001	-1.211581e+002	-7.578380e+001	2.329476e+001	-2.000000e+002	0.000000e+000	-2.000000e+002	0.000000e+000
900300000	-1.804079e+001	-1.213724e+002	-7.760731e+001	3.366149e+001	-2.000000e+002	0.000000e+000	-2.000000e+002	0.000000e+000
900337500	-1.804165e+001	-1.215615e+002	-8.181889e+001	-4.140555e+000	-2.000000e+002	0.000000e+000	-2.000000e+002	0.000000e+000
900375000	-1.803827e+001	-1.218284e+002	-7.797707e+001	2.313845e+001	-2.000000e+002	0.000000e+000	-2.000000e+002	0.000000e+000
900412500	-1.803915e+001	-1.219838e+002	-7.749448e+001	1.416092e+001	-2.000000e+002	0.000000e+000	-2.000000e+002	0.000000e+000
900450000	-1.803617e+001	-1.221729e+002	-7.776539e+001	7.209985e+000	-2.000000e+002	0.000000e+000	-2.000000e+002	0.000000e+000
900487500	-1.804142e+001	-1.224002e+002	-8.032153e+001	4.714138e+001	-2.000000e+002	0.000000e+000	-2.000000e+002	0.000000e+000
900525000	-1.804361e+001	-1.225371e+002	-7.308478e+001	-3.102542e+001	-2.000000e+002	0.000000e+000	-2.000000e+002	0.000000e+000
900562500	-1.803798e+001	-1.227491e+002	-7.099899e+001	1.346525e+001	-2.000000e+002	0.000000e+000	-2.000000e+002	0.000000e+000
900600000	-1.803871e+001	-1.229971e+002	-7.671070e+001	-2.798306e+001	-2.000000e+002	0.000000e+000	-2.000000e+002	0.000000e+000
900637500	-1.803482e+001	-1.231688e+002	-7.317596e+001	2.283762e+000	-2.000000e+002	0.000000e+000	-2.000000e+002	0.000000e+000
900675000	-1.804110e+001	-1.233512e+002	-7.985746e+001	-6.616996e+000	-2.000000e+002	0.000000e+000	-2.000000e+002	0.000000e+000
900712500	-1.803564e+001	-1.235454e+002	-7.198104e+001	2.429468e+001	-2.000000e+002	0.000000e+000	-2.000000e+002	0.000000e+000
900750000	-1.803601e+001	-1.237679e+002	-7.621423e+001	-6.005153e-002	-2.000000e+002	0.000000e+000	-2.000000e+002	0.000000e+000
900787500	-1.803465e+001	-1.239116e+002	-7.769478e+001	1.347673e+000	-2.000000e+002	0.000000e+000	-2.000000e+002	0.000000e+000
900825000	-1.803867e+001	-1.241263e+002	-7.304845e+001	-6.386617e+000	-2.000000e+002	0.000000e+000	-2.000000e+002	0.000000e+000
900862500	-1.803637e+001	-1.243728e+002	-7.095108e+001	6.993332e-001	-2.000000e+002	0.000000e+000	-2.000000e+002	0.000000e+000
900900000	-1.803598e+001	-1.245573e+002	-7.384646e+001	1.714169e+001	-2.000000e+002	0.000000e+000	-2.000000e+002	0.000000e+000
900937500	-1.803581e+001	-1.246965e+002	-7.541789e+001	2.670727e+001	-2.000000e+002	0.000000e+000	-2.000000e+002	0.000000e+000
900975000	-1.803139e+001	-1.249815e+002	-7.496580e+001	1.182895e+001	-2.000000e+002	0.000000e+000	-2.000000e+002	0.000000e+000
901012500	-1.803590e+001	-1.251117e+002	-7.874389e+001	-2.674026e+001	-2.000000e+002	0.000000e+000	-2.000000e+002	0.000000e+000
901050000	-1.803381e+001	-1.253457e+002	-7.389805e+001	1.692364e+000	-2.000000e+002	0.000000e+000	-2.000000e+002	0.000000e+000
901087500	-1.803613e+001	-1.255280e+002	-7.479080e+001	1.708994e+001	-2.000000e+002	0.000000e+000	-2.000000e+002	0.000000e+000
901125000	-1.803062e+001	-1.257519e+002	-7.426939e+001	-1.956028e+000	-2.000000e+002	0.000000e+000	-2.000000e+002	0.000000e+000
901162500	-1.803917e+001	-1.259286e+002	-7.573911e+001	-2.812802e+001	-2.000000e+002	0.000000e+000	-2.000000e+002	0.000000e+000
901200000	-1.802438e+001	-1.261910e+002	-7.287955e+001	-2.723072e+000	-2.000000e+002	0.000000e+000	-2.000000e+002	0.000000e+000
901237500	-1.802919e+001	-1.263482e+002	-7.633014e+001	-1.609995e+001	-2.000000e+002	0.000000e+000	-2.000000e+002	0.000000e+000
901275000	-1.802341e+001	-1.265790e+002	-7.349345e+001	-1.159742e+001	-2.000000e+002	0.000000e+000	-2.000000e+002	0.000000e+000
901312500	-1.802127e+001	-1.267521e+002	-7.334501e+001	-2.766773e+001	-2.000000e+002	0.000000e+000	-2.000000e+002	0.000000e+000
901350000	-1.802744e+001	-1.269602e+002	-7.395624e+001	-1.637694e+001	-2.000000e+002	0.000000e+000	-2.000000e+002	0.000000e+000
901387500	-1.801758e+001	-1.271395e+002	-7.977089e+001	2.459479e+001	-2.000000e+002	0.000000e+000	-2.000000e+002	0.000000e+000
901425000	-1.801807e+001	-1.273768e+002	-7.866857e+001	5.963358e+000	-2.000000e+002	0.000000e+000	-2.000000e+002	0.000000e+000
901462500	-1.802066e+001	-1.275392e+002	-7.652411e+001	-4.076632e+000	-2.000000e+002	0.000000e+000	-2.000000e+002	0.000000e+000
901500000	-1.802459e+001	-1.277419e+002	-7.423806e+001	3.966241e+000	-2.000000e+002	0.000000e+000	-2.000000e+002	0.000000e+000
901537500	-1.801632e+001	-1.279190e+002	-8.206805e+001	3.420959e+001	-2.000000e+002	0.000000e+000	-2.000000e+002	0.000000e+000
901575000	-1.801881e+001	-1.281071e+002	-8.022231e+001	1.386847e+001	-2.000000e+002	0.000000e+000	-2.000000e+002	0.000000e+000
901612500	-1.801921e+001	-1.283402e+002	-7.432090e+001	1.513055e+001	-2.000000e+002	0.000000e+000	-2.000000e+002	0.000000e+000
901650000	-1.801227e+001	-1.285636e+002	-7.457204e+001	1.594190e+001	-2.000000e+002	0.000000e+000	-2.000000e+002	0.000000e+000
901687500	-1.801538e+001	-1.287148e+002	-7.273171e+001	-5.908265e+001	-2.000000e+002	0.000000e+000	-2.000000e+002	0.000000e+000
901725000	-1.801428e+001	-1.289229e+002	-7.355087e+001	-2.065496e+001	-2.000000e+002	0.000000e+000	-2.000000e+002	0.000000e+000
901762500	-1.800023e+001	-1.291163e+002	-7.356794e+001	1.280147e+000	-2.000000e+002	0.000000e+000	-2.000000e+002	0.000000e+000
901800000	-1.800647e+001	-1.293885e+002	-7.527186e+001	1.781423e+001	-2.000000e+002	0.000000e+000	-2.000000e+002	0.000000e+000
901837500	-1.800854e+001	-1.296127e+002	-7.240759e+001	1.734261e+001	-2.000000e+002	0.000000e+000	-2.000000e+002	0.000000e+000
901875000	-1.800440e+001	-1.298125e+002	-7.641349e+001	-8.102213e+000	-2.000000e+002	0.000000e+000	-2.000000e+002	0.000000e+000
901912500	-1.800268e+001	-1.299517e+002	-8.090203e+001	-1.017712e+001	-2.000000e+002	0.000000e+000	-2.000000e+002	0.000000e+000
901950000	-1.800693e+001	-1.301444e+002	-7.556260e+001	4.740372e+000	-2.000000e+002	0.000000e+000	-2.000000e+002	0.000000e+000
901987500	-1.800817e+001	-1.304186e+002	-7.239993e+001	1.318127e+001	-2.000000e+002	0.000000e+000	-2.000000e+002	0.000000e+000
902025000	-1.799737e+001	-1.305953e+002	-8.078607e+001	-7.195916e+000	-2.000000e+002	0.000000e+000	-2.000000e+002	0.000000e+000
902062500	-1.799741e+001	-1.308067e+002	-1.018496e+002	-1.611461e+002	-2.000000e+002	0.000000e+000	-2.000000e+002	0.000000e+000
902100000	-1.799922e+001	-1.310168e+002	-7.337903e+001	-3.996301e-001	-2.000000e+002	0.000000e+000	-2.000000e+002	0.000000e+000
902137500	-1.798939e+001	-1.312813e+002	-7.003373e+001	-4.839829e+001	-2.000000e+002	0.000000e+000	-2.000000e+002	0.000000e+000
902175000	-1.798637e+001	-1.313931e+002	-7.211956e+001	6.805461e+000	-2.000000e+002	0.000000e+000	-2.000000e+002	0.000000e+000
902212500	-1.797958e+001	-1.315860e+002	-7.416793e+001	-3.393986e+001	-2.000000e+002	0.000000e+000	-2.000000e+002	0.000000e+000
902250000	-1.798549e+001	-1.319136e+002	-7.783471e+001	-1.373508e+001	-2.000000e+002	0.000000e+000	-2.000000e+002	0.000000e+000
902287500	-1.797932e+001	-1.321133e+002	-7.787932e+001	-2.977429e+001	-2.000000e+002	0.000000e+000	-2.000000e+002	0.000000e+000
902325000	-1.798873e+001	-1.323296e+002	-7.533272e+001	-1.868840e+001	-2.000000e+002	0.000000e+000	-2.000000e+002	0.000000e+000
902362500	-1.797888e+001	-1.325046e+002	-7.319114e+001	-3.709254e+001	-2.000000e+002	0.000000e+000	-2.000000e+002	0.000000e+000
902400000	-1.798272e+001	-1.327438e+002	-7.218055e+001	-5.467555e+000	-2.000000e+002	0.000000e+000	-2.000000e+002	0.000000e+000
902437500	-1.798007e+001	-1.329953e+002	-7.628310e+001	-7.481658e+000	-2.000000e+002	0.000000e+000	-2.000000e+002	0.000000e+000
902475000	-1.797889e+001	-1.332423e+002	-7.704971e+001	-2.068540e+001	-2.000000e+002	0.000000e+000	-2.000000e+002	0.000000e+000
902512500	-1.797300e+001	-1.334957e+002	-7.257029e+001	-3.956607e+001	-2.000000e+002	0.000000e+000	-2.000000e+002	0.000000e+000
902550000	-1.798132e+001	-1.336595e+002	-7.692011e+001	-3.450496e+001	-2.000000e+002	0.000000e+000	-2.000000e+002	0.000000e+000
902587500	-1.798219e+001	-1.339162e+002	-8.202668e+001	-1.800656e+001	-2.000000e+002	0.000000e+000	-2.000000e+002	0.000000e+000
902625000	-1.797879e+001	-1.341595e+002	-7.494549e+001	-1.329831e+001	-2.000000e+002	0.000000e+000	-2.000000e+002	0.000000e+000
902662500	-1.798631e+001	-1.344351e+002	-8.245158e+001	-1.850277e+001	-2.000000e+002	0.000000e+000	-2.000000e+002	0.000000e+000
902700000	-1.799145e+001	-1.346237e+002	-7.622814e+001	-1.646427e+001	-2.000000e+002	0.000000e+000	-2.000000e+002	0.000000e+000
902737500	-1.798759e+001	-1.348564e+002	-7.601639e+001	-2.406225e+001	-2.000000e+002	0.000000e+000	-2.000000e+002	0.000000e+000
902775000	-1.799461e+001	-1.350699e+002	-7.381647e+001	-2.095219e+001	-2.000000e+002	0.000000e+000	-2.000000e+002	0.000000e+000
902812500	-1.800704e+001	-1.353297e+002	-7.065915e+001	-3.698098e+000	-2.000000e+002	0.000000e+000	-2.000000e+002	0.000000e+000
902850000	-1.800864e+001	-1.354868e+002	-7.661090e+001	-2.943306e+001	-2.000000e+002	0.000000e+000	-2.000000e+002	0.000000e+000
902887500	-1.801092e+001	-1.356804e+002	-7.180515e+001	-2.080899e+001	-2.000000e+002	0.000000e+000	-2.000000e+002	0.000000e+000
902925000	-1.801886e+001	-1.358735e+002	-7.594098e+001	-6.627868e+000	-2.000000e+002	0.000000e+000	-2.000000e+002	0.000000e+000
902962500	-1.801454e+001	-1.360899e+002	-7.848650e+001	-6.049477e+001	-2.000000e+002	0.000000e+000	-2.000000e+002	0.000000e+000
903000000	-1.800787e+001	-1.362514e+002	-7.242854e+001	-3.503592e+001	-2.000000e+002	0.000000e+000	-2.000000e+002	0.000000e+000
903037500	-1.801612e+001	-1.364348e+002	-7.295895e+001	-2.802133e+001	-2.000000e+002	0.000000e+000	-2.000000e+002	0.000000e+000
903075000	-1.801843e+001	-1.366704e+002	-7.809825e+001	-3.677842e+001	-2.000000e+002	0.000000e+000	-2.000000e+002	0.000000e+000
903112500	-1.801271e+001	-1.368378e+002	-7.347341e+001	-6.190355e+000	-2.000000e+002	0.000000e+000	-2.000000e+002	0.000000e+000
903150000	-1.801709e+001	-1.370469e+002	-7.098802e+001	-1.030124e+001	-2.000000e+002	0.000000e+000	-2.000000e+002	0.000000e+000
903187500	-1.801425e+001	-1.373106e+002	-7.347413e+001	-2.444618e+001	-2.000000e+002	0.000000e+000	-2.000000e+002	0.000000e+000
903225000	-1.801174e+001	-1.374621e+002	-7.334313e+001	-1.507089e+001	-2.000000e+002	0.000000e+000	-2.000000e+002	0.000000e+000
903262500	-1.801716e+001	-1.376638e+002	-7.611719e+001	-3.269799e+001	-2.000000e+002	0.000000e+000	-2.000000e+002	0.000000e+000
903300000	-1.801899e+001	-1.378331e+002	-7.457453e+001	-3.850990e+001	-2.000000e+002	0.000000e+000	-2.000000e+002	0.000000e+000
903337500	-1.801541e+001	-1.381005e+002	-7.354140e+001	-3.093002e+001	-2.000000e+002	0.000000e+000	-2.000000e+002	0.000000e+000
903375000	-1.801121e+001	-1.382690e+002	-7.428410e+001	-4.290108e+001	-2.000000e+002	0.000000e+000	-2.000000e+002	0.000000e+000
903412500	-1.801183e+001	-1.384872e+002	-7.948950e+001	-2.398691e+001	-2.000000e+002	0.000000e+000	-2.000000e+002	0.000000e+000
903450000	-1.801189e+001	-1.386914e+002	-7.200168e+001	-2.356605e+001	-2.000000e+002	0.000000e+000	-2.000000e+002	0.000000e+000
903487500	-1.801106e+001	-1.389002e+002	-6.997352e+001	-4.411772e+001	-2.000000e+002	0.000000e+000	-2.000000e+002	0.000000e+000
903525000	-1.801582e+001	-1.390978e+002	-7.916322e+001	-3.112788e+001	-2.000000e+002	0.000000e+000	-2.000000e+002	0.000000e+000
903562500	-1.801415e+001	-1.393342e+002	-8.341716e+001	-6.041335e+001	-2.000000e+002	0.000000e+000	-2.000000e+002	0.000000e+000
903600000	-1.801179e+001	-1.395250e+002	-7.803148e+001	-1.747067e+001	-2.000000e+002	0.000000e+000	-2.000000e+002	0.000000e+000
903637500	-1.802312e+001	-1.397959e+002	-7.031757e+001	-1.484189e+001	-2.000000e+002	0.000000e+000	-2.000000e+002	0.000000e+000
903675000	-1.802379e+001	-1.399927e+002	-7.354279e+001	-4.969905e+001	-2.000000e+002	0.000000e+000	-2.000000e+002	0.000000e+000
903712500	-1.801844e+001	-1.402266e+002	-7.284794e+001	-2.785639e+001	-2.000000e+002	0.000000e+000	-2.000000e+002	0.000000e+000
903750000	-1.802630e+001	-1.404159e+002	-7.814250e+001	-3.994926e+001	-2.000000e+002	0.000000e+000	-2.000000e+002	0.000000e+000
903787500	-1.802618e+001	-1.406629e+002	-7.328409e+001	-1.881011e+001	-2.000000e+002	0.000000e+000	-2.000000e+002	0.000000e+000
903825000	-1.802697e+001	-1.407970e+002	-7.608299e+001	-4.372519e+001	-2.000000e+002	0.000000e+000	-2.000000e+002	0.000000e+000
903862500	-1.802769e+001	-1.410527e+002	-7.347486e+001	-5.496553e+001	-2.000000e+002	0.000000e+000	-2.000000e+002	0.000000e+000
903900000	-1.803137e+001	-1.412469e+002	-7.445941e+001	-4.909030e+001	-2.000000e+002	0.000000e+000	-2.000000e+002	0.000000e+000
903937500	-1.803258e+001	-1.414284e+002	-7.518596e+001	-3.417049e+001	-2.000000e+002	0.000000e+000	-2.000000e+002	0.000000e+000
903975000	-1.804279e+001	-1.416906e+002	-7.527990e+001	-3.276123e+001	-2.000000e+002	0.000000e+000	-2.000000e+002	0.000000e+000
904012500	-1.803846e+001	-1.419004e+002	-7.173298e+001	-6.457452e+001	-2.000000e+002	0.000000e+000	-2.000000e+002	0.000000e+000
904050000	-1.803789e+001	-1.421218e+002	-7.968265e+001	-6.480253e+001	-2.000000e+002	0.000000e+000	-2.000000e+002	0.000000e+000
904087500	-1.803866e+001	-1.422466e+002	-7.312710e+001	-4.344323e+001	-2.000000e+002	0.000000e+000	-2.000000e+002	0.000000e+000
904125000	-1.804353e+001	-1.424965e+002	-7.631556e+001	-2.527438e+001	-2.000000e+002	0.000000e+000	-2.000000e+002	0.000000e+000
904162500	-1.803835e+001	-1.427153e+002	-7.686884e+001	-8.163569e+001	-2.000000e+002	0.000000e+000	-2.000000e+002	0.000000e+000
904200000	-1.804324e+001	-1.428907e+002	-7.524284e+001	-2.754958e+001	-2.000000e+002	0.000000e+000	-2.000000e+002	0.000000e+000
904237500	-1.804563e+001	-1.431089e+002	-7.247036e+001	-5.485757e+001	-2.000000e+002	0.000000e+000	-2.000000e+002	0.000000e+000
904275000	-1.805542e+001	-1.432720e+002	-7.481535e+001	-2.884235e+001	-2.000000e+002	0.000000e+000	-2.000000e+002	0.000000e+000
904312500	-1.805033e+001	-1.435522e+002	-8.002607e+001	-7.228509e+001	-2.000000e+002	0.000000e+000	-2.000000e+002	0.000000e+000
904350000	-1.805186e+001	-1.437377e+002	-7.208813e+001	-4.015438e+001	-2.000000e+002	0.000000e+000	-2.000000e+002	0.000000e+000
904387500	-1.805345e+001	-1.438945e+002	-7.361187e+001	-3.534839e+001	-2.000000e+002	0.000000e+000	-2.000000e+002	0.000000e+000
904425000	-1.805318e+001	-1.440862e+002	-7.113407e+001	-5.206024e+001	-2.000000e+002	0.000000e+000	-2.000000e+002	0.000000e+000
904462500	-1.805656e+001	-1.443219e+002	-7.671522e+001	-3.398590e+001	-2.000000e+002	0.000000e+000	-2.000000e+002	0.000000e+000
904500000	-1.806708e+001	-1.444758e+002	-7.040917e+001	-4.199656e+001	-2.000000e+002	0.000000e+000	-2.000000e+002	0.000000e+000
904537500	-1.805421e+001	-1.447642e+002	-7.528109e+001	-2.881727e+001	-2.000000e+002	0.000000e+000	-2.000000e+002	0.000000e+000
904575000	-1.805696e+001	-1.448988e+002	-7.730565e+001	-8.079756e+001	-2.000000e+002	0.000000e+000	-2.000000e+002	0.000000e+000
904612500	-1.805833e+001	-1.451431e+002	-7.553962e+001	-5.289725e+001	-2.000000e+002	0.000000e+000	-2.000000e+002	0.000000e+000
904650000	-1.806488e+001	-1.453443e+002	-7.216884e+001	-3.853721e+001	-2.000000e+002	0.000000e+000	-2.000000e+002	0.000000e+000
904687500	-1.806153e+001	-1.455312e+002	-7.480134e+001	-3.063830e+001	-2.000000e+002	0.000000e+000	-2.000000e+002	0.000000e+000
904725000	-1.807019e+001	-1.457742e+002	-7.546028e+001	-6.489160e+001	-2.000000e+002	0.000000e+000	-2.000000e+002	0.000000e+000
904762500	-1.806827e+001	-1.459216e+002	-7.458118e+001	-1.144162e+001	-2.000000e+002	0.000000e+000	-2.000000e+002	0.000000e+000
904800000	-1.807360e+001	-1.461245e+002	-7.103509e+001	-4.861533e+001	-2.000000e+002	0.000000e+000	-2.000000e+002	0.000000e+000
904837500	-1.806733e+001	-1.463676e+002	-7.602641e+001	-3.792938e+001	-2.000000e+002	0.000000e+000	-2.000000e+002	0.000000e+000
904875000	-1.806804e+001	-1.465697e+002	-7.177957e+001	-5.035959e+001	-2.000000e+002	0.000000e+000	-2.000000e+002	0.000000e+000
904912500	-1.807594e+001	-1.467322e+002	-7.140490e+001	-7.310625e+001	-2.000000e+002	0.000000e+000	-2.000000e+002	0.000000e+000
904950000	-1.807160e+001	-1.469386e+002	-7.168469e+001	-5.621266e+001	-2.000000e+002	0.000000e+000	-2.000000e+002	0.000000e+000
904987500	-1.807703e+001	-1.471021e+002	-7.182265e+001	-5.150267e+001	-2.000000e+002	0.000000e+000	-2.000000e+002	0.000000e+000
905025000	-1.807840e+001	-1.473222e+002	-7.379107e+001	-3.569895e+001	-2.000000e+002	0.000000e+000	-2.000000e+002	0.000000e+000
905062500	-1.808195e+001	-1.475268e+002	-7.126617e+001	-7.316684e+001	-2.000000e+002	0.000000e+000	-2.000000e+002	0.000000e+000
905100000	-1.808354e+001	-1.476982e+002	-7.377381e+001	-2.504830e+001	-2.000000e+002	0.000000e+000	-2.000000e+002	0.000000e+000
905137500	-1.808599e+001	-1.479145e+002	-7.194376e+001	-3.512150e+001	-2.000000e+002	0.000000e+000	-2.000000e+002	0.000000e+000
905175000	-1.808634e+001	-1.481004e+002	-7.398820e+001	-6.610363e+001	-2.000000e+002	0.000000e+000	-2.000000e+002	0.000000e+000
905212500	-1.808613e+001	-1.483279e+002	-7.190862e+001	-4.939935e+001	-2.000000e+002	0.000000e+000	-2.000000e+002	0.000000e+000
905250000	-1.808130e+001	-1.485013e+002	-7.317766e+001	-7.316226e+001	-2.000000e+002	0.000000e+000	-2.000000e+002	0.000000e+000
905287500	-1.808768e+001	-1.486771e+002	-7.916404e+001	-5.705763e+001	-2.000000e+002	0.000000e+000	-2.000000e+002	0.000000e+000
905325000	-1.808220e+001	-1.489049e+002	-7.525831e+001	-4.282029e+001	-2.000000e+002	0.000000e+000	-2.000000e+002	0.000000e+000
905362500	-1.808411e+001	-1.490469e+002	-6.945784e+001	-8.170130e+001	-2.000000e+002	0.000000e+000	-2.000000e+002	0.000000e+000
905400000	-1.807782e+001	-1.492508e+002	-7.484424e+001	-5.947166e+001	-2.000000e+002	0.000000e+000	-2.000000e+002	0.000000e+000
905437500	-1.808238e+001	-1.494966e+002	-7.175465e+001	-6.036598e+001	-2.000000e+002	0.000000e+000	-2.000000e+002	0.000000e+000
905475000	-1.808293e+001	-1.496657e+002	-7.617782e+001	-7.419518e+001	-2.000000e+002	0.000000e+000	-2.000000e+002	0.000000e+000
905512500	-1.807976e+001	-1.499161e+002	-7.284700e+001	-4.855909e+001	-2.000000e+002	0.000000e+000	-2.000000e+002	0.000000e+000
905550000	-1.807837e+001	-1.501451e+002	-7.253400e+001	-6.309760e+001	-2.000000e+002	0.000000e+000	-2.000000e+002	0.000000e+000
905587500	-1.808112e+001	-1.503450e+002	-7.106528e+001	-5.177095e+001	-2.000000e+002	0.000000e+000	-2.000000e+002	0.000000e+000
905625000	-1.808671e+001	-1.505342e+002	-7.121225e+001	-5.397256e+001	-2.000000e+002	0.000000e+000	-2.000000e+002	0.000000e+000
905662500	-1.807521e+001	-1.507201e+002	-7.303913e+001	-5.797714e+001	-2.000000e+002	0.000000e+000	-2.000000e+002	0.000000e+000
