!Agilent Technologies,E5071C,MY46214392,A.11.36
!Date: Thu Feb 26 21:17:01 2026
!Data & Calibration Information:
!Freq	S11:NONE(--)	S21:NONE(--)	S12:NONE(--)	S22:NONE(--)
!PortZ  Port1:50+j0    Port2:50+j0
!Above PortZ is port z conversion or system Z0 setting when saving the data.
!When reading, reference impedance value at option line is always used.
# Hz S dB R 50
900000000	-1.810696e+001	-1.203940e+002	-5.647325e+001	-8.981106e+001	-2.000000e+002	0.000000e+000	-2.000000e+002	0.000000e+000
900037500	-1.811292e+001	-1.205573e+002	-5.687516e+001	-8.560666e+001	-2.000000e+002	0.000000e+000	-2.000000e+002	0.000000e+000
900075000	-1.811078e+001	-1.207857e+002	-5.594654e+001	-8.597951e+001	-2.000000e+002	0.000000e+000	-2.000000e+002	0.000000e+000
900112500	-1.811255e+001	-1.209429e+002	-5.638159e+001	-8.407274e+001	-2.000000e+002	0.000000e+000	-2.000000e+002	0.000000e+000
900150000	-1.811132e+001	-1.211322e+002	-5.700076e+001	-9.147282e+001	-2.000000e+002	0.000000e+000	-2.000000e+002	0.000000e+000
900187500	-1.811125e+001	-1.213347e+002	-5.632161e+001	-8.951951e+001	-2.000000e+002	0.000000e+000	-2.000000e+002	0.000000e+000
900225000	-1.810662e+001	-1.215345e+002	-5.628073e+001	-8.908200e+001	-2.000000e+002	0.000000e+000	-2.000000e+002	0.000000e+000
900262500	-1.810086e+001	-1.217509e+002	-5.591632e+001	-8.713169e+001	-2.000000e+002	0.000000e+000	-2.000000e+002	0.000000e+000
900300000	-1.810948e+001	-1.219733e+002	-5.594615e+001	-8.934809e+001	-2.000000e+002	0.000000e+000	-2.000000e+002	0.000000e+000
900337500	-1.810586e+001	-1.221774e+002	-5.642562e+001	-9.031349e+001	-2.000000e+002	0.000000e+000	-2.000000e+002	0.000000e+000
900375000	-1.811173e+001	-1.222854e+002	-5.567900e+001	-9.319763e+001	-2.000000e+002	0.000000e+000	-2.000000e+002	0.000000e+000
900412500	-1.810625e+001	-1.225595e+002	-5.610140e+001	-9.584394e+001	-2.000000e+002	0.000000e+000	-2.000000e+002	0.000000e+000
900450000	-1.810367e+001	-1.227422e+002	-5.513900e+001	-9.360026e+001	-2.000000e+002	0.000000e+000	-2.000000e+002	0.000000e+000
900487500	-1.809571e+001	-1.229422e+002	-5.553750e+001	-9.564015e+001	-2.000000e+002	0.000000e+000	-2.000000e+002	0.000000e+000
900525000	-1.811307e+001	-1.231253e+002	-5.561894e+001	-9.234042e+001	-2.000000e+002	0.000000e+000	-2.000000e+002	0.000000e+000
900562500	-1.809775e+001	-1.233645e+002	-5.595671e+001	-9.255075e+001	-2.000000e+002	0.000000e+000	-2.000000e+002	0.000000e+000
900600000	-1.809941e+001	-1.235391e+002	-5.533331e+001	-9.282983e+001	-2.000000e+002	0.000000e+000	-2.000000e+002	0.000000e+000
900637500	-1.810421e+001	-1.237334e+002	-5.557493e+001	-9.683106e+001	-2.000000e+002	0.000000e+000	-2.000000e+002	0.000000e+000
900675000	-1.810213e+001	-1.239254e+002	-5.553932e+001	-9.446080e+001	-2.000000e+002	0.000000e+000	-2.000000e+002	0.000000e+000
900712500	-1.809924e+001	-1.241636e+002	-5.546314e+001	-9.988265e+001	-2.000000e+002	0.000000e+000	-2.000000e+002	0.000000e+000
900750000	-1.809051e+001	-1.242958e+002	-5.547208e+001	-9.654321e+001	-2.000000e+002	0.000000e+000	-2.000000e+002	0.000000e+000
900787500	-1.810283e+001	-1.245351e+002	-5.576795e+001	-9.605946e+001	-2.000000e+002	0.000000e+000	-2.000000e+002	0.000000e+000
900825000	-1.810094e+001	-1.247161e+002	-5.556683e+001	-9.715190e+001	-2.000000e+002	0.000000e+000	-2.000000e+002	0.000000e+000
900862500	-1.810070e+001	-1.249023e+002	-5.552041e+001	-1.009407e+002	-2.000000e+002	0.000000e+000	-2.000000e+002	0.000000e+000
900900000	-1.809717e+001	-1.251005e+002	-5.516631e+001	-1.005646e+002	-2.000000e+002	0.000000e+000	-2.000000e+002	0.000000e+000
900937500	-1.809576e+001	-1.253011e+002	-5.485167e+001	-9.887395e+001	-2.000000e+002	0.000000e+000	-2.000000e+002	0.000000e+000
900975000	-1.809570e+001	-1.254765e+002	-5.467876e+001	-1.027436e+002	-2.000000e+002	0.000000e+000	-2.000000e+002	0.000000e+000
901012500	-1.809100e+001	-1.257799e+002	-5.505501e+001	-1.025308e+002	-2.000000e+002	0.000000e+000	-2.000000e+002	0.000000e+000
901050000	-1.809485e+001	-1.258944e+002	-5.510777e+001	-1.037535e+002	-2.000000e+002	0.000000e+000	-2.000000e+002	0.000000e+000
901087500	-1.809746e+001	-1.260467e+002	-5.468511e+001	-1.040681e+002	-2.000000e+002	0.000000e+000	-2.000000e+002	0.000000e+000
901125000	-1.809496e+001	-1.263205e+002	-5.483566e+001	-1.018019e+002	-2.000000e+002	0.000000e+000	-2.000000e+002	0.000000e+000
901162500	-1.809516e+001	-1.265532e+002	-5.466651e+001	-1.051084e+002	-2.000000e+002	0.000000e+000	-2.000000e+002	0.000000e+000
901200000	-1.808078e+001	-1.266778e+002	-5.478465e+001	-1.039788e+002	-2.000000e+002	0.000000e+000	-2.000000e+002	0.000000e+000
901237500	-1.809064e+001	-1.268919e+002	-5.482379e+001	-1.066915e+002	-2.000000e+002	0.000000e+000	-2.000000e+002	0.000000e+000
901275000	-1.809761e+001	-1.271068e+002	-5.480814e+001	-1.065150e+002	-2.000000e+002	0.000000e+000	-2.000000e+002	0.000000e+000
901312500	-1.808717e+001	-1.273266e+002	-5.456330e+001	-1.054737e+002	-2.000000e+002	0.000000e+000	-2.000000e+002	0.000000e+000
901350000	-1.809170e+001	-1.275443e+002	-5.445652e+001	-1.091464e+002	-2.000000e+002	0.000000e+000	-2.000000e+002	0.000000e+000
901387500	-1.808691e+001	-1.276714e+002	-5.502862e+001	-1.046121e+002	-2.000000e+002	0.000000e+000	-2.000000e+002	0.000000e+000
901425000	-1.809032e+001	-1.279239e+002	-5.468032e+001	-1.087319e+002	-2.000000e+002	0.000000e+000	-2.000000e+002	0.000000e+000
901462500	-1.808232e+001	-1.280940e+002	-5.448447e+001	-1.048887e+002	-2.000000e+002	0.000000e+000	-2.000000e+002	0.000000e+000
901500000	-1.808148e+001	-1.283023e+002	-5.401371e+001	-1.061791e+002	-2.000000e+002	0.000000e+000	-2.000000e+002	0.000000e+000
901537500	-1.807226e+001	-1.285433e+002	-5.401050e+001	-1.105358e+002	-2.000000e+002	0.000000e+000	-2.000000e+002	0.000000e+000
901575000	-1.808866e+001	-1.287550e+002	-5.431613e+001	-1.086749e+002	-2.000000e+002	0.000000e+000	-2.000000e+002	0.000000e+000
901612500	-1.807109e+001	-1.289499e+002	-5.464858e+001	-1.099786e+002	-2.000000e+002	0.000000e+000	-2.000000e+002	0.000000e+000
901650000	-1.807997e+001	-1.291125e+002	-5.370137e+001	-1.085194e+002	-2.000000e+002	0.000000e+000	-2.000000e+002	0.000000e+000
901687500	-1.807895e+001	-1.293531e+002	-5.380204e+001	-1.088413e+002	-2.000000e+002	0.000000e+000	-2.000000e+002	0.000000e+000
901725000	-1.807480e+001	-1.295081e+002	-5.382419e+001	-1.120746e+002	-2.000000e+002	0.000000e+000	-2.000000e+002	0.000000e+000
901762500	-1.808111e+001	-1.297241e+002	-5.396041e+001	-1.125125e+002	-2.000000e+002	0.000000e+000	-2.000000e+002	0.000000e+000
901800000	-1.806455e+001	-1.299728e+002	-5.399197e+001	-1.107549e+002	-2.000000e+002	0.000000e+000	-2.000000e+002	0.000000e+000
901837500	-1.807113e+001	-1.301542e+002	-5.384673e+001	-1.149535e+002	-2.000000e+002	0.000000e+000	-2.000000e+002	0.000000e+000
901875000	-1.806422e+001	-1.303835e+002	-5.372818e+001	-1.139865e+002	-2.000000e+002	0.000000e+000	-2.000000e+002	0.000000e+000
901912500	-1.807248e+001	-1.305355e+002	-5.413245e+001	-1.141710e+002	-2.000000e+002	0.000000e+000	-2.000000e+002	0.000000e+000
901950000	-1.806088e+001	-1.308044e+002	-5.380075e+001	-1.199345e+002	-2.000000e+002	0.000000e+000	-2.000000e+002	0.000000e+000
901987500	-1.805836e+001	-1.309872e+002	-5.363262e+001	-1.158474e+002	-2.000000e+002	0.000000e+000	-2.000000e+002	0.000000e+000
902025000	-1.806024e+001	-1.312161e+002	-5.321457e+001	-1.137985e+002	-2.000000e+002	0.000000e+000	-2.000000e+002	0.000000e+000
902062500	-1.805242e+001	-1.314535e+002	-5.371679e+001	-1.167521e+002	-2.000000e+002	0.000000e+000	-2.000000e+002	0.000000e+000
902100000	-1.805089e+001	-1.316629e+002	-5.387509e+001	-1.159011e+002	-2.000000e+002	0.000000e+000	-2.000000e+002	0.000000e+000
902137500	-1.805137e+001	-1.317435e+002	-5.310547e+001	-1.165732e+002	-2.000000e+002	0.000000e+000	-2.000000e+002	0.000000e+000
902175000	-1.804988e+001	-1.320338e+002	-5.329456e+001	-1.188093e+002	-2.000000e+002	0.000000e+000	-2.000000e+002	0.000000e+000
902212500	-1.804445e+001	-1.322820e+002	-5.324730e+001	-1.185565e+002	-2.000000e+002	0.000000e+000	-2.000000e+002	0.000000e+000
902250000	-1.804901e+001	-1.324337e+002	-5.323896e+001	-1.205219e+002	-2.000000e+002	0.000000e+000	-2.000000e+002	0.000000e+000
902287500	-1.804384e+001	-1.326807e+002	-5.333811e+001	-1.207543e+002	-2.000000e+002	0.000000e+000	-2.000000e+002	0.000000e+000
902325000	-1.804830e+001	-1.328963e+002	-5.316214e+001	-1.203727e+002	-2.000000e+002	0.000000e+000	-2.000000e+002	0.000000e+000
902362500	-1.804417e+001	-1.331303e+002	-5.303794e+001	-1.207420e+002	-2.000000e+002	0.000000e+000	-2.000000e+002	0.000000e+000
902400000	-1.803087e+001	-1.333505e+002	-5.282001e+001	-1.209021e+002	-2.000000e+002	0.000000e+000	-2.000000e+002	0.000000e+000
902437500	-1.803626e+001	-1.335847e+002	-5.284103e+001	-1.237069e+002	-2.000000e+002	0.000000e+000	-2.000000e+002	0.000000e+000
902475000	-1.803111e+001	-1.337902e+002	-5.265436e+001	-1.228640e+002	-2.000000e+002	0.000000e+000	-2.000000e+002	0.000000e+000
902512500	-1.803761e+001	-1.340743e+002	-5.307965e+001	-1.223040e+002	-2.000000e+002	0.000000e+000	-2.000000e+002	0.000000e+000
902550000	-1.802896e+001	-1.342812e+002	-5.281062e+001	-1.257453e+002	-2.000000e+002	0.000000e+000	-2.000000e+002	0.000000e+000
902587500	-1.803644e+001	-1.345612e+002	-5.287461e+001	-1.255130e+002	-2.000000e+002	0.000000e+000	-2.000000e+002	0.000000e+000
902625000	-1.803149e+001	-1.347720e+002	-5.269407e+001	-1.262760e+002	-2.000000e+002	0.000000e+000	-2.000000e+002	0.000000e+000
902662500	-1.804679e+001	-1.349998e+002	-5.288958e+001	-1.249175e+002	-2.000000e+002	0.000000e+000	-2.000000e+002	0.000000e+000
902700000	-1.804713e+001	-1.352394e+002	-5.257656e+001	-1.251732e+002	-2.000000e+002	0.000000e+000	-2.000000e+002	0.000000e+000
902737500	-1.805778e+001	-1.354198e+002	-5.198777e+001	-1.288355e+002	-2.000000e+002	0.000000e+000	-2.000000e+002	0.000000e+000
902775000	-1.805334e+001	-1.356563e+002	-5.206527e+001	-1.257533e+002	-2.000000e+002	0.000000e+000	-2.000000e+002	0.000000e+000
902812500	-1.805772e+001	-1.359080e+002	-5.214774e+001	-1.279942e+002	-2.000000e+002	0.000000e+000	-2.000000e+002	0.000000e+000
902850000	-1.805728e+001	-1.360725e+002	-5.215603e+001	-1.281311e+002	-2.000000e+002	0.000000e+000	-2.000000e+002	0.000000e+000
902887500	-1.806555e+001	-1.362675e+002	-5.238999e+001	-1.280841e+002	-2.000000e+002	0.000000e+000	-2.000000e+002	0.000000e+000
902925000	-1.807608e+001	-1.364863e+002	-5.148442e+001	-1.317843e+002	-2.000000e+002	0.000000e+000	-2.000000e+002	0.000000e+000
902962500	-1.807670e+001	-1.366656e+002	-5.179376e+001	-1.321330e+002	-2.000000e+002	0.000000e+000	-2.000000e+002	0.000000e+000
903000000	-1.807436e+001	-1.368880e+002	-5.200110e+001	-1.330199e+002	-2.000000e+002	0.000000e+000	-2.000000e+002	0.000000e+000
903037500	-1.806741e+001	-1.370414e+002	-5.191063e+001	-1.305995e+002	-2.000000e+002	0.000000e+000	-2.000000e+002	0.000000e+000
903075000	-1.807468e+001	-1.373040e+002	-5.167457e+001	-1.329811e+002	-2.000000e+002	0.000000e+000	-2.000000e+002	0.000000e+000
903112500	-1.807238e+001	-1.374265e+002	-5.182359e+001	-1.325701e+002	-2.000000e+002	0.000000e+000	-2.000000e+002	0.000000e+000
903150000	-1.806973e+001	-1.376743e+002	-5.163658e+001	-1.339347e+002	-2.000000e+002	0.000000e+000	-2.000000e+002	0.000000e+000
903187500	-1.807735e+001	-1.378199e+002	-5.154189e+001	-1.332011e+002	-2.000000e+002	0.000000e+000	-2.000000e+002	0.000000e+000
903225000	-1.807219e+001	-1.381280e+002	-5.152561e+001	-1.343541e+002	-2.000000e+002	0.000000e+000	-2.000000e+002	0.000000e+000
903262500	-1.806852e+001	-1.382563e+002	-5.140777e+001	-1.361978e+002	-2.000000e+002	0.000000e+000	-2.000000e+002	0.000000e+000
903300000	-1.806697e+001	-1.384705e+002	-5.114694e+001	-1.350593e+002	-2.000000e+002	0.000000e+000	-2.000000e+002	0.000000e+000
903337500	-1.806616e+001	-1.386906e+002	-5.121636e+001	-1.383667e+002	-2.000000e+002	0.000000e+000	-2.000000e+002	0.000000e+000
903375000	-1.807444e+001	-1.388697e+002	-5.109522e+001	-1.357510e+002	-2.000000e+002	0.000000e+000	-2.000000e+002	0.000000e+000
903412500	-1.806443e+001	-1.391539e+002	-5.128380e+001	-1.361163e+002	-2.000000e+002	0.000000e+000	-2.000000e+002	0.000000e+000
903450000	-1.806592e+001	-1.393728e+002	-5.091379e+001	-1.361990e+002	-2.000000e+002	0.000000e+000	-2.000000e+002	0.000000e+000
903487500	-1.807018e+001	-1.394551e+002	-5.092109e+001	-1.381520e+002	-2.000000e+002	0.000000e+000	-2.000000e+002	0.000000e+000
903525000	-1.807304e+001	-1.398133e+002	-5.085019e+001	-1.370050e+002	-2.000000e+002	0.000000e+000	-2.000000e+002	0.000000e+000
903562500	-1.807122e+001	-1.399326e+002	-5.101858e+001	-1.394028e+002	-2.000000e+002	0.000000e+000	-2.000000e+002	0.000000e+000
903600000	-1.806804e+001	-1.401910e+002	-5.039582e+001	-1.411945e+002	-2.000000e+002	0.000000e+000	-2.000000e+002	0.000000e+000
903637500	-1.806566e+001	-1.404373e+002	-5.103464e+001	-1.392257e+002	-2.000000e+002	0.000000e+000	-2.000000e+002	0.000000e+000
903675000	-1.807078e+001	-1.406180e+002	-5.069802e+001	-1.410103e+002	-2.000000e+002	0.000000e+000	-2.000000e+002	0.000000e+000
903712500	-1.807567e+001	-1.407920e+002	-5.059581e+001	-1.418191e+002	-2.000000e+002	0.000000e+000	-2.000000e+002	0.000000e+000
903750000	-1.807662e+001	-1.410098e+002	-5.039742e+001	-1.445214e+002	-2.000000e+002	0.000000e+000	-2.000000e+002	0.000000e+000
903787500	-1.807746e+001	-1.412721e+002	-5.024988e+001	-1.446810e+002	-2.000000e+002	0.000000e+000	-2.000000e+002	0.000000e+000
903825000	-1.807843e+001	-1.414534e+002	-5.033328e+001	-1.442094e+002	-2.000000e+002	0.000000e+000	-2.000000e+002	0.000000e+000
903862500	-1.807651e+001	-1.416409e+002	-5.042016e+001	-1.431675e+002	-2.000000e+002	0.000000e+000	-2.000000e+002	0.000000e+000
903900000	-1.808649e+001	-1.418815e+002	-5.019930e+001	-1.448151e+002	-2.000000e+002	0.000000e+000	-2.000000e+002	0.000000e+000
903937500	-1.808556e+001	-1.420747e+002	-5.003301e+001	-1.464469e+002	-2.000000e+002	0.000000e+000	-2.000000e+002	0.000000e+000
903975000	-1.809108e+001	-1.423047e+002	-5.003691e+001	-1.488077e+002	-2.000000e+002	0.000000e+000	-2.000000e+002	0.000000e+000
904012500	-1.809394e+001	-1.425069e+002	-4.974447e+001	-1.470489e+002	-2.000000e+002	0.000000e+000	-2.000000e+002	0.000000e+000
904050000	-1.809255e+001	-1.427245e+002	-4.990215e+001	-1.479012e+002	-2.000000e+002	0.000000e+000	-2.000000e+002	0.000000e+000
904087500	-1.809263e+001	-1.429123e+002	-4.960866e+001	-1.481657e+002	-2.000000e+002	0.000000e+000	-2.000000e+002	0.000000e+000
904125000	-1.809616e+001	-1.431105e+002	-4.983815e+001	-1.506532e+002	-2.000000e+002	0.000000e+000	-2.000000e+002	0.000000e+000
904162500	-1.809535e+001	-1.433216e+002	-4.964757e+001	-1.479624e+002	-2.000000e+002	0.000000e+000	-2.000000e+002	0.000000e+000
904200000	-1.810080e+001	-1.435097e+002	-4.985076e+001	-1.516769e+002	-2.000000e+002	0.000000e+000	-2.000000e+002	0.000000e+000
904237500	-1.809513e+001	-1.437503e+002	-4.959370e+001	-1.493058e+002	-2.000000e+002	0.000000e+000	-2.000000e+002	0.000000e+000
904275000	-1.809826e+001	-1.439575e+002	-4.953922e+001	-1.498012e+002	-2.000000e+002	0.000000e+000	-2.000000e+002	0.000000e+000
904312500	-1.809543e+001	-1.441642e+002	-4.966590e+001	-1.526960e+002	-2.000000e+002	0.000000e+000	-2.000000e+002	0.000000e+000
904350000	-1.810404e+001	-1.443520e+002	-4.916172e+001	-1.518054e+002	-2.000000e+002	0.000000e+000	-2.000000e+002	0.000000e+000
904387500	-1.810818e+001	-1.445347e+002	-4.927131e+001	-1.526260e+002	-2.000000e+002	0.000000e+000	-2.000000e+002	0.000000e+000
904425000	-1.811320e+001	-1.447074e+002	-4.914913e+001	-1.529583e+002	-2.000000e+002	0.000000e+000	-2.000000e+002	0.000000e+000
904462500	-1.811375e+001	-1.449618e+002	-4.921805e+001	-1.552291e+002	-2.000000e+002	0.000000e+000	-2.000000e+002	0.000000e+000
904500000	-1.810886e+001	-1.451552e+002	-4.860405e+001	-1.529795e+002	-2.000000e+002	0.000000e+000	-2.000000e+002	0.000000e+000
904537500	-1.810500e+001	-1.453875e+002	-4.886182e+001	-1.547473e+002	-2.000000e+002	0.000000e+000	-2.000000e+002	0.000000e+000
904575000	-1.811188e+001	-1.455699e+002	-4.882560e+001	-1.556497e+002	-2.000000e+002	0.000000e+000	-2.000000e+002	0.000000e+000
904612500	-1.811392e+001	-1.458077e+002	-4.862704e+001	-1.565193e+002	-2.000000e+002	0.000000e+000	-2.000000e+002	0.000000e+000
904650000	-1.810676e+001	-1.459675e+002	-4.855520e+001	-1.550850e+002	-2.000000e+002	0.000000e+000	-2.000000e+002	0.000000e+000
904687500	-1.811337e+001	-1.461608e+002	-4.857957e+001	-1.583142e+002	-2.000000e+002	0.000000e+000	-2.000000e+002	0.000000e+000
904725000	-1.811220e+001	-1.463914e+002	-4.847055e+001	-1.586555e+002	-2.000000e+002	0.000000e+000	-2.000000e+002	0.000000e+000
904762500	-1.811816e+001	-1.465781e+002	-4.839672e+001	-1.616119e+002	-2.000000e+002	0.000000e+000	-2.000000e+002	0.000000e+000
904800000	-1.811462e+001	-1.467562e+002	-4.822111e+001	-1.587659e+002	-2.000000e+002	0.000000e+000	-2.000000e+002	0.000000e+000
904837500	-1.812069e+001	-1.469873e+002	-4.823769e+001	-1.606556e+002	-2.000000e+002	0.000000e+000	-2.000000e+002	0.000000e+000
904875000	-1.812219e+001	-1.472535e+002	-4.793023e+001	-1.615656e+002	-2.000000e+002	0.000000e+000	-2.000000e+002	0.000000e+000
904912500	-1.812931e+001	-1.473808e+002	-4.814084e+001	-1.612202e+002	-2.000000e+002	0.000000e+000	-2.000000e+002	0.000000e+000
904950000	-1.812271e+001	-1.476545e+002	-4.820046e+001	-1.619877e+002	-2.000000e+002	0.000000e+000	-2.000000e+002	0.000000e+000
904987500	-1.812591e+001	-1.478149e+002	-4.800675e+001	-1.628921e+002	-2.000000e+002	0.000000e+000	-2.000000e+002	0.000000e+000
905025000	-1.812909e+001	-1.480212e+002	-4.791800e+001	-1.630697e+002	-2.000000e+002	0.000000e+000	-2.000000e+002	0.000000e+000
905062500	-1.812021e+001	-1.481788e+002	-4.779144e+001	-1.655572e+002	-2.000000e+002	0.000000e+000	-2.000000e+002	0.000000e+000
905100000	-1.813672e+001	-1.483614e+002	-4.794236e+001	-1.626637e+002	-2.000000e+002	0.000000e+000	-2.000000e+002	0.000000e+000
905137500	-1.813587e+001	-1.485386e+002	-4.752414e+001	-1.660934e+002	-2.000000e+002	0.000000e+000	-2.000000e+002	0.000000e+000
905175000	-1.813302e+001	-1.487273e+002	-4.751065e+001	-1.675498e+002	-2.000000e+002	0.000000e+000	-2.000000e+002	0.000000e+000
905212500	-1.813212e+001	-1.489368e+002	-4.740144e+001	-1.655928e+002	-2.000000e+002	0.000000e+000	-2.000000e+002	0.000000e+000
905250000	-1.813190e+001	-1.491124e+002	-4.732729e+001	-1.681367e+002	-2.000000e+002	0.000000e+000	-2.000000e+002	0.000000e+000
905287500	-1.812838e+001	-1.493347e+002	-4.723138e+001	-1.677461e+002	-2.000000e+002	0.000000e+000	-2.000000e+002	0.000000e+000
905325000	-1.812383e+001	-1.495392e+002	-4.718493e+001	-1.688684e+002	-2.000000e+002	0.000000e+000	-2.000000e+002	0.000000e+000
905362500	-1.812964e+001	-1.497025e+002	-4.704532e+001	-1.692792e+002	-2.000000e+002	0.000000e+000	-2.000000e+002	0.000000e+000
905400000	-1.812540e+001	-1.498922e+002	-4.715687e+001	-1.701063e+002	-2.000000e+002	0.000000e+000	-2.000000e+002	0.000000e+000
905437500	-1.812499e+001	-1.501663e+002	-4.676373e+001	-1.705666e+002	-2.000000e+002	0.000000e+000	-2.000000e+002	0.000000e+000
905475000	-1.812578e+001	-1.503857e+002	-4.678463e+001	-1.735244e+002	-2.000000e+002	0.000000e+000	-2.000000e+002	0.000000e+000
905512500	-1.812780e+001	-1.505588e+002	-4.659860e+001	-1.723142e+002	-2.000000e+002	0.000000e+000	-2.000000e+002	0.000000e+000
905550000	-1.812009e+001	-1.507964e+002	-4.663681e+001	-1.731118e+002	-2.000000e+002	0.000000e+000	-2.000000e+002	0.000000e+000
905587500	-1.812586e+001	-1.509735e+002	-4.654870e+001	-1.748383e+002	-2.000000e+002	0.000000e+000	-2.000000e+002	0.000000e+000
905625000	-1.811655e+001	-1.512040e+002	-4.652759e+001	-1.750564e+002	-2.000000e+002	0.000000e+000	-2.000000e+002	0.000000e+000
905662500	-1.812789e+001	-1.514364e+002	-4.633144e+001	-1.760981e+002	-2.000000e+002	0.000000e+000	-2.000000e+002	0.000000e+000
