!Agilent Technologies,E5071C,MY46214392,A.11.36
!Date: Thu Feb 26 21:32:21 2026
!Data & Calibration Information:
!Freq	S11:NONE(--)	S21:NONE(--)	S12:NONE(--)	S22:NONE(--)
!PortZ  Port1:50+j0    Port2:50+j0
!Above PortZ is port z conversion or system Z0 setting when saving the data.
!When reading, reference impedance value at option line is always used.
# Hz S dB R 50
900000000	-1.806529e+001	-1.201029e+002	-7.231958e+001	-8.381115e+000	-2.000000e+002	0.000000e+000	-2.000000e+002	0.000000e+000
900037500	-1.805952e+001	-1.202755e+002	-7.596859e+001	-3.835412e+001	-2.000000e+002	0.000000e+000	-2.000000e+002	0.000000e+000
900075000	-1.805883e+001	-1.204905e+002	-7.333812e+001	-2.642244e+001	-2.000000e+002	0.000000e+000	-2.000000e+002	0.000000e+000
900112500	-1.806531e+001	-1.206732e+002	-7.271917e+001	-1.561446e+001	-2.000000e+002	0.000000e+000	-2.000000e+002	0.000000e+000
900150000	-1.806021e+001	-1.209038e+002	-6.930969e+001	-5.213724e+000	-2.000000e+002	0.000000e+000	-2.000000e+002	0.000000e+000
900187500	-1.806607e+001	-1.210588e+002	-7.002610e+001	-2.037179e+001	-2.000000e+002	0.000000e+000	-2.000000e+002	0.000000e+000
900225000	-1.806214e+001	-1.212488e+002	-7.178488e+001	6.038181e+000	-2.000000e+002	0.000000e+000	-2.000000e+002	0.000000e+000
900262500	-1.805966e+001	-1.214641e+002	-6.964432e+001	-1.697307e+001	-2.000000e+002	0.000000e+000	-2.000000e+002	0.000000e+000
900300000	-1.805217e+001	-1.216962e+002	-7.293352e+001	8.339305e+000	-2.000000e+002	0.000000e+000	-2.000000e+002	0.000000e+000
900337500	-1.806404e+001	-1.219065e+002	-6.959429e+001	-3.368559e+001	-2.000000e+002	0.000000e+000	-2.000000e+002	0.000000e+000
900375000	-1.806145e+001	-1.220502e+002	-7.090836e+001	-5.768749e+000	-2.000000e+002	0.000000e+000	-2.000000e+002	0.000000e+000
900412500	-1.805613e+001	-1.222794e+002	-7.135993e+001	-3.042535e+001	-2.000000e+002	0.000000e+000	-2.000000e+002	0.000000e+000
900450000	-1.805485e+001	-1.224222e+002	-7.083521e+001	-3.638085e+001	-2.000000e+002	0.000000e+000	-2.000000e+002	0.000000e+000
900487500	-1.805691e+001	-1.226461e+002	-7.306918e+001	8.143760e+000	-2.000000e+002	0.000000e+000	-2.000000e+002	0.000000e+000
900525000	-1.805710e+001	-1.228612e+002	-6.894244e+001	-1.409211e+001	-2.000000e+002	0.000000e+000	-2.000000e+002	0.000000e+000
900562500	-1.805933e+001	-1.230648e+002	-7.209855e+001	-1.749949e+001	-2.000000e+002	0.000000e+000	-2.000000e+002	0.000000e+000
900600000	-1.805168e+001	-1.232559e+002	-7.071055e+001	9.794342e+000	-2.000000e+002	0.000000e+000	-2.000000e+002	0.000000e+000
900637500	-1.806770e+001	-1.234227e+002	-6.962677e+001	-1.627968e+001	-2.000000e+002	0.000000e+000	-2.000000e+002	0.000000e+000
900675000	-1.805854e+001	-1.236863e+002	-7.369823e+001	-6.035733e+001	-2.000000e+002	0.000000e+000	-2.000000e+002	0.000000e+000
900712500	-1.805300e+001	-1.238065e+002	-7.033890e+001	-2.329292e+001	-2.000000e+002	0.000000e+000	-2.000000e+002	0.000000e+000
900750000	-1.805192e+001	-1.240222e+002	-7.149783e+001	-1.345747e+001	-2.000000e+002	0.000000e+000	-2.000000e+002	0.000000e+000
900787500	-1.805643e+001	-1.242298e+002	-7.301224e+001	-7.662986e+000	-2.000000e+002	0.000000e+000	-2.000000e+002	0.000000e+000
900825000	-1.805488e+001	-1.244251e+002	-6.957385e+001	-4.178121e+001	-2.000000e+002	0.000000e+000	-2.000000e+002	0.000000e+000
900862500	-1.805550e+001	-1.245919e+002	-7.307176e+001	-4.523430e+001	-2.000000e+002	0.000000e+000	-2.000000e+002	0.000000e+000
900900000	-1.805129e+001	-1.248731e+002	-7.283929e+001	-1.065628e+001	-2.000000e+002	0.000000e+000	-2.000000e+002	0.000000e+000
900937500	-1.805015e+001	-1.250281e+002	-7.328460e+001	-8.886763e+000	-2.000000e+002	0.000000e+000	-2.000000e+002	0.000000e+000
900975000	-1.805319e+001	-1.252060e+002	-7.306031e+001	-3.216275e+001	-2.000000e+002	0.000000e+000	-2.000000e+002	0.000000e+000
901012500	-1.804475e+001	-1.254527e+002	-6.965001e+001	-2.342536e+001	-2.000000e+002	0.000000e+000	-2.000000e+002	0.000000e+000
901050000	-1.804556e+001	-1.256222e+002	-7.112666e+001	-2.352216e+001	-2.000000e+002	0.000000e+000	-2.000000e+002	0.000000e+000
901087500	-1.804775e+001	-1.257905e+002	-7.290371e+001	-3.663351e+001	-2.000000e+002	0.000000e+000	-2.000000e+002	0.000000e+000
901125000	-1.804710e+001	-1.260596e+002	-7.191710e+001	-2.914853e+001	-2.000000e+002	0.000000e+000	-2.000000e+002	0.000000e+000
901162500	-1.803702e+001	-1.262207e+002	-6.925141e+001	-2.941246e+001	-2.000000e+002	0.000000e+000	-2.000000e+002	0.000000e+000
901200000	-1.803988e+001	-1.264226e+002	-7.075328e+001	-3.330656e+001	-2.000000e+002	0.000000e+000	-2.000000e+002	0.000000e+000
901237500	-1.803605e+001	-1.266704e+002	-7.230085e+001	-1.603468e+001	-2.000000e+002	0.000000e+000	-2.000000e+002	0.000000e+000
901275000	-1.804403e+001	-1.268550e+002	-7.306386e+001	-3.359784e+001	-2.000000e+002	0.000000e+000	-2.000000e+002	0.000000e+000
901312500	-1.804714e+001	-1.269983e+002	-7.545197e+001	-1.527503e+001	-2.000000e+002	0.000000e+000	-2.000000e+002	0.000000e+000
901350000	-1.803222e+001	-1.272095e+002	-7.294821e+001	-4.190060e+001	-2.000000e+002	0.000000e+000	-2.000000e+002	0.000000e+000
901387500	-1.803715e+001	-1.274389e+002	-7.032892e+001	-1.769789e+001	-2.000000e+002	0.000000e+000	-2.000000e+002	0.000000e+000
901425000	-1.804168e+001	-1.275982e+002	-7.290359e+001	-2.181479e+001	-2.000000e+002	0.000000e+000	-2.000000e+002	0.000000e+000
901462500	-1.803248e+001	-1.278143e+002	-6.950978e+001	-5.194000e+001	-2.000000e+002	0.000000e+000	-2.000000e+002	0.000000e+000
901500000	-1.802814e+001	-1.279920e+002	-7.417007e+001	-2.764404e+001	-2.000000e+002	0.000000e+000	-2.000000e+002	0.000000e+000
901537500	-1.802911e+001	-1.282606e+002	-7.422750e+001	-3.372295e+001	-2.000000e+002	0.000000e+000	-2.000000e+002	0.000000e+000
901575000	-1.802390e+001	-1.284340e+002	-6.893142e+001	-2.695805e+001	-2.000000e+002	0.000000e+000	-2.000000e+002	0.000000e+000
901612500	-1.802952e+001	-1.286295e+002	-7.050827e+001	-3.201812e+001	-2.000000e+002	0.000000e+000	-2.000000e+002	0.000000e+000
901650000	-1.803678e+001	-1.288301e+002	-7.015284e+001	-3.500798e+001	-2.000000e+002	0.000000e+000	-2.000000e+002	0.000000e+000
901687500	-1.802788e+001	-1.290427e+002	-6.868102e+001	-4.954915e+001	-2.000000e+002	0.000000e+000	-2.000000e+002	0.000000e+000
901725000	-1.803211e+001	-1.292715e+002	-7.083635e+001	-3.655643e+001	-2.000000e+002	0.000000e+000	-2.000000e+002	0.000000e+000
901762500	-1.802349e+001	-1.294622e+002	-7.136325e+001	-2.751641e+001	-2.000000e+002	0.000000e+000	-2.000000e+002	0.000000e+000
901800000	-1.802835e+001	-1.296257e+002	-6.963573e+001	-2.909011e+001	-2.000000e+002	0.000000e+000	-2.000000e+002	0.000000e+000
901837500	-1.802727e+001	-1.298419e+002	-6.964449e+001	-2.999593e+001	-2.000000e+002	0.000000e+000	-2.000000e+002	0.000000e+000
901875000	-1.801884e+001	-1.301049e+002	-7.249659e+001	-5.375927e+001	-2.000000e+002	0.000000e+000	-2.000000e+002	0.000000e+000
901912500	-1.802377e+001	-1.302739e+002	-7.322482e+001	-3.958027e+001	-2.000000e+002	0.000000e+000	-2.000000e+002	0.000000e+000
901950000	-1.801377e+001	-1.304062e+002	-6.884615e+001	-3.884699e+001	-2.000000e+002	0.000000e+000	-2.000000e+002	0.000000e+000
901987500	-1.801743e+001	-1.307060e+002	-7.147185e+001	-5.412023e+001	-2.000000e+002	0.000000e+000	-2.000000e+002	0.000000e+000
902025000	-1.801718e+001	-1.308961e+002	-6.934878e+001	-4.489920e+001	-2.000000e+002	0.000000e+000	-2.000000e+002	0.000000e+000
902062500	-1.800778e+001	-1.311081e+002	-7.360334e+001	-6.539626e+001	-2.000000e+002	0.000000e+000	-2.000000e+002	0.000000e+000
902100000	-1.801218e+001	-1.313016e+002	-7.546617e+001	-2.725132e+001	-2.000000e+002	0.000000e+000	-2.000000e+002	0.000000e+000
902137500	-1.800362e+001	-1.315335e+002	-6.995344e+001	-6.816747e+001	-2.000000e+002	0.000000e+000	-2.000000e+002	0.000000e+000
902175000	-1.800447e+001	-1.317405e+002	-7.112611e+001	-5.174645e+001	-2.000000e+002	0.000000e+000	-2.000000e+002	0.000000e+000
902212500	-1.800000e+001	-1.319683e+002	-7.061166e+001	-3.464062e+001	-2.000000e+002	0.000000e+000	-2.000000e+002	0.000000e+000
902250000	-1.800529e+001	-1.321412e+002	-7.175203e+001	-3.127122e+001	-2.000000e+002	0.000000e+000	-2.000000e+002	0.000000e+000
902287500	-1.799890e+001	-1.323678e+002	-7.004741e+001	-3.887154e+001	-2.000000e+002	0.000000e+000	-2.000000e+002	0.000000e+000
902325000	-1.800795e+001	-1.325594e+002	-7.165537e+001	-5.940470e+001	-2.000000e+002	0.000000e+000	-2.000000e+002	0.000000e+000
902362500	-1.799196e+001	-1.327948e+002	-6.960868e+001	-4.723251e+001	-2.000000e+002	0.000000e+000	-2.000000e+002	0.000000e+000
902400000	-1.799862e+001	-1.330881e+002	-7.279607e+001	-4.547096e+001	-2.000000e+002	0.000000e+000	-2.000000e+002	0.000000e+000
902437500	-1.799104e+001	-1.332181e+002	-7.187472e+001	-2.963684e+001	-2.000000e+002	0.000000e+000	-2.000000e+002	0.000000e+000
902475000	-1.799315e+001	-1.334859e+002	-7.166382e+001	-4.994980e+001	-2.000000e+002	0.000000e+000	-2.000000e+002	0.000000e+000
902512500	-1.799215e+001	-1.337556e+002	-7.340340e+001	-6.666114e+001	-2.000000e+002	0.000000e+000	-2.000000e+002	0.000000e+000
902550000	-1.799195e+001	-1.339468e+002	-6.921383e+001	-4.197527e+001	-2.000000e+002	0.000000e+000	-2.000000e+002	0.000000e+000
902587500	-1.798145e+001	-1.342453e+002	-7.180918e+001	-4.885713e+001	-2.000000e+002	0.000000e+000	-2.000000e+002	0.000000e+000
902625000	-1.798101e+001	-1.344824e+002	-7.030899e+001	-3.729430e+001	-2.000000e+002	0.000000e+000	-2.000000e+002	0.000000e+000
902662500	-1.799374e+001	-1.346673e+002	-7.444833e+001	-2.626788e+001	-2.000000e+002	0.000000e+000	-2.000000e+002	0.000000e+000
902700000	-1.799856e+001	-1.349505e+002	-6.994909e+001	-4.272741e+001	-2.000000e+002	0.000000e+000	-2.000000e+002	0.000000e+000
902737500	-1.800435e+001	-1.351616e+002	-7.569459e+001	-7.290748e+001	-2.000000e+002	0.000000e+000	-2.000000e+002	0.000000e+000
902775000	-1.801335e+001	-1.353764e+002	-7.003554e+001	-3.460117e+001	-2.000000e+002	0.000000e+000	-2.000000e+002	0.000000e+000
902812500	-1.800999e+001	-1.355442e+002	-6.872866e+001	-5.166566e+001	-2.000000e+002	0.000000e+000	-2.000000e+002	0.000000e+000
902850000	-1.801520e+001	-1.357442e+002	-7.183474e+001	-3.626413e+001	-2.000000e+002	0.000000e+000	-2.000000e+002	0.000000e+000
902887500	-1.802950e+001	-1.359341e+002	-7.216920e+001	-5.219408e+001	-2.000000e+002	0.000000e+000	-2.000000e+002	0.000000e+000
902925000	-1.802054e+001	-1.361528e+002	-7.336497e+001	-5.024235e+001	-2.000000e+002	0.000000e+000	-2.000000e+002	0.000000e+000
902962500	-1.803231e+001	-1.363371e+002	-6.941495e+001	-6.365551e+001	-2.000000e+002	0.000000e+000	-2.000000e+002	0.000000e+000
903000000	-1.803250e+001	-1.365632e+002	-7.220913e+001	-4.790934e+001	-2.000000e+002	0.000000e+000	-2.000000e+002	0.000000e+000
903037500	-1.803296e+001	-1.367138e+002	-7.018266e+001	-3.968087e+001	-2.000000e+002	0.000000e+000	-2.000000e+002	0.000000e+000
903075000	-1.803034e+001	-1.369370e+002	-7.077194e+001	-4.062994e+001	-2.000000e+002	0.000000e+000	-2.000000e+002	0.000000e+000
903112500	-1.803253e+001	-1.371682e+002	-6.728833e+001	-4.785655e+001	-2.000000e+002	0.000000e+000	-2.000000e+002	0.000000e+000
903150000	-1.803055e+001	-1.373116e+002	-7.015063e+001	-3.540113e+001	-2.000000e+002	0.000000e+000	-2.000000e+002	0.000000e+000
903187500	-1.803057e+001	-1.375644e+002	-6.998362e+001	-5.681757e+001	-2.000000e+002	0.000000e+000	-2.000000e+002	0.000000e+000
903225000	-1.803010e+001	-1.377148e+002	-6.967171e+001	-5.265228e+001	-2.000000e+002	0.000000e+000	-2.000000e+002	0.000000e+000
903262500	-1.802857e+001	-1.379313e+002	-7.014954e+001	-6.374386e+001	-2.000000e+002	0.000000e+000	-2.000000e+002	0.000000e+000
903300000	-1.802995e+001	-1.381313e+002	-7.422364e+001	-6.414988e+001	-2.000000e+002	0.000000e+000	-2.000000e+002	0.000000e+000
903337500	-1.802515e+001	-1.383079e+002	-7.156063e+001	-4.624656e+001	-2.000000e+002	0.000000e+000	-2.000000e+002	0.000000e+000
903375000	-1.802693e+001	-1.385662e+002	-6.894424e+001	-5.276412e+001	-2.000000e+002	0.000000e+000	-2.000000e+002	0.000000e+000
903412500	-1.803311e+001	-1.388235e+002	-6.888857e+001	-5.085273e+001	-2.000000e+002	0.000000e+000	-2.000000e+002	0.000000e+000
903450000	-1.802777e+001	-1.390490e+002	-7.131142e+001	-5.088011e+001	-2.000000e+002	0.000000e+000	-2.000000e+002	0.000000e+000
903487500	-1.803269e+001	-1.391577e+002	-7.081911e+001	-6.270467e+001	-2.000000e+002	0.000000e+000	-2.000000e+002	0.000000e+000
903525000	-1.802548e+001	-1.394206e+002	-7.093199e+001	-5.341740e+001	-2.000000e+002	0.000000e+000	-2.000000e+002	0.000000e+000
903562500	-1.803062e+001	-1.397016e+002	-7.123064e+001	-3.918765e+001	-2.000000e+002	0.000000e+000	-2.000000e+002	0.000000e+000
903600000	-1.802871e+001	-1.397866e+002	-6.898582e+001	-6.011348e+001	-2.000000e+002	0.000000e+000	-2.000000e+002	0.000000e+000
903637500	-1.803943e+001	-1.400725e+002	-7.317833e+001	-3.432680e+001	-2.000000e+002	0.000000e+000	-2.000000e+002	0.000000e+000
903675000	-1.803470e+001	-1.402872e+002	-7.264548e+001	-4.665126e+001	-2.000000e+002	0.000000e+000	-2.000000e+002	0.000000e+000
903712500	-1.803327e+001	-1.404827e+002	-7.202316e+001	-5.619953e+001	-2.000000e+002	0.000000e+000	-2.000000e+002	0.000000e+000
903750000	-1.803043e+001	-1.407313e+002	-6.895887e+001	-7.451953e+001	-2.000000e+002	0.000000e+000	-2.000000e+002	0.000000e+000
903787500	-1.803165e+001	-1.409448e+002	-7.073824e+001	-5.072307e+001	-2.000000e+002	0.000000e+000	-2.000000e+002	0.000000e+000
903825000	-1.804047e+001	-1.410957e+002	-6.943380e+001	-6.607013e+001	-2.000000e+002	0.000000e+000	-2.000000e+002	0.000000e+000
903862500	-1.803745e+001	-1.413321e+002	-7.058941e+001	-6.088635e+001	-2.000000e+002	0.000000e+000	-2.000000e+002	0.000000e+000
903900000	-1.805303e+001	-1.416119e+002	-7.042382e+001	-6.030161e+001	-2.000000e+002	0.000000e+000	-2.000000e+002	0.000000e+000
903937500	-1.804909e+001	-1.417825e+002	-6.840056e+001	-5.702039e+001	-2.000000e+002	0.000000e+000	-2.000000e+002	0.000000e+000
903975000	-1.805228e+001	-1.419202e+002	-6.887130e+001	-5.342308e+001	-2.000000e+002	0.000000e+000	-2.000000e+002	0.000000e+000
904012500	-1.805612e+001	-1.421738e+002	-7.261602e+001	-7.186194e+001	-2.000000e+002	0.000000e+000	-2.000000e+002	0.000000e+000
904050000	-1.805029e+001	-1.423622e+002	-6.840072e+001	-7.982935e+001	-2.000000e+002	0.000000e+000	-2.000000e+002	0.000000e+000
904087500	-1.805604e+001	-1.426219e+002	-7.130048e+001	-6.219955e+001	-2.000000e+002	0.000000e+000	-2.000000e+002	0.000000e+000
904125000	-1.805169e+001	-1.427836e+002	-7.247698e+001	-7.215377e+001	-2.000000e+002	0.000000e+000	-2.000000e+002	0.000000e+000
904162500	-1.805360e+001	-1.430236e+002	-7.027620e+001	-6.999527e+001	-2.000000e+002	0.000000e+000	-2.000000e+002	0.000000e+000
904200000	-1.806089e+001	-1.432101e+002	-7.157191e+001	-4.414702e+001	-2.000000e+002	0.000000e+000	-2.000000e+002	0.000000e+000
904237500	-1.806094e+001	-1.434300e+002	-7.021616e+001	-6.444979e+001	-2.000000e+002	0.000000e+000	-2.000000e+002	0.000000e+000
904275000	-1.806346e+001	-1.435261e+002	-6.838828e+001	-7.681670e+001	-2.000000e+002	0.000000e+000	-2.000000e+002	0.000000e+000
904312500	-1.806552e+001	-1.438131e+002	-6.781005e+001	-6.482985e+001	-2.000000e+002	0.000000e+000	-2.000000e+002	0.000000e+000
904350000	-1.806469e+001	-1.439856e+002	-6.963511e+001	-6.274464e+001	-2.000000e+002	0.000000e+000	-2.000000e+002	0.000000e+000
904387500	-1.806990e+001	-1.441985e+002	-6.807374e+001	-7.740349e+001	-2.000000e+002	0.000000e+000	-2.000000e+002	0.000000e+000
904425000	-1.806707e+001	-1.444347e+002	-7.167751e+001	-7.213996e+001	-2.000000e+002	0.000000e+000	-2.000000e+002	0.000000e+000
904462500	-1.805893e+001	-1.445933e+002	-6.877015e+001	-6.955912e+001	-2.000000e+002	0.000000e+000	-2.000000e+002	0.000000e+000
904500000	-1.807164e+001	-1.448438e+002	-6.779060e+001	-6.047299e+001	-2.000000e+002	0.000000e+000	-2.000000e+002	0.000000e+000
904537500	-1.806629e+001	-1.450224e+002	-7.000484e+001	-5.751113e+001	-2.000000e+002	0.000000e+000	-2.000000e+002	0.000000e+000
904575000	-1.807660e+001	-1.452263e+002	-6.894329e+001	-5.255648e+001	-2.000000e+002	0.000000e+000	-2.000000e+002	0.000000e+000
904612500	-1.807464e+001	-1.454315e+002	-7.348241e+001	-9.074092e+001	-2.000000e+002	0.000000e+000	-2.000000e+002	0.000000e+000
904650000	-1.807344e+001	-1.456676e+002	-7.038828e+001	-8.432026e+001	-2.000000e+002	0.000000e+000	-2.000000e+002	0.000000e+000
904687500	-1.807358e+001	-1.458797e+002	-6.814264e+001	-8.425752e+001	-2.000000e+002	0.000000e+000	-2.000000e+002	0.000000e+000
904725000	-1.807593e+001	-1.460666e+002	-6.801944e+001	-5.556726e+001	-2.000000e+002	0.000000e+000	-2.000000e+002	0.000000e+000
904762500	-1.807953e+001	-1.462655e+002	-6.890455e+001	-6.803282e+001	-2.000000e+002	0.000000e+000	-2.000000e+002	0.000000e+000
904800000	-1.807711e+001	-1.464715e+002	-6.770931e+001	-8.516950e+001	-2.000000e+002	0.000000e+000	-2.000000e+002	0.000000e+000
904837500	-1.808692e+001	-1.466302e+002	-6.650312e+001	-6.944162e+001	-2.000000e+002	0.000000e+000	-2.000000e+002	0.000000e+000
904875000	-1.808536e+001	-1.468709e+002	-6.867624e+001	-8.318417e+001	-2.000000e+002	0.000000e+000	-2.000000e+002	0.000000e+000
904912500	-1.808184e+001	-1.470766e+002	-7.029264e+001	-8.101584e+001	-2.000000e+002	0.000000e+000	-2.000000e+002	0.000000e+000
904950000	-1.808524e+001	-1.473297e+002	-7.210629e+001	-7.027622e+001	-2.000000e+002	0.000000e+000	-2.000000e+002	0.000000e+000
904987500	-1.808693e+001	-1.474953e+002	-6.995453e+001	-6.294490e+001	-2.000000e+002	0.000000e+000	-2.000000e+002	0.000000e+000
905025000	-1.809498e+001	-1.476541e+002	-7.014795e+001	-8.514208e+001	-2.000000e+002	0.000000e+000	-2.000000e+002	0.000000e+000
905062500	-1.808910e+001	-1.478324e+002	-6.938520e+001	-7.874393e+001	-2.000000e+002	0.000000e+000	-2.000000e+002	0.000000e+000
905100000	-1.809354e+001	-1.480066e+002	-7.125941e+001	-6.609646e+001	-2.000000e+002	0.000000e+000	-2.000000e+002	0.000000e+000
905137500	-1.809695e+001	-1.481808e+002	-6.871854e+001	-8.501893e+001	-2.000000e+002	0.000000e+000	-2.000000e+002	0.000000e+000
905175000	-1.810061e+001	-1.483809e+002	-6.707053e+001	-6.814547e+001	-2.000000e+002	0.000000e+000	-2.000000e+002	0.000000e+000
905212500	-1.809407e+001	-1.486171e+002	-7.167267e+001	-6.976093e+001	-2.000000e+002	0.000000e+000	-2.000000e+002	0.000000e+000
905250000	-1.809103e+001	-1.487392e+002	-7.021698e+001	-7.449444e+001	-2.000000e+002	0.000000e+000	-2.000000e+002	0.000000e+000
905287500	-1.808886e+001	-1.489795e+002	-6.942823e+001	-8.564198e+001	-2.000000e+002	0.000000e+000	-2.000000e+002	0.000000e+000
905325000	-1.809135e+001	-1.492001e+002	-7.224476e+001	-9.603295e+001	-2.000000e+002	0.000000e+000	-2.000000e+002	0.000000e+000
905362500	-1.808481e+001	-1.494011e+002	-6.811947e+001	-6.718350e+001	-2.000000e+002	0.000000e+000	-2.000000e+002	0.000000e+000
905400000	-1.808505e+001	-1.495538e+002	-6.805945e+001	-9.056076e+001	-2.000000e+002	0.000000e+000	-2.000000e+002	0.000000e+000
905437500	-1.809085e+001	-1.498076e+002	-6.620754e+001	-8.848536e+001	-2.000000e+002	0.000000e+000	-2.000000e+002	0.000000e+000
905475000	-1.808932e+001	-1.499857e+002	-6.847254e+001	-7.064441e+001	-2.000000e+002	0.000000e+000	-2.000000e+002	0.000000e+000
905512500	-1.808552e+001	-1.502414e+002	-6.947426e+001	-6.617659e+001	-2.000000e+002	0.000000e+000	-2.000000e+002	0.000000e+000
905550000	-1.808718e+001	-1.504549e+002	-6.777653e+001	-7.045421e+001	-2.000000e+002	0.000000e+000	-2.000000e+002	0.000000e+000
905587500	-1.808362e+001	-1.506405e+002	-6.806643e+001	-9.031710e+001	-2.000000e+002	0.000000e+000	-2.000000e+002	0.000000e+000
905625000	-1.808597e+001	-1.509090e+002	-7.144664e+001	-9.554677e+001	-2.000000e+002	0.000000e+000	-2.000000e+002	0.000000e+000
905662500	-1.809207e+001	-1.511148e+002	-6.784979e+001	-1.011565e+002	-2.000000e+002	0.000000e+000	-2.000000e+002	0.000000e+000
