!Agilent Technologies,E5071C,MY46214392,A.11.36
!Date: Thu Feb 26 21:22:10 2026
!Data & Calibration Information:
!Freq	S11:NONE(--)	S21:NONE(--)	S12:NONE(--)	S22:NONE(--)
!PortZ  Port1:50+j0    Port2:50+j0
!Above PortZ is port z conversion or system Z0 setting when saving the data.
!When reading, reference impedance value at option line is always used.
# Hz S dB R 50
900000000	-1.806729e+001	-1.198770e+002	-6.329427e+001	1.490456e+002	-2.000000e+002	0.000000e+000	-2.000000e+002	0.000000e+000
900037500	-1.806782e+001	-1.199966e+002	-6.342720e+001	1.334755e+002	-2.000000e+002	0.000000e+000	-2.000000e+002	0.000000e+000
900075000	-1.806397e+001	-1.202306e+002	-6.257039e+001	1.425428e+002	-2.000000e+002	0.000000e+000	-2.000000e+002	0.000000e+000
900112500	-1.806406e+001	-1.204381e+002	-6.399867e+001	1.438871e+002	-2.000000e+002	0.000000e+000	-2.000000e+002	0.000000e+000
900150000	-1.806235e+001	-1.206405e+002	-6.346256e+001	1.374306e+002	-2.000000e+002	0.000000e+000	-2.000000e+002	0.000000e+000
900187500	-1.806822e+001	-1.208540e+002	-6.197604e+001	1.379994e+002	-2.000000e+002	0.000000e+000	-2.000000e+002	0.000000e+000
900225000	-1.806596e+001	-1.210263e+002	-6.300747e+001	1.436353e+002	-2.000000e+002	0.000000e+000	-2.000000e+002	0.000000e+000
900262500	-1.805616e+001	-1.212197e+002	-6.214584e+001	1.463087e+002	-2.000000e+002	0.000000e+000	-2.000000e+002	0.000000e+000
900300000	-1.806477e+001	-1.214643e+002	-6.091052e+001	1.410756e+002	-2.000000e+002	0.000000e+000	-2.000000e+002	0.000000e+000
900337500	-1.805772e+001	-1.215943e+002	-6.276291e+001	1.420344e+002	-2.000000e+002	0.000000e+000	-2.000000e+002	0.000000e+000
900375000	-1.807115e+001	-1.217661e+002	-6.172047e+001	1.473829e+002	-2.000000e+002	0.000000e+000	-2.000000e+002	0.000000e+000
900412500	-1.806582e+001	-1.220102e+002	-6.170542e+001	1.387276e+002	-2.000000e+002	0.000000e+000	-2.000000e+002	0.000000e+000
900450000	-1.806876e+001	-1.222047e+002	-6.383343e+001	1.457047e+002	-2.000000e+002	0.000000e+000	-2.000000e+002	0.000000e+000
900487500	-1.806056e+001	-1.223999e+002	-6.261968e+001	1.386882e+002	-2.000000e+002	0.000000e+000	-2.000000e+002	0.000000e+000
900525000	-1.806357e+001	-1.225882e+002	-6.368389e+001	1.427961e+002	-2.000000e+002	0.000000e+000	-2.000000e+002	0.000000e+000
900562500	-1.806622e+001	-1.227762e+002	-6.246820e+001	1.373906e+002	-2.000000e+002	0.000000e+000	-2.000000e+002	0.000000e+000
900600000	-1.806284e+001	-1.230404e+002	-6.382389e+001	1.428612e+002	-2.000000e+002	0.000000e+000	-2.000000e+002	0.000000e+000
900637500	-1.805898e+001	-1.232223e+002	-6.338948e+001	1.312912e+002	-2.000000e+002	0.000000e+000	-2.000000e+002	0.000000e+000
900675000	-1.805712e+001	-1.234266e+002	-6.365145e+001	1.305943e+002	-2.000000e+002	0.000000e+000	-2.000000e+002	0.000000e+000
900712500	-1.806413e+001	-1.235975e+002	-6.292048e+001	1.398425e+002	-2.000000e+002	0.000000e+000	-2.000000e+002	0.000000e+000
900750000	-1.806540e+001	-1.237925e+002	-6.371783e+001	1.233869e+002	-2.000000e+002	0.000000e+000	-2.000000e+002	0.000000e+000
900787500	-1.806020e+001	-1.240077e+002	-6.374002e+001	1.333279e+002	-2.000000e+002	0.000000e+000	-2.000000e+002	0.000000e+000
900825000	-1.806572e+001	-1.242145e+002	-6.401779e+001	1.354123e+002	-2.000000e+002	0.000000e+000	-2.000000e+002	0.000000e+000
900862500	-1.805793e+001	-1.244350e+002	-6.233905e+001	1.374509e+002	-2.000000e+002	0.000000e+000	-2.000000e+002	0.000000e+000
900900000	-1.806261e+001	-1.245796e+002	-6.304891e+001	1.330614e+002	-2.000000e+002	0.000000e+000	-2.000000e+002	0.000000e+000
900937500	-1.806129e+001	-1.247748e+002	-6.209085e+001	1.311292e+002	-2.000000e+002	0.000000e+000	-2.000000e+002	0.000000e+000
900975000	-1.805852e+001	-1.250400e+002	-6.274823e+001	1.312177e+002	-2.000000e+002	0.000000e+000	-2.000000e+002	0.000000e+000
901012500	-1.805658e+001	-1.251920e+002	-6.225927e+001	1.367614e+002	-2.000000e+002	0.000000e+000	-2.000000e+002	0.000000e+000
901050000	-1.805714e+001	-1.253442e+002	-6.297160e+001	1.301830e+002	-2.000000e+002	0.000000e+000	-2.000000e+002	0.000000e+000
901087500	-1.805544e+001	-1.255841e+002	-6.153668e+001	1.294736e+002	-2.000000e+002	0.000000e+000	-2.000000e+002	0.000000e+000
901125000	-1.805192e+001	-1.258455e+002	-6.122914e+001	1.299104e+002	-2.000000e+002	0.000000e+000	-2.000000e+002	0.000000e+000
901162500	-1.806394e+001	-1.259713e+002	-6.175396e+001	1.272238e+002	-2.000000e+002	0.000000e+000	-2.000000e+002	0.000000e+000
901200000	-1.806091e+001	-1.261848e+002	-6.243234e+001	1.308904e+002	-2.000000e+002	0.000000e+000	-2.000000e+002	0.000000e+000
901237500	-1.804972e+001	-1.263704e+002	-6.357707e+001	1.303799e+002	-2.000000e+002	0.000000e+000	-2.000000e+002	0.000000e+000
901275000	-1.805246e+001	-1.265781e+002	-6.185358e+001	1.311522e+002	-2.000000e+002	0.000000e+000	-2.000000e+002	0.000000e+000
901312500	-1.804531e+001	-1.267599e+002	-6.188130e+001	1.239406e+002	-2.000000e+002	0.000000e+000	-2.000000e+002	0.000000e+000
901350000	-1.804545e+001	-1.269822e+002	-6.171576e+001	1.295012e+002	-2.000000e+002	0.000000e+000	-2.000000e+002	0.000000e+000
901387500	-1.804267e+001	-1.272082e+002	-6.230695e+001	1.195172e+002	-2.000000e+002	0.000000e+000	-2.000000e+002	0.000000e+000
901425000	-1.804716e+001	-1.274015e+002	-6.211457e+001	1.223663e+002	-2.000000e+002	0.000000e+000	-2.000000e+002	0.000000e+000
901462500	-1.804827e+001	-1.275947e+002	-6.142674e+001	1.259033e+002	-2.000000e+002	0.000000e+000	-2.000000e+002	0.000000e+000
901500000	-1.803884e+001	-1.277981e+002	-6.090117e+001	1.245322e+002	-2.000000e+002	0.000000e+000	-2.000000e+002	0.000000e+000
901537500	-1.803958e+001	-1.279847e+002	-6.155282e+001	1.301161e+002	-2.000000e+002	0.000000e+000	-2.000000e+002	0.000000e+000
901575000	-1.804341e+001	-1.282408e+002	-6.182094e+001	1.262892e+002	-2.000000e+002	0.000000e+000	-2.000000e+002	0.000000e+000
901612500	-1.802901e+001	-1.283751e+002	-6.123938e+001	1.234257e+002	-2.000000e+002	0.000000e+000	-2.000000e+002	0.000000e+000
901650000	-1.804281e+001	-1.286213e+002	-6.128075e+001	1.252049e+002	-2.000000e+002	0.000000e+000	-2.000000e+002	0.000000e+000
901687500	-1.803706e+001	-1.288249e+002	-6.165828e+001	1.223958e+002	-2.000000e+002	0.000000e+000	-2.000000e+002	0.000000e+000
901725000	-1.803569e+001	-1.289936e+002	-6.226511e+001	1.250159e+002	-2.000000e+002	0.000000e+000	-2.000000e+002	0.000000e+000
901762500	-1.803604e+001	-1.292353e+002	-6.087262e+001	1.227502e+002	-2.000000e+002	0.000000e+000	-2.000000e+002	0.000000e+000
901800000	-1.803462e+001	-1.294071e+002	-6.095248e+001	1.189714e+002	-2.000000e+002	0.000000e+000	-2.000000e+002	0.000000e+000
901837500	-1.802870e+001	-1.296414e+002	-6.052291e+001	1.225151e+002	-2.000000e+002	0.000000e+000	-2.000000e+002	0.000000e+000
901875000	-1.803150e+001	-1.298194e+002	-6.188155e+001	1.205310e+002	-2.000000e+002	0.000000e+000	-2.000000e+002	0.000000e+000
901912500	-1.802895e+001	-1.300267e+002	-6.277699e+001	1.145664e+002	-2.000000e+002	0.000000e+000	-2.000000e+002	0.000000e+000
901950000	-1.802494e+001	-1.302735e+002	-6.140171e+001	1.196850e+002	-2.000000e+002	0.000000e+000	-2.000000e+002	0.000000e+000
901987500	-1.802251e+001	-1.303709e+002	-6.049168e+001	1.218843e+002	-2.000000e+002	0.000000e+000	-2.000000e+002	0.000000e+000
902025000	-1.801702e+001	-1.306315e+002	-6.164991e+001	1.126116e+002	-2.000000e+002	0.000000e+000	-2.000000e+002	0.000000e+000
902062500	-1.802717e+001	-1.308454e+002	-6.064382e+001	1.166224e+002	-2.000000e+002	0.000000e+000	-2.000000e+002	0.000000e+000
902100000	-1.801332e+001	-1.310673e+002	-6.151611e+001	1.153988e+002	-2.000000e+002	0.000000e+000	-2.000000e+002	0.000000e+000
902137500	-1.801596e+001	-1.313033e+002	-6.187054e+001	1.163900e+002	-2.000000e+002	0.000000e+000	-2.000000e+002	0.000000e+000
902175000	-1.801482e+001	-1.314773e+002	-6.088755e+001	1.189189e+002	-2.000000e+002	0.000000e+000	-2.000000e+002	0.000000e+000
902212500	-1.801756e+001	-1.317071e+002	-6.070718e+001	1.177897e+002	-2.000000e+002	0.000000e+000	-2.000000e+002	0.000000e+000
902250000	-1.801081e+001	-1.318740e+002	-6.051703e+001	1.147084e+002	-2.000000e+002	0.000000e+000	-2.000000e+002	0.000000e+000
902287500	-1.800735e+001	-1.321352e+002	-6.143431e+001	1.159800e+002	-2.000000e+002	0.000000e+000	-2.000000e+002	0.000000e+000
902325000	-1.800779e+001	-1.323560e+002	-6.120462e+001	1.175548e+002	-2.000000e+002	0.000000e+000	-2.000000e+002	0.000000e+000
902362500	-1.799643e+001	-1.326026e+002	-6.058305e+001	1.089762e+002	-2.000000e+002	0.000000e+000	-2.000000e+002	0.000000e+000
902400000	-1.800742e+001	-1.327874e+002	-6.119978e+001	1.184001e+002	-2.000000e+002	0.000000e+000	-2.000000e+002	0.000000e+000
902437500	-1.800220e+001	-1.330126e+002	-6.125503e+001	1.106918e+002	-2.000000e+002	0.000000e+000	-2.000000e+002	0.000000e+000
902475000	-1.799682e+001	-1.332967e+002	-6.121945e+001	1.075425e+002	-2.000000e+002	0.000000e+000	-2.000000e+002	0.000000e+000
902512500	-1.799669e+001	-1.335398e+002	-6.011118e+001	1.155783e+002	-2.000000e+002	0.000000e+000	-2.000000e+002	0.000000e+000
902550000	-1.799876e+001	-1.337173e+002	-6.103432e+001	1.128395e+002	-2.000000e+002	0.000000e+000	-2.000000e+002	0.000000e+000
902587500	-1.800067e+001	-1.339719e+002	-6.031203e+001	1.095540e+002	-2.000000e+002	0.000000e+000	-2.000000e+002	0.000000e+000
902625000	-1.800424e+001	-1.342599e+002	-6.137621e+001	1.108731e+002	-2.000000e+002	0.000000e+000	-2.000000e+002	0.000000e+000
902662500	-1.801118e+001	-1.344804e+002	-6.075352e+001	1.098177e+002	-2.000000e+002	0.000000e+000	-2.000000e+002	0.000000e+000
902700000	-1.801254e+001	-1.346605e+002	-6.116794e+001	1.188431e+002	-2.000000e+002	0.000000e+000	-2.000000e+002	0.000000e+000
902737500	-1.801420e+001	-1.348684e+002	-6.073185e+001	1.160908e+002	-2.000000e+002	0.000000e+000	-2.000000e+002	0.000000e+000
902775000	-1.801937e+001	-1.351334e+002	-5.998069e+001	1.043471e+002	-2.000000e+002	0.000000e+000	-2.000000e+002	0.000000e+000
902812500	-1.802075e+001	-1.353464e+002	-5.964683e+001	1.127905e+002	-2.000000e+002	0.000000e+000	-2.000000e+002	0.000000e+000
902850000	-1.802076e+001	-1.355837e+002	-6.011131e+001	1.025296e+002	-2.000000e+002	0.000000e+000	-2.000000e+002	0.000000e+000
902887500	-1.803631e+001	-1.357432e+002	-6.079043e+001	1.033444e+002	-2.000000e+002	0.000000e+000	-2.000000e+002	0.000000e+000
902925000	-1.803052e+001	-1.359870e+002	-6.076073e+001	1.088019e+002	-2.000000e+002	0.000000e+000	-2.000000e+002	0.000000e+000
902962500	-1.804280e+001	-1.361175e+002	-6.059419e+001	1.105295e+002	-2.000000e+002	0.000000e+000	-2.000000e+002	0.000000e+000
903000000	-1.803784e+001	-1.363265e+002	-6.071505e+001	1.108738e+002	-2.000000e+002	0.000000e+000	-2.000000e+002	0.000000e+000
903037500	-1.803983e+001	-1.364914e+002	-5.999424e+001	1.117939e+002	-2.000000e+002	0.000000e+000	-2.000000e+002	0.000000e+000
903075000	-1.803811e+001	-1.367054e+002	-5.989549e+001	1.066300e+002	-2.000000e+002	0.000000e+000	-2.000000e+002	0.000000e+000
903112500	-1.804316e+001	-1.368822e+002	-5.964000e+001	1.048603e+002	-2.000000e+002	0.000000e+000	-2.000000e+002	0.000000e+000
903150000	-1.804707e+001	-1.371170e+002	-5.894265e+001	1.019251e+002	-2.000000e+002	0.000000e+000	-2.000000e+002	0.000000e+000
903187500	-1.803768e+001	-1.372970e+002	-6.043654e+001	1.035888e+002	-2.000000e+002	0.000000e+000	-2.000000e+002	0.000000e+000
903225000	-1.803921e+001	-1.375040e+002	-6.090354e+001	1.063683e+002	-2.000000e+002	0.000000e+000	-2.000000e+002	0.000000e+000
903262500	-1.804147e+001	-1.377324e+002	-6.001903e+001	1.061394e+002	-2.000000e+002	0.000000e+000	-2.000000e+002	0.000000e+000
903300000	-1.804067e+001	-1.379578e+002	-5.876609e+001	1.083813e+002	-2.000000e+002	0.000000e+000	-2.000000e+002	0.000000e+000
903337500	-1.803681e+001	-1.381369e+002	-5.923564e+001	1.040908e+002	-2.000000e+002	0.000000e+000	-2.000000e+002	0.000000e+000
903375000	-1.803317e+001	-1.383221e+002	-6.012910e+001	1.005563e+002	-2.000000e+002	0.000000e+000	-2.000000e+002	0.000000e+000
903412500	-1.804475e+001	-1.385959e+002	-6.036861e+001	1.011276e+002	-2.000000e+002	0.000000e+000	-2.000000e+002	0.000000e+000
903450000	-1.804254e+001	-1.387803e+002	-5.931400e+001	9.528494e+001	-2.000000e+002	0.000000e+000	-2.000000e+002	0.000000e+000
903487500	-1.804262e+001	-1.389893e+002	-6.041843e+001	1.035385e+002	-2.000000e+002	0.000000e+000	-2.000000e+002	0.000000e+000
903525000	-1.802920e+001	-1.391550e+002	-5.901731e+001	1.021357e+002	-2.000000e+002	0.000000e+000	-2.000000e+002	0.000000e+000
903562500	-1.804429e+001	-1.394349e+002	-5.891523e+001	1.034575e+002	-2.000000e+002	0.000000e+000	-2.000000e+002	0.000000e+000
903600000	-1.804580e+001	-1.396797e+002	-5.916246e+001	9.694793e+001	-2.000000e+002	0.000000e+000	-2.000000e+002	0.000000e+000
903637500	-1.804230e+001	-1.398265e+002	-5.992440e+001	9.826519e+001	-2.000000e+002	0.000000e+000	-2.000000e+002	0.000000e+000
903675000	-1.804166e+001	-1.400499e+002	-5.931587e+001	9.741873e+001	-2.000000e+002	0.000000e+000	-2.000000e+002	0.000000e+000
903712500	-1.804944e+001	-1.402607e+002	-5.971269e+001	9.837539e+001	-2.000000e+002	0.000000e+000	-2.000000e+002	0.000000e+000
903750000	-1.805000e+001	-1.405098e+002	-5.912949e+001	9.702880e+001	-2.000000e+002	0.000000e+000	-2.000000e+002	0.000000e+000
903787500	-1.804421e+001	-1.406804e+002	-5.980325e+001	9.322384e+001	-2.000000e+002	0.000000e+000	-2.000000e+002	0.000000e+000
903825000	-1.804961e+001	-1.408928e+002	-5.931205e+001	9.217572e+001	-2.000000e+002	0.000000e+000	-2.000000e+002	0.000000e+000
903862500	-1.805703e+001	-1.411236e+002	-5.898226e+001	9.293291e+001	-2.000000e+002	0.000000e+000	-2.000000e+002	0.000000e+000
903900000	-1.804733e+001	-1.412967e+002	-5.952990e+001	9.254698e+001	-2.000000e+002	0.000000e+000	-2.000000e+002	0.000000e+000
903937500	-1.805472e+001	-1.415526e+002	-5.830089e+001	1.006737e+002	-2.000000e+002	0.000000e+000	-2.000000e+002	0.000000e+000
903975000	-1.806226e+001	-1.417250e+002	-5.866805e+001	9.760370e+001	-2.000000e+002	0.000000e+000	-2.000000e+002	0.000000e+000
904012500	-1.806151e+001	-1.419508e+002	-5.904178e+001	9.285015e+001	-2.000000e+002	0.000000e+000	-2.000000e+002	0.000000e+000
904050000	-1.806301e+001	-1.421437e+002	-5.859209e+001	9.694879e+001	-2.000000e+002	0.000000e+000	-2.000000e+002	0.000000e+000
904087500	-1.807535e+001	-1.423318e+002	-5.870006e+001	9.196731e+001	-2.000000e+002	0.000000e+000	-2.000000e+002	0.000000e+000
904125000	-1.806421e+001	-1.424955e+002	-5.918503e+001	8.967058e+001	-2.000000e+002	0.000000e+000	-2.000000e+002	0.000000e+000
904162500	-1.806374e+001	-1.427912e+002	-5.868520e+001	8.998176e+001	-2.000000e+002	0.000000e+000	-2.000000e+002	0.000000e+000
904200000	-1.806544e+001	-1.429880e+002	-5.894079e+001	8.910006e+001	-2.000000e+002	0.000000e+000	-2.000000e+002	0.000000e+000
904237500	-1.806377e+001	-1.431972e+002	-5.859022e+001	9.475910e+001	-2.000000e+002	0.000000e+000	-2.000000e+002	0.000000e+000
904275000	-1.807827e+001	-1.433930e+002	-5.942729e+001	8.520010e+001	-2.000000e+002	0.000000e+000	-2.000000e+002	0.000000e+000
904312500	-1.806845e+001	-1.435742e+002	-5.754627e+001	8.393275e+001	-2.000000e+002	0.000000e+000	-2.000000e+002	0.000000e+000
904350000	-1.807543e+001	-1.437344e+002	-5.826435e+001	8.800425e+001	-2.000000e+002	0.000000e+000	-2.000000e+002	0.000000e+000
904387500	-1.807541e+001	-1.439611e+002	-5.805690e+001	8.799713e+001	-2.000000e+002	0.000000e+000	-2.000000e+002	0.000000e+000
904425000	-1.808242e+001	-1.442001e+002	-5.853508e+001	9.060504e+001	-2.000000e+002	0.000000e+000	-2.000000e+002	0.000000e+000
904462500	-1.807980e+001	-1.443406e+002	-5.851542e+001	8.475668e+001	-2.000000e+002	0.000000e+000	-2.000000e+002	0.000000e+000
904500000	-1.808384e+001	-1.445677e+002	-5.875669e+001	8.354203e+001	-2.000000e+002	0.000000e+000	-2.000000e+002	0.000000e+000
904537500	-1.807845e+001	-1.447976e+002	-5.872059e+001	8.810533e+001	-2.000000e+002	0.000000e+000	-2.000000e+002	0.000000e+000
904575000	-1.808372e+001	-1.450342e+002	-5.785797e+001	8.346259e+001	-2.000000e+002	0.000000e+000	-2.000000e+002	0.000000e+000
904612500	-1.808933e+001	-1.452218e+002	-5.816299e+001	8.169348e+001	-2.000000e+002	0.000000e+000	-2.000000e+002	0.000000e+000
904650000	-1.807485e+001	-1.453278e+002	-5.756457e+001	8.343273e+001	-2.000000e+002	0.000000e+000	-2.000000e+002	0.000000e+000
904687500	-1.808335e+001	-1.455788e+002	-5.802530e+001	7.960132e+001	-2.000000e+002	0.000000e+000	-2.000000e+002	0.000000e+000
904725000	-1.808913e+001	-1.458117e+002	-5.856953e+001	8.643708e+001	-2.000000e+002	0.000000e+000	-2.000000e+002	0.000000e+000
904762500	-1.808089e+001	-1.460638e+002	-5.725607e+001	8.285102e+001	-2.000000e+002	0.000000e+000	-2.000000e+002	0.000000e+000
904800000	-1.809517e+001	-1.461944e+002	-5.771015e+001	7.584683e+001	-2.000000e+002	0.000000e+000	-2.000000e+002	0.000000e+000
904837500	-1.809098e+001	-1.464325e+002	-5.802344e+001	8.216616e+001	-2.000000e+002	0.000000e+000	-2.000000e+002	0.000000e+000
904875000	-1.809745e+001	-1.466510e+002	-5.823914e+001	8.248670e+001	-2.000000e+002	0.000000e+000	-2.000000e+002	0.000000e+000
904912500	-1.809499e+001	-1.468522e+002	-5.857276e+001	7.916284e+001	-2.000000e+002	0.000000e+000	-2.000000e+002	0.000000e+000
904950000	-1.809520e+001	-1.470024e+002	-5.805783e+001	8.051617e+001	-2.000000e+002	0.000000e+000	-2.000000e+002	0.000000e+000
904987500	-1.810202e+001	-1.472028e+002	-5.731671e+001	7.949073e+001	-2.000000e+002	0.000000e+000	-2.000000e+002	0.000000e+000
905025000	-1.810227e+001	-1.474553e+002	-5.733934e+001	7.938743e+001	-2.000000e+002	0.000000e+000	-2.000000e+002	0.000000e+000
905062500	-1.811001e+001	-1.476323e+002	-5.792921e+001	7.928604e+001	-2.000000e+002	0.000000e+000	-2.000000e+002	0.000000e+000
905100000	-1.810244e+001	-1.477912e+002	-5.747391e+001	8.013908e+001	-2.000000e+002	0.000000e+000	-2.000000e+002	0.000000e+000
905137500	-1.810449e+001	-1.480205e+002	-5.772325e+001	7.765813e+001	-2.000000e+002	0.000000e+000	-2.000000e+002	0.000000e+000
905175000	-1.810118e+001	-1.481767e+002	-5.819314e+001	7.896313e+001	-2.000000e+002	0.000000e+000	-2.000000e+002	0.000000e+000
905212500	-1.810869e+001	-1.483413e+002	-5.720437e+001	7.901847e+001	-2.000000e+002	0.000000e+000	-2.000000e+002	0.000000e+000
905250000	-1.809407e+001	-1.485445e+002	-5.740782e+001	7.989120e+001	-2.000000e+002	0.000000e+000	-2.000000e+002	0.000000e+000
905287500	-1.810680e+001	-1.487762e+002	-5.751829e+001	8.088921e+001	-2.000000e+002	0.000000e+000	-2.000000e+002	0.000000e+000
905325000	-1.809868e+001	-1.489391e+002	-5.711521e+001	7.838470e+001	-2.000000e+002	0.000000e+000	-2.000000e+002	0.000000e+000
905362500	-1.810042e+001	-1.491572e+002	-5.657483e+001	7.585121e+001	-2.000000e+002	0.000000e+000	-2.000000e+002	0.000000e+000
905400000	-1.809891e+001	-1.493651e+002	-5.748978e+001	7.944131e+001	-2.000000e+002	0.000000e+000	-2.000000e+002	0.000000e+000
905437500	-1.810365e+001	-1.496000e+002	-5.700997e+001	7.982548e+001	-2.000000e+002	0.000000e+000	-2.000000e+002	0.000000e+000
905475000	-1.809763e+001	-1.498522e+002	-5.685489e+001	7.417541e+001	-2.000000e+002	0.000000e+000	-2.000000e+002	0.000000e+000
905512500	-1.810290e+001	-1.499726e+002	-5.675651e+001	7.501779e+001	-2.000000e+002	0.000000e+000	-2.000000e+002	0.000000e+000
905550000	-1.810389e+001	-1.501915e+002	-5.734266e+001	6.991276e+001	-2.000000e+002	0.000000e+000	-2.000000e+002	0.000000e+000
905587500	-1.809145e+001	-1.503815e+002	-5.690694e+001	7.398346e+001	-2.000000e+002	0.000000e+000	-2.000000e+002	0.000000e+000
905625000	-1.809493e+001	-1.506368e+002	-5.648050e+001	7.299504e+001	-2.000000e+002	0.000000e+000	-2.000000e+002	0.000000e+000
905662500	-1.809568e+001	-1.508547e+002	-5.703098e+001	6.820222e+001	-2.000000e+002	0.000000e+000	-2.000000e+002	0.000000e+000
905700000	-1.810208e+001	-1.510969e+002	-5.615713e+001	7.156820e+001	-2.000000e+002	0.000000e+000	-2.000000e+002	0.000000e+000
