!Agilent Technologies,E5071C,MY46214392,A.11.36
!Date: Thu Feb 26 21:34:11 2026
!Data & Calibration Information:
!Freq	S11:NONE(--)	S21:NONE(--)	S12:NONE(--)	S22:NONE(--)
!PortZ  Port1:50+j0    Port2:50+j0
!Above PortZ is port z conversion or system Z0 setting when saving the data.
!When reading, reference impedance value at option line is always used.
# Hz S dB R 50
900000000	-1.806256e+001	-1.200970e+002	-7.350225e+001	8.838390e+001	-2.000000e+002	0.000000e+000	-2.000000e+002	0.000000e+000
900037500	-1.806120e+001	-1.202696e+002	-7.275229e+001	9.615225e+001	-2.000000e+002	0.000000e+000	-2.000000e+002	0.000000e+000
900075000	-1.806166e+001	-1.204348e+002	-7.413438e+001	8.615124e+001	-2.000000e+002	0.000000e+000	-2.000000e+002	0.000000e+000
900112500	-1.806560e+001	-1.206447e+002	-6.872866e+001	8.610502e+001	-2.000000e+002	0.000000e+000	-2.000000e+002	0.000000e+000
900150000	-1.805345e+001	-1.208400e+002	-7.126305e+001	1.001014e+002	-2.000000e+002	0.000000e+000	-2.000000e+002	0.000000e+000
900187500	-1.805846e+001	-1.210772e+002	-6.989512e+001	9.017348e+001	-2.000000e+002	0.000000e+000	-2.000000e+002	0.000000e+000
900225000	-1.805731e+001	-1.212390e+002	-7.414158e+001	8.860246e+001	-2.000000e+002	0.000000e+000	-2.000000e+002	0.000000e+000
900262500	-1.805966e+001	-1.214719e+002	-6.911681e+001	1.011288e+002	-2.000000e+002	0.000000e+000	-2.000000e+002	0.000000e+000
900300000	-1.805211e+001	-1.216149e+002	-7.080499e+001	6.139815e+001	-2.000000e+002	0.000000e+000	-2.000000e+002	0.000000e+000
900337500	-1.805504e+001	-1.218088e+002	-6.869531e+001	8.187030e+001	-2.000000e+002	0.000000e+000	-2.000000e+002	0.000000e+000
900375000	-1.805604e+001	-1.220678e+002	-7.129288e+001	8.041233e+001	-2.000000e+002	0.000000e+000	-2.000000e+002	0.000000e+000
900412500	-1.805537e+001	-1.222964e+002	-6.815571e+001	9.122034e+001	-2.000000e+002	0.000000e+000	-2.000000e+002	0.000000e+000
900450000	-1.805920e+001	-1.224515e+002	-7.015764e+001	1.010451e+002	-2.000000e+002	0.000000e+000	-2.000000e+002	0.000000e+000
900487500	-1.805938e+001	-1.226056e+002	-7.406287e+001	7.358625e+001	-2.000000e+002	0.000000e+000	-2.000000e+002	0.000000e+000
900525000	-1.806166e+001	-1.228302e+002	-7.084035e+001	8.254676e+001	-2.000000e+002	0.000000e+000	-2.000000e+002	0.000000e+000
900562500	-1.805846e+001	-1.230000e+002	-7.368395e+001	8.264287e+001	-2.000000e+002	0.000000e+000	-2.000000e+002	0.000000e+000
900600000	-1.805109e+001	-1.232476e+002	-6.727063e+001	7.936783e+001	-2.000000e+002	0.000000e+000	-2.000000e+002	0.000000e+000
900637500	-1.805459e+001	-1.233637e+002	-7.067968e+001	6.501134e+001	-2.000000e+002	0.000000e+000	-2.000000e+002	0.000000e+000
900675000	-1.804969e+001	-1.236173e+002	-7.244501e+001	7.499886e+001	-2.000000e+002	0.000000e+000	-2.000000e+002	0.000000e+000
900712500	-1.804888e+001	-1.237963e+002	-7.170515e+001	7.676694e+001	-2.000000e+002	0.000000e+000	-2.000000e+002	0.000000e+000
900750000	-1.804991e+001	-1.240640e+002	-6.800288e+001	8.199179e+001	-2.000000e+002	0.000000e+000	-2.000000e+002	0.000000e+000
900787500	-1.805674e+001	-1.242482e+002	-7.137081e+001	6.832450e+001	-2.000000e+002	0.000000e+000	-2.000000e+002	0.000000e+000
900825000	-1.805620e+001	-1.244659e+002	-7.152571e+001	6.872393e+001	-2.000000e+002	0.000000e+000	-2.000000e+002	0.000000e+000
900862500	-1.804751e+001	-1.246568e+002	-7.138100e+001	6.938504e+001	-2.000000e+002	0.000000e+000	-2.000000e+002	0.000000e+000
900900000	-1.805580e+001	-1.248215e+002	-7.215867e+001	6.665733e+001	-2.000000e+002	0.000000e+000	-2.000000e+002	0.000000e+000
900937500	-1.804916e+001	-1.249971e+002	-6.919566e+001	8.491806e+001	-2.000000e+002	0.000000e+000	-2.000000e+002	0.000000e+000
900975000	-1.805088e+001	-1.252318e+002	-7.168566e+001	5.280317e+001	-2.000000e+002	0.000000e+000	-2.000000e+002	0.000000e+000
901012500	-1.804307e+001	-1.253717e+002	-7.064136e+001	8.248159e+001	-2.000000e+002	0.000000e+000	-2.000000e+002	0.000000e+000
901050000	-1.804482e+001	-1.255921e+002	-7.002358e+001	7.920110e+001	-2.000000e+002	0.000000e+000	-2.000000e+002	0.000000e+000
901087500	-1.805082e+001	-1.258068e+002	-6.785750e+001	9.241119e+001	-2.000000e+002	0.000000e+000	-2.000000e+002	0.000000e+000
901125000	-1.804100e+001	-1.259838e+002	-7.202829e+001	5.179923e+001	-2.000000e+002	0.000000e+000	-2.000000e+002	0.000000e+000
901162500	-1.805068e+001	-1.262516e+002	-7.120897e+001	5.857449e+001	-2.000000e+002	0.000000e+000	-2.000000e+002	0.000000e+000
901200000	-1.804065e+001	-1.263790e+002	-7.179406e+001	7.730080e+001	-2.000000e+002	0.000000e+000	-2.000000e+002	0.000000e+000
901237500	-1.804728e+001	-1.266211e+002	-7.128683e+001	6.755633e+001	-2.000000e+002	0.000000e+000	-2.000000e+002	0.000000e+000
901275000	-1.803864e+001	-1.267824e+002	-6.877085e+001	8.155630e+001	-2.000000e+002	0.000000e+000	-2.000000e+002	0.000000e+000
901312500	-1.803735e+001	-1.270102e+002	-7.059586e+001	6.426112e+001	-2.000000e+002	0.000000e+000	-2.000000e+002	0.000000e+000
901350000	-1.803145e+001	-1.272226e+002	-7.016843e+001	7.231737e+001	-2.000000e+002	0.000000e+000	-2.000000e+002	0.000000e+000
901387500	-1.804398e+001	-1.273701e+002	-7.331790e+001	7.127931e+001	-2.000000e+002	0.000000e+000	-2.000000e+002	0.000000e+000
901425000	-1.803752e+001	-1.275524e+002	-7.205669e+001	5.389782e+001	-2.000000e+002	0.000000e+000	-2.000000e+002	0.000000e+000
901462500	-1.803470e+001	-1.277843e+002	-7.119141e+001	8.212828e+001	-2.000000e+002	0.000000e+000	-2.000000e+002	0.000000e+000
901500000	-1.803273e+001	-1.279763e+002	-7.210068e+001	5.395970e+001	-2.000000e+002	0.000000e+000	-2.000000e+002	0.000000e+000
901537500	-1.803427e+001	-1.281498e+002	-6.883719e+001	7.203070e+001	-2.000000e+002	0.000000e+000	-2.000000e+002	0.000000e+000
901575000	-1.804252e+001	-1.284391e+002	-6.926452e+001	6.266893e+001	-2.000000e+002	0.000000e+000	-2.000000e+002	0.000000e+000
901612500	-1.803567e+001	-1.286130e+002	-7.022400e+001	7.802840e+001	-2.000000e+002	0.000000e+000	-2.000000e+002	0.000000e+000
901650000	-1.803090e+001	-1.287682e+002	-7.110364e+001	6.484522e+001	-2.000000e+002	0.000000e+000	-2.000000e+002	0.000000e+000
901687500	-1.803878e+001	-1.290429e+002	-7.055913e+001	7.459587e+001	-2.000000e+002	0.000000e+000	-2.000000e+002	0.000000e+000
901725000	-1.803343e+001	-1.292424e+002	-7.402358e+001	5.354057e+001	-2.000000e+002	0.000000e+000	-2.000000e+002	0.000000e+000
901762500	-1.801937e+001	-1.294367e+002	-6.912342e+001	5.637700e+001	-2.000000e+002	0.000000e+000	-2.000000e+002	0.000000e+000
901800000	-1.802760e+001	-1.296399e+002	-7.154995e+001	6.390228e+001	-2.000000e+002	0.000000e+000	-2.000000e+002	0.000000e+000
901837500	-1.801945e+001	-1.298048e+002	-6.837424e+001	7.729737e+001	-2.000000e+002	0.000000e+000	-2.000000e+002	0.000000e+000
901875000	-1.801600e+001	-1.299954e+002	-6.863852e+001	6.123074e+001	-2.000000e+002	0.000000e+000	-2.000000e+002	0.000000e+000
901912500	-1.801415e+001	-1.302276e+002	-6.817448e+001	5.118573e+001	-2.000000e+002	0.000000e+000	-2.000000e+002	0.000000e+000
901950000	-1.802443e+001	-1.304484e+002	-6.925597e+001	5.517919e+001	-2.000000e+002	0.000000e+000	-2.000000e+002	0.000000e+000
901987500	-1.801411e+001	-1.306579e+002	-7.018931e+001	7.198556e+001	-2.000000e+002	0.000000e+000	-2.000000e+002	0.000000e+000
902025000	-1.801252e+001	-1.309465e+002	-7.102937e+001	7.451841e+001	-2.000000e+002	0.000000e+000	-2.000000e+002	0.000000e+000
902062500	-1.801318e+001	-1.311093e+002	-6.976867e+001	4.439819e+001	-2.000000e+002	0.000000e+000	-2.000000e+002	0.000000e+000
902100000	-1.801856e+001	-1.313221e+002	-7.115984e+001	5.802364e+001	-2.000000e+002	0.000000e+000	-2.000000e+002	0.000000e+000
902137500	-1.800669e+001	-1.314669e+002	-7.015056e+001	4.991437e+001	-2.000000e+002	0.000000e+000	-2.000000e+002	0.000000e+000
902175000	-1.801223e+001	-1.317323e+002	-6.785009e+001	7.500726e+001	-2.000000e+002	0.000000e+000	-2.000000e+002	0.000000e+000
902212500	-1.800283e+001	-1.318844e+002	-7.030188e+001	5.975742e+001	-2.000000e+002	0.000000e+000	-2.000000e+002	0.000000e+000
902250000	-1.799920e+001	-1.321128e+002	-6.988199e+001	5.701856e+001	-2.000000e+002	0.000000e+000	-2.000000e+002	0.000000e+000
902287500	-1.799982e+001	-1.323828e+002	-6.950966e+001	4.315502e+001	-2.000000e+002	0.000000e+000	-2.000000e+002	0.000000e+000
902325000	-1.800712e+001	-1.325300e+002	-7.253192e+001	2.850346e+001	-2.000000e+002	0.000000e+000	-2.000000e+002	0.000000e+000
902362500	-1.799270e+001	-1.327743e+002	-7.141669e+001	5.454197e+001	-2.000000e+002	0.000000e+000	-2.000000e+002	0.000000e+000
902400000	-1.799175e+001	-1.330243e+002	-7.079910e+001	4.933236e+001	-2.000000e+002	0.000000e+000	-2.000000e+002	0.000000e+000
902437500	-1.799097e+001	-1.332474e+002	-6.855736e+001	6.419768e+001	-2.000000e+002	0.000000e+000	-2.000000e+002	0.000000e+000
902475000	-1.798773e+001	-1.334960e+002	-7.319958e+001	5.661395e+001	-2.000000e+002	0.000000e+000	-2.000000e+002	0.000000e+000
902512500	-1.798250e+001	-1.337159e+002	-6.878887e+001	6.306625e+001	-2.000000e+002	0.000000e+000	-2.000000e+002	0.000000e+000
902550000	-1.799718e+001	-1.340056e+002	-6.836800e+001	6.379704e+001	-2.000000e+002	0.000000e+000	-2.000000e+002	0.000000e+000
902587500	-1.798979e+001	-1.341979e+002	-7.128958e+001	4.869631e+001	-2.000000e+002	0.000000e+000	-2.000000e+002	0.000000e+000
902625000	-1.799518e+001	-1.344285e+002	-6.927068e+001	5.116114e+001	-2.000000e+002	0.000000e+000	-2.000000e+002	0.000000e+000
902662500	-1.799244e+001	-1.346825e+002	-7.111767e+001	5.322410e+001	-2.000000e+002	0.000000e+000	-2.000000e+002	0.000000e+000
902700000	-1.800987e+001	-1.348592e+002	-7.256212e+001	3.542548e+001	-2.000000e+002	0.000000e+000	-2.000000e+002	0.000000e+000
902737500	-1.800259e+001	-1.351340e+002	-7.023788e+001	6.513744e+001	-2.000000e+002	0.000000e+000	-2.000000e+002	0.000000e+000
902775000	-1.801241e+001	-1.353465e+002	-7.083510e+001	5.564449e+001	-2.000000e+002	0.000000e+000	-2.000000e+002	0.000000e+000
902812500	-1.801712e+001	-1.355509e+002	-7.166527e+001	6.178434e+001	-2.000000e+002	0.000000e+000	-2.000000e+002	0.000000e+000
902850000	-1.801979e+001	-1.357488e+002	-7.077352e+001	4.664251e+001	-2.000000e+002	0.000000e+000	-2.000000e+002	0.000000e+000
902887500	-1.801972e+001	-1.358903e+002	-6.762376e+001	5.262894e+001	-2.000000e+002	0.000000e+000	-2.000000e+002	0.000000e+000
902925000	-1.802432e+001	-1.361429e+002	-6.963707e+001	3.373146e+001	-2.000000e+002	0.000000e+000	-2.000000e+002	0.000000e+000
902962500	-1.802260e+001	-1.363004e+002	-6.980410e+001	4.234587e+001	-2.000000e+002	0.000000e+000	-2.000000e+002	0.000000e+000
903000000	-1.802472e+001	-1.365479e+002	-7.118263e+001	5.061608e+001	-2.000000e+002	0.000000e+000	-2.000000e+002	0.000000e+000
903037500	-1.803085e+001	-1.367006e+002	-7.128641e+001	4.042556e+001	-2.000000e+002	0.000000e+000	-2.000000e+002	0.000000e+000
903075000	-1.803634e+001	-1.369219e+002	-6.865875e+001	6.641276e+001	-2.000000e+002	0.000000e+000	-2.000000e+002	0.000000e+000
903112500	-1.803350e+001	-1.371112e+002	-7.189178e+001	5.340424e+001	-2.000000e+002	0.000000e+000	-2.000000e+002	0.000000e+000
903150000	-1.802847e+001	-1.373070e+002	-6.988268e+001	4.555334e+001	-2.000000e+002	0.000000e+000	-2.000000e+002	0.000000e+000
903187500	-1.802811e+001	-1.375357e+002	-6.906040e+001	5.322036e+001	-2.000000e+002	0.000000e+000	-2.000000e+002	0.000000e+000
903225000	-1.802445e+001	-1.377334e+002	-6.862652e+001	5.305634e+001	-2.000000e+002	0.000000e+000	-2.000000e+002	0.000000e+000
903262500	-1.802917e+001	-1.379548e+002	-7.048780e+001	1.659505e+001	-2.000000e+002	0.000000e+000	-2.000000e+002	0.000000e+000
903300000	-1.802727e+001	-1.381139e+002	-7.275467e+001	3.907139e+001	-2.000000e+002	0.000000e+000	-2.000000e+002	0.000000e+000
903337500	-1.803353e+001	-1.383352e+002	-6.969327e+001	2.940460e+001	-2.000000e+002	0.000000e+000	-2.000000e+002	0.000000e+000
903375000	-1.803243e+001	-1.385477e+002	-6.842104e+001	4.842969e+001	-2.000000e+002	0.000000e+000	-2.000000e+002	0.000000e+000
903412500	-1.802955e+001	-1.387938e+002	-6.727192e+001	6.585217e+001	-2.000000e+002	0.000000e+000	-2.000000e+002	0.000000e+000
903450000	-1.802304e+001	-1.389904e+002	-6.961154e+001	4.897957e+001	-2.000000e+002	0.000000e+000	-2.000000e+002	0.000000e+000
903487500	-1.803636e+001	-1.392208e+002	-7.123995e+001	4.132140e+001	-2.000000e+002	0.000000e+000	-2.000000e+002	0.000000e+000
903525000	-1.802363e+001	-1.394226e+002	-7.038361e+001	2.472587e+001	-2.000000e+002	0.000000e+000	-2.000000e+002	0.000000e+000
903562500	-1.802712e+001	-1.396441e+002	-6.916457e+001	3.939284e+001	-2.000000e+002	0.000000e+000	-2.000000e+002	0.000000e+000
903600000	-1.802522e+001	-1.398391e+002	-6.878644e+001	4.044980e+001	-2.000000e+002	0.000000e+000	-2.000000e+002	0.000000e+000
903637500	-1.803382e+001	-1.400769e+002	-6.718501e+001	4.421814e+001	-2.000000e+002	0.000000e+000	-2.000000e+002	0.000000e+000
903675000	-1.802788e+001	-1.402633e+002	-6.896710e+001	3.987973e+001	-2.000000e+002	0.000000e+000	-2.000000e+002	0.000000e+000
903712500	-1.803841e+001	-1.404957e+002	-6.818431e+001	5.201069e+001	-2.000000e+002	0.000000e+000	-2.000000e+002	0.000000e+000
903750000	-1.804271e+001	-1.406592e+002	-6.836903e+001	2.444173e+001	-2.000000e+002	0.000000e+000	-2.000000e+002	0.000000e+000
903787500	-1.804013e+001	-1.409016e+002	-6.878009e+001	2.642954e+001	-2.000000e+002	0.000000e+000	-2.000000e+002	0.000000e+000
903825000	-1.803761e+001	-1.411494e+002	-6.968031e+001	4.997720e+001	-2.000000e+002	0.000000e+000	-2.000000e+002	0.000000e+000
903862500	-1.804232e+001	-1.413349e+002	-6.955913e+001	2.835118e+001	-2.000000e+002	0.000000e+000	-2.000000e+002	0.000000e+000
903900000	-1.804388e+001	-1.415874e+002	-7.044067e+001	3.361526e+001	-2.000000e+002	0.000000e+000	-2.000000e+002	0.000000e+000
903937500	-1.804472e+001	-1.416982e+002	-6.826554e+001	2.708881e+001	-2.000000e+002	0.000000e+000	-2.000000e+002	0.000000e+000
903975000	-1.804706e+001	-1.419566e+002	-7.042197e+001	4.236593e+001	-2.000000e+002	0.000000e+000	-2.000000e+002	0.000000e+000
904012500	-1.805560e+001	-1.420896e+002	-6.742777e+001	4.501339e+001	-2.000000e+002	0.000000e+000	-2.000000e+002	0.000000e+000
904050000	-1.805535e+001	-1.423035e+002	-6.907842e+001	2.776982e+001	-2.000000e+002	0.000000e+000	-2.000000e+002	0.000000e+000
904087500	-1.805108e+001	-1.424983e+002	-6.976804e+001	3.658614e+001	-2.000000e+002	0.000000e+000	-2.000000e+002	0.000000e+000
904125000	-1.805087e+001	-1.427115e+002	-6.829575e+001	2.670493e+001	-2.000000e+002	0.000000e+000	-2.000000e+002	0.000000e+000
904162500	-1.805260e+001	-1.430049e+002	-7.116938e+001	1.877708e+001	-2.000000e+002	0.000000e+000	-2.000000e+002	0.000000e+000
904200000	-1.805639e+001	-1.431639e+002	-6.713813e+001	3.062295e+001	-2.000000e+002	0.000000e+000	-2.000000e+002	0.000000e+000
904237500	-1.805845e+001	-1.433499e+002	-7.043013e+001	4.248075e+001	-2.000000e+002	0.000000e+000	-2.000000e+002	0.000000e+000
904275000	-1.805629e+001	-1.435591e+002	-7.040785e+001	3.153343e+001	-2.000000e+002	0.000000e+000	-2.000000e+002	0.000000e+000
904312500	-1.806388e+001	-1.438017e+002	-7.222877e+001	5.620339e+001	-2.000000e+002	0.000000e+000	-2.000000e+002	0.000000e+000
904350000	-1.806373e+001	-1.439812e+002	-7.023585e+001	4.344557e+001	-2.000000e+002	0.000000e+000	-2.000000e+002	0.000000e+000
904387500	-1.806704e+001	-1.441821e+002	-7.128074e+001	4.473872e+001	-2.000000e+002	0.000000e+000	-2.000000e+002	0.000000e+000
904425000	-1.807456e+001	-1.443965e+002	-7.077201e+001	2.449113e+001	-2.000000e+002	0.000000e+000	-2.000000e+002	0.000000e+000
904462500	-1.805955e+001	-1.445997e+002	-6.756386e+001	2.361922e+001	-2.000000e+002	0.000000e+000	-2.000000e+002	0.000000e+000
904500000	-1.806545e+001	-1.447934e+002	-6.772198e+001	4.142966e+001	-2.000000e+002	0.000000e+000	-2.000000e+002	0.000000e+000
904537500	-1.806863e+001	-1.449828e+002	-6.661276e+001	2.895914e+001	-2.000000e+002	0.000000e+000	-2.000000e+002	0.000000e+000
904575000	-1.807243e+001	-1.452132e+002	-6.829508e+001	2.184880e+001	-2.000000e+002	0.000000e+000	-2.000000e+002	0.000000e+000
904612500	-1.807432e+001	-1.454184e+002	-7.023798e+001	4.193304e+001	-2.000000e+002	0.000000e+000	-2.000000e+002	0.000000e+000
904650000	-1.808058e+001	-1.456090e+002	-6.878844e+001	4.093919e+001	-2.000000e+002	0.000000e+000	-2.000000e+002	0.000000e+000
904687500	-1.807219e+001	-1.458093e+002	-7.098914e+001	2.417504e+001	-2.000000e+002	0.000000e+000	-2.000000e+002	0.000000e+000
904725000	-1.807352e+001	-1.460326e+002	-7.023595e+001	3.175836e+001	-2.000000e+002	0.000000e+000	-2.000000e+002	0.000000e+000
904762500	-1.807423e+001	-1.462076e+002	-6.760619e+001	2.460579e+001	-2.000000e+002	0.000000e+000	-2.000000e+002	0.000000e+000
904800000	-1.808127e+001	-1.464566e+002	-6.961369e+001	9.419712e+000	-2.000000e+002	0.000000e+000	-2.000000e+002	0.000000e+000
904837500	-1.808069e+001	-1.466440e+002	-6.735962e+001	2.055167e+001	-2.000000e+002	0.000000e+000	-2.000000e+002	0.000000e+000
904875000	-1.808371e+001	-1.467993e+002	-7.012866e+001	5.879346e-003	-2.000000e+002	0.000000e+000	-2.000000e+002	0.000000e+000
904912500	-1.808554e+001	-1.470133e+002	-7.001251e+001	2.618327e+001	-2.000000e+002	0.000000e+000	-2.000000e+002	0.000000e+000
904950000	-1.808588e+001	-1.472497e+002	-6.716728e+001	3.582964e+001	-2.000000e+002	0.000000e+000	-2.000000e+002	0.000000e+000
904987500	-1.808986e+001	-1.474340e+002	-6.884554e+001	2.222843e+001	-2.000000e+002	0.000000e+000	-2.000000e+002	0.000000e+000
905025000	-1.809802e+001	-1.475973e+002	-6.682287e+001	1.443033e+000	-2.000000e+002	0.000000e+000	-2.000000e+002	0.000000e+000
905062500	-1.809050e+001	-1.478380e+002	-6.861128e+001	2.684816e+001	-2.000000e+002	0.000000e+000	-2.000000e+002	0.000000e+000
905100000	-1.809371e+001	-1.480126e+002	-6.614752e+001	1.772603e+001	-2.000000e+002	0.000000e+000	-2.000000e+002	0.000000e+000
905137500	-1.809805e+001	-1.481890e+002	-6.872007e+001	3.360011e+001	-2.000000e+002	0.000000e+000	-2.000000e+002	0.000000e+000
905175000	-1.810112e+001	-1.483700e+002	-6.766772e+001	1.813751e+001	-2.000000e+002	0.000000e+000	-2.000000e+002	0.000000e+000
905212500	-1.808880e+001	-1.486007e+002	-6.795626e+001	2.141281e+001	-2.000000e+002	0.000000e+000	-2.000000e+002	0.000000e+000
905250000	-1.809529e+001	-1.487352e+002	-7.019851e+001	2.219862e+001	-2.000000e+002	0.000000e+000	-2.000000e+002	0.000000e+000
905287500	-1.809612e+001	-1.489735e+002	-6.948817e+001	1.441310e+001	-2.000000e+002	0.000000e+000	-2.000000e+002	0.000000e+000
905325000	-1.808929e+001	-1.491441e+002	-6.874208e+001	1.738391e+001	-2.000000e+002	0.000000e+000	-2.000000e+002	0.000000e+000
905362500	-1.809194e+001	-1.493406e+002	-6.650059e+001	-1.661441e+000	-2.000000e+002	0.000000e+000	-2.000000e+002	0.000000e+000
905400000	-1.808342e+001	-1.495686e+002	-6.804132e+001	2.247075e+001	-2.000000e+002	0.000000e+000	-2.000000e+002	0.000000e+000
905437500	-1.809420e+001	-1.497218e+002	-6.590448e+001	2.694095e+001	-2.000000e+002	0.000000e+000	-2.000000e+002	0.000000e+000
905475000	-1.808072e+001	-1.500045e+002	-6.972339e+001	2.358863e+001	-2.000000e+002	0.000000e+000	-2.000000e+002	0.000000e+000
905512500	-1.808835e+001	-1.502053e+002	-6.774952e+001	2.575402e+001	-2.000000e+002	0.000000e+000	-2.000000e+002	0.000000e+000
905550000	-1.807843e+001	-1.503525e+002	-6.885447e+001	1.666926e+001	-2.000000e+002	0.000000e+000	-2.000000e+002	0.000000e+000
905587500	-1.808733e+001	-1.506033e+002	-6.876876e+001	1.483094e+001	-2.000000e+002	0.000000e+000	-2.000000e+002	0.000000e+000
905625000	-1.808270e+001	-1.508413e+002	-6.847796e+001	2.829645e-001	-2.000000e+002	0.000000e+000	-2.000000e+002	0.000000e+000
905662500	-1.808641e+001	-1.510316e+002	-6.707991e+001	1.282007e+001	-2.000000e+002	0.000000e+000	-2.000000e+002	0.000000e+000
905700000	-1.808961e+001	-1.512531e+002	-6.811884e+001	4.889047e+000	-2.000000e+002	0.000000e+000	-2.000000e+002	0.000000e+000
