!Agilent Technologies,E5071C,MY46214392,A.11.36
!Date: Thu Feb 26 21:41:34 2026
!Data & Calibration Information:
!Freq	S11:NONE(--)	S21:NONE(--)	S12:NONE(--)	S22:NONE(--)
!PortZ  Port1:50+j0    Port2:50+j0
!Above PortZ is port z conversion or system Z0 setting when saving the data.
!When reading, reference impedance value at option line is always used.
# Hz S dB R 50
900000000	-1.804218e+001	-1.198353e+002	-7.362091e+001	-1.075815e+002	-2.000000e+002	0.000000e+000	-2.000000e+002	0.000000e+000
900037500	-1.804995e+001	-1.200654e+002	-7.276042e+001	-1.336933e+002	-2.000000e+002	0.000000e+000	-2.000000e+002	0.000000e+000
900075000	-1.804012e+001	-1.202214e+002	-7.273790e+001	-1.324132e+002	-2.000000e+002	0.000000e+000	-2.000000e+002	0.000000e+000
900112500	-1.804321e+001	-1.204020e+002	-7.732833e+001	-9.420370e+001	-2.000000e+002	0.000000e+000	-2.000000e+002	0.000000e+000
900150000	-1.804021e+001	-1.206705e+002	-7.694367e+001	-1.405893e+002	-2.000000e+002	0.000000e+000	-2.000000e+002	0.000000e+000
900187500	-1.804290e+001	-1.208640e+002	-7.938332e+001	-8.868457e+001	-2.000000e+002	0.000000e+000	-2.000000e+002	0.000000e+000
900225000	-1.804968e+001	-1.209898e+002	-7.694533e+001	-1.358398e+002	-2.000000e+002	0.000000e+000	-2.000000e+002	0.000000e+000
900262500	-1.804455e+001	-1.212570e+002	-7.616391e+001	-1.060094e+002	-2.000000e+002	0.000000e+000	-2.000000e+002	0.000000e+000
900300000	-1.804095e+001	-1.214263e+002	-7.204530e+001	-9.123584e+001	-2.000000e+002	0.000000e+000	-2.000000e+002	0.000000e+000
900337500	-1.804413e+001	-1.216405e+002	-7.314835e+001	-1.108920e+002	-2.000000e+002	0.000000e+000	-2.000000e+002	0.000000e+000
900375000	-1.803873e+001	-1.217762e+002	-7.062242e+001	-1.136529e+002	-2.000000e+002	0.000000e+000	-2.000000e+002	0.000000e+000
900412500	-1.803764e+001	-1.220423e+002	-7.389596e+001	-1.221201e+002	-2.000000e+002	0.000000e+000	-2.000000e+002	0.000000e+000
900450000	-1.804022e+001	-1.221956e+002	-7.719426e+001	-1.043439e+002	-2.000000e+002	0.000000e+000	-2.000000e+002	0.000000e+000
900487500	-1.803381e+001	-1.224223e+002	-7.436027e+001	-1.430644e+002	-2.000000e+002	0.000000e+000	-2.000000e+002	0.000000e+000
900525000	-1.803983e+001	-1.225813e+002	-7.531128e+001	-1.276545e+002	-2.000000e+002	0.000000e+000	-2.000000e+002	0.000000e+000
900562500	-1.803914e+001	-1.227665e+002	-7.215697e+001	-1.403722e+002	-2.000000e+002	0.000000e+000	-2.000000e+002	0.000000e+000
900600000	-1.803371e+001	-1.230093e+002	-7.416974e+001	-1.255739e+002	-2.000000e+002	0.000000e+000	-2.000000e+002	0.000000e+000
900637500	-1.803530e+001	-1.231908e+002	-7.533467e+001	-1.317893e+002	-2.000000e+002	0.000000e+000	-2.000000e+002	0.000000e+000
900675000	-1.803867e+001	-1.233612e+002	-7.490613e+001	-9.808809e+001	-2.000000e+002	0.000000e+000	-2.000000e+002	0.000000e+000
900712500	-1.803678e+001	-1.235618e+002	-7.871294e+001	-8.601585e+001	-2.000000e+002	0.000000e+000	-2.000000e+002	0.000000e+000
900750000	-1.803085e+001	-1.237765e+002	-7.393236e+001	-1.193985e+002	-2.000000e+002	0.000000e+000	-2.000000e+002	0.000000e+000
900787500	-1.803545e+001	-1.239898e+002	-8.342543e+001	-1.183343e+002	-2.000000e+002	0.000000e+000	-2.000000e+002	0.000000e+000
900825000	-1.803299e+001	-1.241926e+002	-7.550655e+001	-1.132794e+002	-2.000000e+002	0.000000e+000	-2.000000e+002	0.000000e+000
900862500	-1.803886e+001	-1.243729e+002	-7.410069e+001	-9.183439e+001	-2.000000e+002	0.000000e+000	-2.000000e+002	0.000000e+000
900900000	-1.803726e+001	-1.246293e+002	-7.528251e+001	-1.146736e+002	-2.000000e+002	0.000000e+000	-2.000000e+002	0.000000e+000
900937500	-1.802983e+001	-1.247145e+002	-8.020913e+001	-1.393757e+002	-2.000000e+002	0.000000e+000	-2.000000e+002	0.000000e+000
900975000	-1.803197e+001	-1.249646e+002	-7.233624e+001	-1.282943e+002	-2.000000e+002	0.000000e+000	-2.000000e+002	0.000000e+000
901012500	-1.802535e+001	-1.251732e+002	-7.386243e+001	-1.041565e+002	-2.000000e+002	0.000000e+000	-2.000000e+002	0.000000e+000
901050000	-1.802455e+001	-1.253872e+002	-7.562217e+001	-1.086842e+002	-2.000000e+002	0.000000e+000	-2.000000e+002	0.000000e+000
901087500	-1.802999e+001	-1.255674e+002	-7.599318e+001	-1.497824e+002	-2.000000e+002	0.000000e+000	-2.000000e+002	0.000000e+000
901125000	-1.801986e+001	-1.257190e+002	-7.041111e+001	-1.131212e+002	-2.000000e+002	0.000000e+000	-2.000000e+002	0.000000e+000
901162500	-1.802838e+001	-1.259501e+002	-7.710447e+001	-1.364492e+002	-2.000000e+002	0.000000e+000	-2.000000e+002	0.000000e+000
901200000	-1.802795e+001	-1.261405e+002	-7.609564e+001	-9.969534e+001	-2.000000e+002	0.000000e+000	-2.000000e+002	0.000000e+000
901237500	-1.803036e+001	-1.263698e+002	-7.850113e+001	-1.119192e+002	-2.000000e+002	0.000000e+000	-2.000000e+002	0.000000e+000
901275000	-1.802889e+001	-1.265839e+002	-8.008129e+001	-1.111411e+002	-2.000000e+002	0.000000e+000	-2.000000e+002	0.000000e+000
901312500	-1.802937e+001	-1.267899e+002	-7.400134e+001	-1.301996e+002	-2.000000e+002	0.000000e+000	-2.000000e+002	0.000000e+000
901350000	-1.802001e+001	-1.270033e+002	-7.400334e+001	-1.098260e+002	-2.000000e+002	0.000000e+000	-2.000000e+002	0.000000e+000
901387500	-1.802596e+001	-1.271294e+002	-7.425555e+001	-1.247156e+002	-2.000000e+002	0.000000e+000	-2.000000e+002	0.000000e+000
901425000	-1.802557e+001	-1.273699e+002	-7.343690e+001	-1.309654e+002	-2.000000e+002	0.000000e+000	-2.000000e+002	0.000000e+000
901462500	-1.802550e+001	-1.275209e+002	-7.164106e+001	-1.220064e+002	-2.000000e+002	0.000000e+000	-2.000000e+002	0.000000e+000
901500000	-1.802100e+001	-1.277960e+002	-6.998120e+001	-1.066828e+002	-2.000000e+002	0.000000e+000	-2.000000e+002	0.000000e+000
901537500	-1.802076e+001	-1.279342e+002	-8.129689e+001	-1.302233e+002	-2.000000e+002	0.000000e+000	-2.000000e+002	0.000000e+000
901575000	-1.801938e+001	-1.281131e+002	-7.433290e+001	-1.466669e+002	-2.000000e+002	0.000000e+000	-2.000000e+002	0.000000e+000
901612500	-1.801982e+001	-1.284150e+002	-7.065494e+001	-1.086383e+002	-2.000000e+002	0.000000e+000	-2.000000e+002	0.000000e+000
901650000	-1.801974e+001	-1.285433e+002	-7.599929e+001	-1.373212e+002	-2.000000e+002	0.000000e+000	-2.000000e+002	0.000000e+000
901687500	-1.800879e+001	-1.287645e+002	-7.299500e+001	-1.039565e+002	-2.000000e+002	0.000000e+000	-2.000000e+002	0.000000e+000
901725000	-1.801102e+001	-1.290099e+002	-7.292250e+001	-1.468824e+002	-2.000000e+002	0.000000e+000	-2.000000e+002	0.000000e+000
901762500	-1.800923e+001	-1.291584e+002	-7.058397e+001	-1.299987e+002	-2.000000e+002	0.000000e+000	-2.000000e+002	0.000000e+000
901800000	-1.800766e+001	-1.293749e+002	-7.649280e+001	-1.269651e+002	-2.000000e+002	0.000000e+000	-2.000000e+002	0.000000e+000
901837500	-1.800719e+001	-1.296701e+002	-7.686028e+001	-9.921623e+001	-2.000000e+002	0.000000e+000	-2.000000e+002	0.000000e+000
901875000	-1.800264e+001	-1.297897e+002	-7.474226e+001	-1.196859e+002	-2.000000e+002	0.000000e+000	-2.000000e+002	0.000000e+000
901912500	-1.800912e+001	-1.300346e+002	-7.435865e+001	-1.216057e+002	-2.000000e+002	0.000000e+000	-2.000000e+002	0.000000e+000
901950000	-1.800835e+001	-1.302411e+002	-8.259674e+001	-1.159595e+002	-2.000000e+002	0.000000e+000	-2.000000e+002	0.000000e+000
901987500	-1.800602e+001	-1.304547e+002	-7.769052e+001	-1.247010e+002	-2.000000e+002	0.000000e+000	-2.000000e+002	0.000000e+000
902025000	-1.800460e+001	-1.306402e+002	-7.599475e+001	-1.162368e+002	-2.000000e+002	0.000000e+000	-2.000000e+002	0.000000e+000
902062500	-1.799797e+001	-1.307786e+002	-7.236373e+001	-1.235934e+002	-2.000000e+002	0.000000e+000	-2.000000e+002	0.000000e+000
902100000	-1.799358e+001	-1.311092e+002	-7.842369e+001	-1.604378e+002	-2.000000e+002	0.000000e+000	-2.000000e+002	0.000000e+000
902137500	-1.799251e+001	-1.312446e+002	-7.418489e+001	-1.340886e+002	-2.000000e+002	0.000000e+000	-2.000000e+002	0.000000e+000
902175000	-1.798079e+001	-1.314546e+002	-6.996885e+001	-1.192701e+002	-2.000000e+002	0.000000e+000	-2.000000e+002	0.000000e+000
902212500	-1.798766e+001	-1.317053e+002	-7.308284e+001	-1.410855e+002	-2.000000e+002	0.000000e+000	-2.000000e+002	0.000000e+000
902250000	-1.798631e+001	-1.318737e+002	-7.691790e+001	-1.595621e+002	-2.000000e+002	0.000000e+000	-2.000000e+002	0.000000e+000
902287500	-1.798242e+001	-1.320816e+002	-7.411254e+001	-1.408390e+002	-2.000000e+002	0.000000e+000	-2.000000e+002	0.000000e+000
902325000	-1.798287e+001	-1.323528e+002	-7.505604e+001	-1.559092e+002	-2.000000e+002	0.000000e+000	-2.000000e+002	0.000000e+000
902362500	-1.798495e+001	-1.325681e+002	-7.345965e+001	-1.141134e+002	-2.000000e+002	0.000000e+000	-2.000000e+002	0.000000e+000
902400000	-1.797660e+001	-1.328122e+002	-7.192661e+001	-1.443751e+002	-2.000000e+002	0.000000e+000	-2.000000e+002	0.000000e+000
902437500	-1.797954e+001	-1.330405e+002	-7.520886e+001	-1.331114e+002	-2.000000e+002	0.000000e+000	-2.000000e+002	0.000000e+000
902475000	-1.797339e+001	-1.332494e+002	-7.155323e+001	-1.342238e+002	-2.000000e+002	0.000000e+000	-2.000000e+002	0.000000e+000
902512500	-1.797423e+001	-1.334334e+002	-7.382983e+001	-1.565078e+002	-2.000000e+002	0.000000e+000	-2.000000e+002	0.000000e+000
902550000	-1.797233e+001	-1.337250e+002	-8.155384e+001	-1.522304e+002	-2.000000e+002	0.000000e+000	-2.000000e+002	0.000000e+000
902587500	-1.797644e+001	-1.339680e+002	-7.245283e+001	-1.125826e+002	-2.000000e+002	0.000000e+000	-2.000000e+002	0.000000e+000
902625000	-1.798521e+001	-1.341937e+002	-7.310684e+001	-1.182679e+002	-2.000000e+002	0.000000e+000	-2.000000e+002	0.000000e+000
902662500	-1.798064e+001	-1.344362e+002	-7.121138e+001	-1.295330e+002	-2.000000e+002	0.000000e+000	-2.000000e+002	0.000000e+000
902700000	-1.799188e+001	-1.346637e+002	-7.910691e+001	-1.574750e+002	-2.000000e+002	0.000000e+000	-2.000000e+002	0.000000e+000
902737500	-1.799412e+001	-1.348930e+002	-7.167053e+001	-1.511904e+002	-2.000000e+002	0.000000e+000	-2.000000e+002	0.000000e+000
902775000	-1.800474e+001	-1.350685e+002	-7.350231e+001	-1.033764e+002	-2.000000e+002	0.000000e+000	-2.000000e+002	0.000000e+000
902812500	-1.800356e+001	-1.352496e+002	-8.198850e+001	-1.171062e+002	-2.000000e+002	0.000000e+000	-2.000000e+002	0.000000e+000
902850000	-1.800821e+001	-1.355254e+002	-7.243313e+001	-1.408341e+002	-2.000000e+002	0.000000e+000	-2.000000e+002	0.000000e+000
902887500	-1.800790e+001	-1.357256e+002	-7.524828e+001	-1.717660e+002	-2.000000e+002	0.000000e+000	-2.000000e+002	0.000000e+000
902925000	-1.800763e+001	-1.358566e+002	-7.862293e+001	1.586640e+002	-2.000000e+002	0.000000e+000	-2.000000e+002	0.000000e+000
902962500	-1.801012e+001	-1.360880e+002	-7.040835e+001	-1.287842e+002	-2.000000e+002	0.000000e+000	-2.000000e+002	0.000000e+000
903000000	-1.800959e+001	-1.362657e+002	-7.594517e+001	-1.173688e+002	-2.000000e+002	0.000000e+000	-2.000000e+002	0.000000e+000
903037500	-1.801632e+001	-1.364782e+002	-7.502841e+001	-1.532716e+002	-2.000000e+002	0.000000e+000	-2.000000e+002	0.000000e+000
903075000	-1.801302e+001	-1.366926e+002	-7.470246e+001	-1.156865e+002	-2.000000e+002	0.000000e+000	-2.000000e+002	0.000000e+000
903112500	-1.802257e+001	-1.369010e+002	-7.217460e+001	-1.596625e+002	-2.000000e+002	0.000000e+000	-2.000000e+002	0.000000e+000
903150000	-1.802220e+001	-1.370499e+002	-7.337453e+001	-1.361756e+002	-2.000000e+002	0.000000e+000	-2.000000e+002	0.000000e+000
903187500	-1.801672e+001	-1.372639e+002	-7.484671e+001	-1.383089e+002	-2.000000e+002	0.000000e+000	-2.000000e+002	0.000000e+000
903225000	-1.802197e+001	-1.374451e+002	-7.422906e+001	-1.371387e+002	-2.000000e+002	0.000000e+000	-2.000000e+002	0.000000e+000
903262500	-1.801564e+001	-1.376243e+002	-7.421179e+001	-1.495862e+002	-2.000000e+002	0.000000e+000	-2.000000e+002	0.000000e+000
903300000	-1.801618e+001	-1.379177e+002	-7.221326e+001	-1.678007e+002	-2.000000e+002	0.000000e+000	-2.000000e+002	0.000000e+000
903337500	-1.801105e+001	-1.381387e+002	-7.872926e+001	-1.310284e+002	-2.000000e+002	0.000000e+000	-2.000000e+002	0.000000e+000
903375000	-1.801687e+001	-1.382809e+002	-7.213130e+001	-1.473786e+002	-2.000000e+002	0.000000e+000	-2.000000e+002	0.000000e+000
903412500	-1.800668e+001	-1.384873e+002	-7.411450e+001	-1.342147e+002	-2.000000e+002	0.000000e+000	-2.000000e+002	0.000000e+000
903450000	-1.801222e+001	-1.387733e+002	-7.594337e+001	-1.185802e+002	-2.000000e+002	0.000000e+000	-2.000000e+002	0.000000e+000
903487500	-1.802183e+001	-1.389839e+002	-7.377499e+001	-1.741226e+002	-2.000000e+002	0.000000e+000	-2.000000e+002	0.000000e+000
903525000	-1.801548e+001	-1.391865e+002	-7.859675e+001	-1.606438e+002	-2.000000e+002	0.000000e+000	-2.000000e+002	0.000000e+000
903562500	-1.801548e+001	-1.393433e+002	-7.328685e+001	-1.307328e+002	-2.000000e+002	0.000000e+000	-2.000000e+002	0.000000e+000
903600000	-1.801443e+001	-1.395794e+002	-7.471073e+001	-1.779734e+002	-2.000000e+002	0.000000e+000	-2.000000e+002	0.000000e+000
903637500	-1.802516e+001	-1.397869e+002	-8.016716e+001	-1.289254e+002	-2.000000e+002	0.000000e+000	-2.000000e+002	0.000000e+000
903675000	-1.801682e+001	-1.400138e+002	-7.607182e+001	-1.473791e+002	-2.000000e+002	0.000000e+000	-2.000000e+002	0.000000e+000
903712500	-1.801721e+001	-1.402805e+002	-7.508987e+001	-1.538286e+002	-2.000000e+002	0.000000e+000	-2.000000e+002	0.000000e+000
903750000	-1.802660e+001	-1.404445e+002	-7.406613e+001	-1.383252e+002	-2.000000e+002	0.000000e+000	-2.000000e+002	0.000000e+000
903787500	-1.802908e+001	-1.406643e+002	-7.610364e+001	-1.281400e+002	-2.000000e+002	0.000000e+000	-2.000000e+002	0.000000e+000
903825000	-1.802416e+001	-1.408950e+002	-7.172476e+001	-1.741649e+002	-2.000000e+002	0.000000e+000	-2.000000e+002	0.000000e+000
903862500	-1.803195e+001	-1.410881e+002	-7.586035e+001	-1.610067e+002	-2.000000e+002	0.000000e+000	-2.000000e+002	0.000000e+000
903900000	-1.803150e+001	-1.412637e+002	-7.606348e+001	-1.324027e+002	-2.000000e+002	0.000000e+000	-2.000000e+002	0.000000e+000
903937500	-1.803489e+001	-1.414919e+002	-8.369244e+001	-1.486968e+002	-2.000000e+002	0.000000e+000	-2.000000e+002	0.000000e+000
903975000	-1.803914e+001	-1.416740e+002	-7.397183e+001	-1.390014e+002	-2.000000e+002	0.000000e+000	-2.000000e+002	0.000000e+000
904012500	-1.803871e+001	-1.418553e+002	-7.206375e+001	-1.495743e+002	-2.000000e+002	0.000000e+000	-2.000000e+002	0.000000e+000
904050000	-1.804188e+001	-1.420859e+002	-7.485430e+001	-1.685528e+002	-2.000000e+002	0.000000e+000	-2.000000e+002	0.000000e+000
904087500	-1.804026e+001	-1.422845e+002	-7.554144e+001	-1.614678e+002	-2.000000e+002	0.000000e+000	-2.000000e+002	0.000000e+000
904125000	-1.804426e+001	-1.425343e+002	-7.740120e+001	-1.719470e+002	-2.000000e+002	0.000000e+000	-2.000000e+002	0.000000e+000
904162500	-1.805253e+001	-1.427472e+002	-6.910099e+001	-1.481516e+002	-2.000000e+002	0.000000e+000	-2.000000e+002	0.000000e+000
904200000	-1.804893e+001	-1.429458e+002	-7.697685e+001	-1.496227e+002	-2.000000e+002	0.000000e+000	-2.000000e+002	0.000000e+000
904237500	-1.805116e+001	-1.430925e+002	-7.199551e+001	-1.336035e+002	-2.000000e+002	0.000000e+000	-2.000000e+002	0.000000e+000
904275000	-1.805182e+001	-1.433773e+002	-7.484354e+001	-1.599296e+002	-2.000000e+002	0.000000e+000	-2.000000e+002	0.000000e+000
904312500	-1.805007e+001	-1.435229e+002	-7.352690e+001	-1.484645e+002	-2.000000e+002	0.000000e+000	-2.000000e+002	0.000000e+000
904350000	-1.804854e+001	-1.437460e+002	-7.480126e+001	1.765802e+002	-2.000000e+002	0.000000e+000	-2.000000e+002	0.000000e+000
904387500	-1.805325e+001	-1.439212e+002	-7.346972e+001	-1.380881e+002	-2.000000e+002	0.000000e+000	-2.000000e+002	0.000000e+000
904425000	-1.805035e+001	-1.441512e+002	-7.141761e+001	-1.457963e+002	-2.000000e+002	0.000000e+000	-2.000000e+002	0.000000e+000
904462500	-1.805979e+001	-1.443829e+002	-7.716052e+001	-1.346311e+002	-2.000000e+002	0.000000e+000	-2.000000e+002	0.000000e+000
904500000	-1.806079e+001	-1.445323e+002	-7.492297e+001	-1.533257e+002	-2.000000e+002	0.000000e+000	-2.000000e+002	0.000000e+000
904537500	-1.805851e+001	-1.447398e+002	-7.668167e+001	-1.613018e+002	-2.000000e+002	0.000000e+000	-2.000000e+002	0.000000e+000
904575000	-1.806480e+001	-1.449543e+002	-7.331984e+001	-1.506334e+002	-2.000000e+002	0.000000e+000	-2.000000e+002	0.000000e+000
904612500	-1.806164e+001	-1.451506e+002	-7.089853e+001	1.794300e+002	-2.000000e+002	0.000000e+000	-2.000000e+002	0.000000e+000
904650000	-1.806551e+001	-1.453650e+002	-7.489098e+001	-1.434900e+002	-2.000000e+002	0.000000e+000	-2.000000e+002	0.000000e+000
904687500	-1.806277e+001	-1.455281e+002	-7.100377e+001	-1.752414e+002	-2.000000e+002	0.000000e+000	-2.000000e+002	0.000000e+000
904725000	-1.806588e+001	-1.457697e+002	-7.416502e+001	-1.264701e+002	-2.000000e+002	0.000000e+000	-2.000000e+002	0.000000e+000
904762500	-1.807210e+001	-1.459382e+002	-7.216747e+001	-1.465112e+002	-2.000000e+002	0.000000e+000	-2.000000e+002	0.000000e+000
904800000	-1.806793e+001	-1.462041e+002	-8.274278e+001	-1.435875e+002	-2.000000e+002	0.000000e+000	-2.000000e+002	0.000000e+000
904837500	-1.807384e+001	-1.463531e+002	-7.229551e+001	-1.538958e+002	-2.000000e+002	0.000000e+000	-2.000000e+002	0.000000e+000
904875000	-1.807683e+001	-1.466152e+002	-7.223853e+001	-1.613633e+002	-2.000000e+002	0.000000e+000	-2.000000e+002	0.000000e+000
904912500	-1.807652e+001	-1.467612e+002	-7.035025e+001	-1.696923e+002	-2.000000e+002	0.000000e+000	-2.000000e+002	0.000000e+000
904950000	-1.807076e+001	-1.469599e+002	-6.971276e+001	1.753344e+002	-2.000000e+002	0.000000e+000	-2.000000e+002	0.000000e+000
904987500	-1.807660e+001	-1.471950e+002	-6.736694e+001	-1.631757e+002	-2.000000e+002	0.000000e+000	-2.000000e+002	0.000000e+000
905025000	-1.808102e+001	-1.474090e+002	-7.171393e+001	-1.779305e+002	-2.000000e+002	0.000000e+000	-2.000000e+002	0.000000e+000
905062500	-1.808128e+001	-1.475736e+002	-7.624087e+001	-1.664506e+002	-2.000000e+002	0.000000e+000	-2.000000e+002	0.000000e+000
905100000	-1.808585e+001	-1.477300e+002	-7.330943e+001	1.789821e+002	-2.000000e+002	0.000000e+000	-2.000000e+002	0.000000e+000
905137500	-1.807643e+001	-1.479660e+002	-7.225745e+001	-1.775595e+002	-2.000000e+002	0.000000e+000	-2.000000e+002	0.000000e+000
905175000	-1.808073e+001	-1.481266e+002	-7.284610e+001	-1.770343e+002	-2.000000e+002	0.000000e+000	-2.000000e+002	0.000000e+000
905212500	-1.808382e+001	-1.483362e+002	-7.160889e+001	-1.783818e+002	-2.000000e+002	0.000000e+000	-2.000000e+002	0.000000e+000
905250000	-1.807710e+001	-1.485364e+002	-7.614153e+001	1.546779e+002	-2.000000e+002	0.000000e+000	-2.000000e+002	0.000000e+000
905287500	-1.808392e+001	-1.487223e+002	-7.191560e+001	-1.460496e+002	-2.000000e+002	0.000000e+000	-2.000000e+002	0.000000e+000
905325000	-1.807980e+001	-1.489360e+002	-7.262972e+001	-1.373643e+002	-2.000000e+002	0.000000e+000	-2.000000e+002	0.000000e+000
905362500	-1.808499e+001	-1.491346e+002	-7.151024e+001	1.715434e+002	-2.000000e+002	0.000000e+000	-2.000000e+002	0.000000e+000
905400000	-1.807616e+001	-1.493009e+002	-7.333614e+001	-1.768082e+002	-2.000000e+002	0.000000e+000	-2.000000e+002	0.000000e+000
905437500	-1.808497e+001	-1.494613e+002	-7.256698e+001	-1.667438e+002	-2.000000e+002	0.000000e+000	-2.000000e+002	0.000000e+000
905475000	-1.807727e+001	-1.496704e+002	-7.619372e+001	-1.419114e+002	-2.000000e+002	0.000000e+000	-2.000000e+002	0.000000e+000
905512500	-1.807163e+001	-1.499644e+002	-7.099516e+001	-1.741497e+002	-2.000000e+002	0.000000e+000	-2.000000e+002	0.000000e+000
905550000	-1.808030e+001	-1.501207e+002	-7.213620e+001	-1.657831e+002	-2.000000e+002	0.000000e+000	-2.000000e+002	0.000000e+000
905587500	-1.807081e+001	-1.503230e+002	-7.518740e+001	1.694330e+002	-2.000000e+002	0.000000e+000	-2.000000e+002	0.000000e+000
905625000	-1.806129e+001	-1.505609e+002	-7.523999e+001	1.743502e+002	-2.000000e+002	0.000000e+000	-2.000000e+002	0.000000e+000
905662500	-1.807489e+001	-1.508202e+002	-7.399780e+001	1.703660e+002	-2.000000e+002	0.000000e+000	-2.000000e+002	0.000000e+000
