!Agilent Technologies,E5071C,MY46214392,A.11.36
!Date: Thu Feb 26 21:14:29 2026
!Data & Calibration Information:
!Freq	S11:NONE(--)	S21:NONE(--)	S12:NONE(--)	S22:NONE(--)
!PortZ  Port1:50+j0    Port2:50+j0
!Above PortZ is port z conversion or system Z0 setting when saving the data.
!When reading, reference impedance value at option line is always used.
# Hz S dB R 50
900000000	-1.810598e+001	-1.203925e+002	-5.463415e+001	1.676029e+002	-2.000000e+002	0.000000e+000	-2.000000e+002	0.000000e+000
900037500	-1.810683e+001	-1.205864e+002	-5.473335e+001	1.627423e+002	-2.000000e+002	0.000000e+000	-2.000000e+002	0.000000e+000
900075000	-1.811263e+001	-1.207119e+002	-5.463820e+001	1.641670e+002	-2.000000e+002	0.000000e+000	-2.000000e+002	0.000000e+000
900112500	-1.810619e+001	-1.210055e+002	-5.405444e+001	1.634142e+002	-2.000000e+002	0.000000e+000	-2.000000e+002	0.000000e+000
900150000	-1.810406e+001	-1.211987e+002	-5.414638e+001	1.598069e+002	-2.000000e+002	0.000000e+000	-2.000000e+002	0.000000e+000
900187500	-1.810427e+001	-1.214112e+002	-5.475774e+001	1.615099e+002	-2.000000e+002	0.000000e+000	-2.000000e+002	0.000000e+000
900225000	-1.811070e+001	-1.215790e+002	-5.436662e+001	1.594523e+002	-2.000000e+002	0.000000e+000	-2.000000e+002	0.000000e+000
900262500	-1.810787e+001	-1.217938e+002	-5.484382e+001	1.595368e+002	-2.000000e+002	0.000000e+000	-2.000000e+002	0.000000e+000
900300000	-1.810935e+001	-1.219655e+002	-5.448331e+001	1.611606e+002	-2.000000e+002	0.000000e+000	-2.000000e+002	0.000000e+000
900337500	-1.810174e+001	-1.221779e+002	-5.388894e+001	1.612079e+002	-2.000000e+002	0.000000e+000	-2.000000e+002	0.000000e+000
900375000	-1.810939e+001	-1.223681e+002	-5.462815e+001	1.557834e+002	-2.000000e+002	0.000000e+000	-2.000000e+002	0.000000e+000
900412500	-1.810507e+001	-1.225931e+002	-5.387544e+001	1.616526e+002	-2.000000e+002	0.000000e+000	-2.000000e+002	0.000000e+000
900450000	-1.811845e+001	-1.228078e+002	-5.397791e+001	1.621907e+002	-2.000000e+002	0.000000e+000	-2.000000e+002	0.000000e+000
900487500	-1.811233e+001	-1.229064e+002	-5.364889e+001	1.573928e+002	-2.000000e+002	0.000000e+000	-2.000000e+002	0.000000e+000
900525000	-1.810962e+001	-1.231944e+002	-5.353317e+001	1.577622e+002	-2.000000e+002	0.000000e+000	-2.000000e+002	0.000000e+000
900562500	-1.810525e+001	-1.234033e+002	-5.384903e+001	1.583737e+002	-2.000000e+002	0.000000e+000	-2.000000e+002	0.000000e+000
900600000	-1.810492e+001	-1.235716e+002	-5.427301e+001	1.562615e+002	-2.000000e+002	0.000000e+000	-2.000000e+002	0.000000e+000
900637500	-1.810508e+001	-1.238081e+002	-5.381351e+001	1.521594e+002	-2.000000e+002	0.000000e+000	-2.000000e+002	0.000000e+000
900675000	-1.809650e+001	-1.239315e+002	-5.329401e+001	1.560788e+002	-2.000000e+002	0.000000e+000	-2.000000e+002	0.000000e+000
900712500	-1.810112e+001	-1.241564e+002	-5.397356e+001	1.523675e+002	-2.000000e+002	0.000000e+000	-2.000000e+002	0.000000e+000
900750000	-1.810141e+001	-1.243687e+002	-5.320264e+001	1.521452e+002	-2.000000e+002	0.000000e+000	-2.000000e+002	0.000000e+000
900787500	-1.809822e+001	-1.245556e+002	-5.344297e+001	1.530130e+002	-2.000000e+002	0.000000e+000	-2.000000e+002	0.000000e+000
900825000	-1.809488e+001	-1.247548e+002	-5.371296e+001	1.540118e+002	-2.000000e+002	0.000000e+000	-2.000000e+002	0.000000e+000
900862500	-1.809573e+001	-1.249444e+002	-5.320630e+001	1.508516e+002	-2.000000e+002	0.000000e+000	-2.000000e+002	0.000000e+000
900900000	-1.810301e+001	-1.251784e+002	-5.358302e+001	1.526056e+002	-2.000000e+002	0.000000e+000	-2.000000e+002	0.000000e+000
900937500	-1.809306e+001	-1.253608e+002	-5.344215e+001	1.520545e+002	-2.000000e+002	0.000000e+000	-2.000000e+002	0.000000e+000
900975000	-1.809688e+001	-1.255352e+002	-5.311418e+001	1.516783e+002	-2.000000e+002	0.000000e+000	-2.000000e+002	0.000000e+000
901012500	-1.809739e+001	-1.257391e+002	-5.334531e+001	1.516416e+002	-2.000000e+002	0.000000e+000	-2.000000e+002	0.000000e+000
901050000	-1.808626e+001	-1.259418e+002	-5.278266e+001	1.509132e+002	-2.000000e+002	0.000000e+000	-2.000000e+002	0.000000e+000
901087500	-1.809188e+001	-1.261556e+002	-5.279114e+001	1.501559e+002	-2.000000e+002	0.000000e+000	-2.000000e+002	0.000000e+000
901125000	-1.809107e+001	-1.263355e+002	-5.250735e+001	1.476687e+002	-2.000000e+002	0.000000e+000	-2.000000e+002	0.000000e+000
901162500	-1.808803e+001	-1.265386e+002	-5.268831e+001	1.484893e+002	-2.000000e+002	0.000000e+000	-2.000000e+002	0.000000e+000
901200000	-1.808590e+001	-1.267546e+002	-5.279697e+001	1.459834e+002	-2.000000e+002	0.000000e+000	-2.000000e+002	0.000000e+000
901237500	-1.808946e+001	-1.269226e+002	-5.228643e+001	1.467411e+002	-2.000000e+002	0.000000e+000	-2.000000e+002	0.000000e+000
901275000	-1.809117e+001	-1.271183e+002	-5.255380e+001	1.461634e+002	-2.000000e+002	0.000000e+000	-2.000000e+002	0.000000e+000
901312500	-1.809335e+001	-1.273846e+002	-5.262798e+001	1.430524e+002	-2.000000e+002	0.000000e+000	-2.000000e+002	0.000000e+000
901350000	-1.808734e+001	-1.275738e+002	-5.261433e+001	1.471682e+002	-2.000000e+002	0.000000e+000	-2.000000e+002	0.000000e+000
901387500	-1.808543e+001	-1.277243e+002	-5.203071e+001	1.469764e+002	-2.000000e+002	0.000000e+000	-2.000000e+002	0.000000e+000
901425000	-1.808405e+001	-1.279683e+002	-5.234859e+001	1.429051e+002	-2.000000e+002	0.000000e+000	-2.000000e+002	0.000000e+000
901462500	-1.808802e+001	-1.281459e+002	-5.227601e+001	1.437577e+002	-2.000000e+002	0.000000e+000	-2.000000e+002	0.000000e+000
901500000	-1.808003e+001	-1.284057e+002	-5.215864e+001	1.441150e+002	-2.000000e+002	0.000000e+000	-2.000000e+002	0.000000e+000
901537500	-1.808241e+001	-1.285519e+002	-5.183307e+001	1.415251e+002	-2.000000e+002	0.000000e+000	-2.000000e+002	0.000000e+000
901575000	-1.807321e+001	-1.287263e+002	-5.184492e+001	1.399910e+002	-2.000000e+002	0.000000e+000	-2.000000e+002	0.000000e+000
901612500	-1.807565e+001	-1.289094e+002	-5.146492e+001	1.388302e+002	-2.000000e+002	0.000000e+000	-2.000000e+002	0.000000e+000
901650000	-1.807837e+001	-1.291662e+002	-5.188433e+001	1.411775e+002	-2.000000e+002	0.000000e+000	-2.000000e+002	0.000000e+000
901687500	-1.807531e+001	-1.293563e+002	-5.130508e+001	1.380579e+002	-2.000000e+002	0.000000e+000	-2.000000e+002	0.000000e+000
901725000	-1.808168e+001	-1.295704e+002	-5.140643e+001	1.399933e+002	-2.000000e+002	0.000000e+000	-2.000000e+002	0.000000e+000
901762500	-1.806145e+001	-1.297513e+002	-5.142573e+001	1.385489e+002	-2.000000e+002	0.000000e+000	-2.000000e+002	0.000000e+000
901800000	-1.806489e+001	-1.299803e+002	-5.131904e+001	1.372363e+002	-2.000000e+002	0.000000e+000	-2.000000e+002	0.000000e+000
901837500	-1.806896e+001	-1.302109e+002	-5.130172e+001	1.363322e+002	-2.000000e+002	0.000000e+000	-2.000000e+002	0.000000e+000
901875000	-1.806140e+001	-1.303744e+002	-5.124614e+001	1.377448e+002	-2.000000e+002	0.000000e+000	-2.000000e+002	0.000000e+000
901912500	-1.806653e+001	-1.306061e+002	-5.107932e+001	1.356471e+002	-2.000000e+002	0.000000e+000	-2.000000e+002	0.000000e+000
901950000	-1.806754e+001	-1.307953e+002	-5.110584e+001	1.353294e+002	-2.000000e+002	0.000000e+000	-2.000000e+002	0.000000e+000
901987500	-1.805135e+001	-1.310039e+002	-5.102161e+001	1.322369e+002	-2.000000e+002	0.000000e+000	-2.000000e+002	0.000000e+000
902025000	-1.805334e+001	-1.312074e+002	-5.106066e+001	1.344085e+002	-2.000000e+002	0.000000e+000	-2.000000e+002	0.000000e+000
902062500	-1.805899e+001	-1.313944e+002	-5.087178e+001	1.353652e+002	-2.000000e+002	0.000000e+000	-2.000000e+002	0.000000e+000
902100000	-1.805070e+001	-1.316298e+002	-5.102391e+001	1.312970e+002	-2.000000e+002	0.000000e+000	-2.000000e+002	0.000000e+000
902137500	-1.805268e+001	-1.318747e+002	-5.084913e+001	1.331338e+002	-2.000000e+002	0.000000e+000	-2.000000e+002	0.000000e+000
902175000	-1.804897e+001	-1.320188e+002	-5.114484e+001	1.313499e+002	-2.000000e+002	0.000000e+000	-2.000000e+002	0.000000e+000
902212500	-1.804736e+001	-1.322712e+002	-5.069975e+001	1.306178e+002	-2.000000e+002	0.000000e+000	-2.000000e+002	0.000000e+000
902250000	-1.804205e+001	-1.324892e+002	-5.066146e+001	1.302509e+002	-2.000000e+002	0.000000e+000	-2.000000e+002	0.000000e+000
902287500	-1.804281e+001	-1.327264e+002	-5.037497e+001	1.287719e+002	-2.000000e+002	0.000000e+000	-2.000000e+002	0.000000e+000
902325000	-1.803897e+001	-1.329554e+002	-5.038858e+001	1.297972e+002	-2.000000e+002	0.000000e+000	-2.000000e+002	0.000000e+000
902362500	-1.803188e+001	-1.331596e+002	-5.044471e+001	1.282392e+002	-2.000000e+002	0.000000e+000	-2.000000e+002	0.000000e+000
902400000	-1.803395e+001	-1.333750e+002	-5.043292e+001	1.294140e+002	-2.000000e+002	0.000000e+000	-2.000000e+002	0.000000e+000
902437500	-1.804499e+001	-1.335944e+002	-4.997689e+001	1.274103e+002	-2.000000e+002	0.000000e+000	-2.000000e+002	0.000000e+000
902475000	-1.803736e+001	-1.338991e+002	-4.984209e+001	1.268104e+002	-2.000000e+002	0.000000e+000	-2.000000e+002	0.000000e+000
902512500	-1.802903e+001	-1.340929e+002	-5.015073e+001	1.257221e+002	-2.000000e+002	0.000000e+000	-2.000000e+002	0.000000e+000
902550000	-1.802876e+001	-1.343090e+002	-5.001069e+001	1.261695e+002	-2.000000e+002	0.000000e+000	-2.000000e+002	0.000000e+000
902587500	-1.803802e+001	-1.345448e+002	-4.976871e+001	1.256124e+002	-2.000000e+002	0.000000e+000	-2.000000e+002	0.000000e+000
902625000	-1.803076e+001	-1.348392e+002	-4.967950e+001	1.238849e+002	-2.000000e+002	0.000000e+000	-2.000000e+002	0.000000e+000
902662500	-1.804154e+001	-1.350459e+002	-4.966721e+001	1.242104e+002	-2.000000e+002	0.000000e+000	-2.000000e+002	0.000000e+000
902700000	-1.803996e+001	-1.352809e+002	-4.983303e+001	1.256184e+002	-2.000000e+002	0.000000e+000	-2.000000e+002	0.000000e+000
902737500	-1.805047e+001	-1.355094e+002	-4.951101e+001	1.239389e+002	-2.000000e+002	0.000000e+000	-2.000000e+002	0.000000e+000
902775000	-1.805576e+001	-1.357317e+002	-4.949204e+001	1.234459e+002	-2.000000e+002	0.000000e+000	-2.000000e+002	0.000000e+000
902812500	-1.805747e+001	-1.359491e+002	-4.946979e+001	1.222247e+002	-2.000000e+002	0.000000e+000	-2.000000e+002	0.000000e+000
902850000	-1.806457e+001	-1.361260e+002	-4.937673e+001	1.220146e+002	-2.000000e+002	0.000000e+000	-2.000000e+002	0.000000e+000
902887500	-1.806343e+001	-1.362681e+002	-4.913365e+001	1.212145e+002	-2.000000e+002	0.000000e+000	-2.000000e+002	0.000000e+000
902925000	-1.806098e+001	-1.364282e+002	-4.904211e+001	1.209883e+002	-2.000000e+002	0.000000e+000	-2.000000e+002	0.000000e+000
902962500	-1.807038e+001	-1.367180e+002	-4.912392e+001	1.206237e+002	-2.000000e+002	0.000000e+000	-2.000000e+002	0.000000e+000
903000000	-1.806157e+001	-1.368900e+002	-4.904098e+001	1.186170e+002	-2.000000e+002	0.000000e+000	-2.000000e+002	0.000000e+000
903037500	-1.806885e+001	-1.370806e+002	-4.901713e+001	1.180057e+002	-2.000000e+002	0.000000e+000	-2.000000e+002	0.000000e+000
903075000	-1.807785e+001	-1.373020e+002	-4.855703e+001	1.168130e+002	-2.000000e+002	0.000000e+000	-2.000000e+002	0.000000e+000
903112500	-1.807307e+001	-1.375122e+002	-4.845068e+001	1.178240e+002	-2.000000e+002	0.000000e+000	-2.000000e+002	0.000000e+000
903150000	-1.806377e+001	-1.376244e+002	-4.839288e+001	1.160758e+002	-2.000000e+002	0.000000e+000	-2.000000e+002	0.000000e+000
903187500	-1.808628e+001	-1.377975e+002	-4.840324e+001	1.161831e+002	-2.000000e+002	0.000000e+000	-2.000000e+002	0.000000e+000
903225000	-1.807678e+001	-1.380431e+002	-4.846097e+001	1.158261e+002	-2.000000e+002	0.000000e+000	-2.000000e+002	0.000000e+000
903262500	-1.807223e+001	-1.382954e+002	-4.813778e+001	1.133051e+002	-2.000000e+002	0.000000e+000	-2.000000e+002	0.000000e+000
903300000	-1.806136e+001	-1.384903e+002	-4.799648e+001	1.139916e+002	-2.000000e+002	0.000000e+000	-2.000000e+002	0.000000e+000
903337500	-1.807049e+001	-1.386919e+002	-4.828603e+001	1.124034e+002	-2.000000e+002	0.000000e+000	-2.000000e+002	0.000000e+000
903375000	-1.806625e+001	-1.389739e+002	-4.769358e+001	1.126954e+002	-2.000000e+002	0.000000e+000	-2.000000e+002	0.000000e+000
903412500	-1.806515e+001	-1.391779e+002	-4.780981e+001	1.111136e+002	-2.000000e+002	0.000000e+000	-2.000000e+002	0.000000e+000
903450000	-1.807084e+001	-1.393189e+002	-4.760998e+001	1.115061e+002	-2.000000e+002	0.000000e+000	-2.000000e+002	0.000000e+000
903487500	-1.807121e+001	-1.395753e+002	-4.800934e+001	1.098468e+002	-2.000000e+002	0.000000e+000	-2.000000e+002	0.000000e+000
903525000	-1.806652e+001	-1.397955e+002	-4.785849e+001	1.105370e+002	-2.000000e+002	0.000000e+000	-2.000000e+002	0.000000e+000
903562500	-1.807094e+001	-1.399753e+002	-4.733923e+001	1.092462e+002	-2.000000e+002	0.000000e+000	-2.000000e+002	0.000000e+000
903600000	-1.806969e+001	-1.401492e+002	-4.754903e+001	1.105012e+002	-2.000000e+002	0.000000e+000	-2.000000e+002	0.000000e+000
903637500	-1.807079e+001	-1.404207e+002	-4.733360e+001	1.082580e+002	-2.000000e+002	0.000000e+000	-2.000000e+002	0.000000e+000
903675000	-1.807293e+001	-1.406708e+002	-4.728430e+001	1.060379e+002	-2.000000e+002	0.000000e+000	-2.000000e+002	0.000000e+000
903712500	-1.807282e+001	-1.408364e+002	-4.712376e+001	1.070938e+002	-2.000000e+002	0.000000e+000	-2.000000e+002	0.000000e+000
903750000	-1.808170e+001	-1.410442e+002	-4.694938e+001	1.057086e+002	-2.000000e+002	0.000000e+000	-2.000000e+002	0.000000e+000
903787500	-1.807339e+001	-1.412720e+002	-4.677039e+001	1.049562e+002	-2.000000e+002	0.000000e+000	-2.000000e+002	0.000000e+000
903825000	-1.807888e+001	-1.414905e+002	-4.666875e+001	1.048655e+002	-2.000000e+002	0.000000e+000	-2.000000e+002	0.000000e+000
903862500	-1.808649e+001	-1.417464e+002	-4.687556e+001	1.032079e+002	-2.000000e+002	0.000000e+000	-2.000000e+002	0.000000e+000
903900000	-1.807852e+001	-1.419187e+002	-4.687312e+001	1.040527e+002	-2.000000e+002	0.000000e+000	-2.000000e+002	0.000000e+000
903937500	-1.808610e+001	-1.420518e+002	-4.672268e+001	1.017516e+002	-2.000000e+002	0.000000e+000	-2.000000e+002	0.000000e+000
903975000	-1.808350e+001	-1.423401e+002	-4.645081e+001	1.031406e+002	-2.000000e+002	0.000000e+000	-2.000000e+002	0.000000e+000
904012500	-1.809175e+001	-1.425210e+002	-4.658891e+001	1.021316e+002	-2.000000e+002	0.000000e+000	-2.000000e+002	0.000000e+000
904050000	-1.808607e+001	-1.426990e+002	-4.625734e+001	1.013193e+002	-2.000000e+002	0.000000e+000	-2.000000e+002	0.000000e+000
904087500	-1.808706e+001	-1.429485e+002	-4.616429e+001	1.001575e+002	-2.000000e+002	0.000000e+000	-2.000000e+002	0.000000e+000
904125000	-1.808906e+001	-1.431256e+002	-4.612235e+001	9.810501e+001	-2.000000e+002	0.000000e+000	-2.000000e+002	0.000000e+000
904162500	-1.808900e+001	-1.433831e+002	-4.591562e+001	9.764626e+001	-2.000000e+002	0.000000e+000	-2.000000e+002	0.000000e+000
904200000	-1.809263e+001	-1.435274e+002	-4.594394e+001	9.852336e+001	-2.000000e+002	0.000000e+000	-2.000000e+002	0.000000e+000
904237500	-1.810002e+001	-1.438266e+002	-4.590940e+001	9.766884e+001	-2.000000e+002	0.000000e+000	-2.000000e+002	0.000000e+000
904275000	-1.810404e+001	-1.439789e+002	-4.578651e+001	9.636272e+001	-2.000000e+002	0.000000e+000	-2.000000e+002	0.000000e+000
904312500	-1.809248e+001	-1.441530e+002	-4.551720e+001	9.625544e+001	-2.000000e+002	0.000000e+000	-2.000000e+002	0.000000e+000
904350000	-1.809795e+001	-1.443811e+002	-4.555193e+001	9.445741e+001	-2.000000e+002	0.000000e+000	-2.000000e+002	0.000000e+000
904387500	-1.810675e+001	-1.446129e+002	-4.553522e+001	9.488845e+001	-2.000000e+002	0.000000e+000	-2.000000e+002	0.000000e+000
904425000	-1.810641e+001	-1.448214e+002	-4.538617e+001	9.331417e+001	-2.000000e+002	0.000000e+000	-2.000000e+002	0.000000e+000
904462500	-1.810837e+001	-1.449782e+002	-4.514579e+001	9.322327e+001	-2.000000e+002	0.000000e+000	-2.000000e+002	0.000000e+000
904500000	-1.811435e+001	-1.451909e+002	-4.522365e+001	9.187221e+001	-2.000000e+002	0.000000e+000	-2.000000e+002	0.000000e+000
904537500	-1.810783e+001	-1.453507e+002	-4.505441e+001	9.106520e+001	-2.000000e+002	0.000000e+000	-2.000000e+002	0.000000e+000
904575000	-1.810881e+001	-1.456295e+002	-4.503251e+001	9.065115e+001	-2.000000e+002	0.000000e+000	-2.000000e+002	0.000000e+000
904612500	-1.810258e+001	-1.458266e+002	-4.486183e+001	8.915515e+001	-2.000000e+002	0.000000e+000	-2.000000e+002	0.000000e+000
904650000	-1.811493e+001	-1.459990e+002	-4.479686e+001	8.971631e+001	-2.000000e+002	0.000000e+000	-2.000000e+002	0.000000e+000
904687500	-1.812356e+001	-1.462792e+002	-4.462706e+001	8.901837e+001	-2.000000e+002	0.000000e+000	-2.000000e+002	0.000000e+000
904725000	-1.812124e+001	-1.463997e+002	-4.453614e+001	8.774311e+001	-2.000000e+002	0.000000e+000	-2.000000e+002	0.000000e+000
904762500	-1.811741e+001	-1.466292e+002	-4.449339e+001	8.672643e+001	-2.000000e+002	0.000000e+000	-2.000000e+002	0.000000e+000
904800000	-1.811920e+001	-1.468533e+002	-4.448081e+001	8.497194e+001	-2.000000e+002	0.000000e+000	-2.000000e+002	0.000000e+000
904837500	-1.810809e+001	-1.470551e+002	-4.427200e+001	8.536163e+001	-2.000000e+002	0.000000e+000	-2.000000e+002	0.000000e+000
904875000	-1.812809e+001	-1.472329e+002	-4.443367e+001	8.342478e+001	-2.000000e+002	0.000000e+000	-2.000000e+002	0.000000e+000
904912500	-1.812178e+001	-1.474520e+002	-4.401864e+001	8.316991e+001	-2.000000e+002	0.000000e+000	-2.000000e+002	0.000000e+000
904950000	-1.812553e+001	-1.476344e+002	-4.407091e+001	8.197336e+001	-2.000000e+002	0.000000e+000	-2.000000e+002	0.000000e+000
904987500	-1.813643e+001	-1.478183e+002	-4.393249e+001	8.206540e+001	-2.000000e+002	0.000000e+000	-2.000000e+002	0.000000e+000
905025000	-1.812577e+001	-1.480262e+002	-4.377201e+001	8.129534e+001	-2.000000e+002	0.000000e+000	-2.000000e+002	0.000000e+000
905062500	-1.812871e+001	-1.482216e+002	-4.381041e+001	8.071559e+001	-2.000000e+002	0.000000e+000	-2.000000e+002	0.000000e+000
905100000	-1.814013e+001	-1.484352e+002	-4.369620e+001	7.870688e+001	-2.000000e+002	0.000000e+000	-2.000000e+002	0.000000e+000
905137500	-1.813733e+001	-1.485426e+002	-4.353568e+001	7.829978e+001	-2.000000e+002	0.000000e+000	-2.000000e+002	0.000000e+000
905175000	-1.813383e+001	-1.487871e+002	-4.355510e+001	7.762803e+001	-2.000000e+002	0.000000e+000	-2.000000e+002	0.000000e+000
905212500	-1.813546e+001	-1.489919e+002	-4.348799e+001	7.634100e+001	-2.000000e+002	0.000000e+000	-2.000000e+002	0.000000e+000
905250000	-1.813029e+001	-1.491465e+002	-4.337320e+001	7.569600e+001	-2.000000e+002	0.000000e+000	-2.000000e+002	0.000000e+000
905287500	-1.812187e+001	-1.494332e+002	-4.328406e+001	7.504397e+001	-2.000000e+002	0.000000e+000	-2.000000e+002	0.000000e+000
905325000	-1.813157e+001	-1.495569e+002	-4.325236e+001	7.443394e+001	-2.000000e+002	0.000000e+000	-2.000000e+002	0.000000e+000
905362500	-1.812718e+001	-1.497695e+002	-4.303315e+001	7.259673e+001	-2.000000e+002	0.000000e+000	-2.000000e+002	0.000000e+000
905400000	-1.812775e+001	-1.499806e+002	-4.298400e+001	7.200602e+001	-2.000000e+002	0.000000e+000	-2.000000e+002	0.000000e+000
905437500	-1.813001e+001	-1.501926e+002	-4.302537e+001	7.034418e+001	-2.000000e+002	0.000000e+000	-2.000000e+002	0.000000e+000
905475000	-1.812286e+001	-1.503607e+002	-4.282622e+001	7.014372e+001	-2.000000e+002	0.000000e+000	-2.000000e+002	0.000000e+000
905512500	-1.811954e+001	-1.506309e+002	-4.286917e+001	6.925013e+001	-2.000000e+002	0.000000e+000	-2.000000e+002	0.000000e+000
905550000	-1.811942e+001	-1.508179e+002	-4.275316e+001	6.825429e+001	-2.000000e+002	0.000000e+000	-2.000000e+002	0.000000e+000
905587500	-1.812093e+001	-1.510138e+002	-4.265853e+001	6.743560e+001	-2.000000e+002	0.000000e+000	-2.000000e+002	0.000000e+000
905625000	-1.811920e+001	-1.512801e+002	-4.261393e+001	6.664900e+001	-2.000000e+002	0.000000e+000	-2.000000e+002	0.000000e+000
905662500	-1.812010e+001	-1.514579e+002	-4.252359e+001	6.562136e+001	-2.000000e+002	0.000000e+000	-2.000000e+002	0.000000e+000
905700000	-1.813194e+001	-1.516825e+002	-4.262717e+001	6.504527e+001	-2.000000e+002	0.000000e+000	-2.000000e+002	0.000000e+000
