!Agilent Technologies,E5071C,MY46214392,A.11.36
!Date: Thu Feb 26 21:53:04 2026
!Data & Calibration Information:
!Freq	S11:NONE(--)	S21:NONE(--)	S12:NONE(--)	S22:NONE(--)
!PortZ  Port1:50+j0    Port2:50+j0
!Above PortZ is port z conversion or system Z0 setting when saving the data.
!When reading, reference impedance value at option line is always used.
# Hz S dB R 50
900000000	-1.802825e+001	-1.197829e+002	-9.484967e+001	4.452508e+001	-2.000000e+002	0.000000e+000	-2.000000e+002	0.000000e+000
900037500	-1.803667e+001	-1.199585e+002	-8.580295e+001	1.760829e+002	-2.000000e+002	0.000000e+000	-2.000000e+002	0.000000e+000
900075000	-1.803917e+001	-1.201522e+002	-7.662369e+001	1.073467e+002	-2.000000e+002	0.000000e+000	-2.000000e+002	0.000000e+000
900112500	-1.803060e+001	-1.203317e+002	-8.002982e+001	1.424364e+002	-2.000000e+002	0.000000e+000	-2.000000e+002	0.000000e+000
900150000	-1.802342e+001	-1.205900e+002	-7.459634e+001	-1.557302e+002	-2.000000e+002	0.000000e+000	-2.000000e+002	0.000000e+000
900187500	-1.803365e+001	-1.207571e+002	-7.795261e+001	1.048700e+002	-2.000000e+002	0.000000e+000	-2.000000e+002	0.000000e+000
900225000	-1.803299e+001	-1.209222e+002	-7.952897e+001	-1.511408e+002	-2.000000e+002	0.000000e+000	-2.000000e+002	0.000000e+000
900262500	-1.803627e+001	-1.211280e+002	-8.567432e+001	1.487205e+002	-2.000000e+002	0.000000e+000	-2.000000e+002	0.000000e+000
900300000	-1.803186e+001	-1.213477e+002	-7.964285e+001	1.513091e+002	-2.000000e+002	0.000000e+000	-2.000000e+002	0.000000e+000
900337500	-1.803242e+001	-1.215553e+002	-7.856494e+001	-1.408213e+002	-2.000000e+002	0.000000e+000	-2.000000e+002	0.000000e+000
900375000	-1.803215e+001	-1.217665e+002	-7.499987e+001	-1.460475e+002	-2.000000e+002	0.000000e+000	-2.000000e+002	0.000000e+000
900412500	-1.802469e+001	-1.219288e+002	-7.796790e+001	1.673034e+002	-2.000000e+002	0.000000e+000	-2.000000e+002	0.000000e+000
900450000	-1.803604e+001	-1.220601e+002	-7.725914e+001	1.549407e+002	-2.000000e+002	0.000000e+000	-2.000000e+002	0.000000e+000
900487500	-1.802135e+001	-1.223258e+002	-8.316200e+001	-8.648337e+001	-2.000000e+002	0.000000e+000	-2.000000e+002	0.000000e+000
900525000	-1.802853e+001	-1.224877e+002	-7.673123e+001	1.344645e+002	-2.000000e+002	0.000000e+000	-2.000000e+002	0.000000e+000
900562500	-1.802674e+001	-1.227689e+002	-7.777169e+001	1.520905e+002	-2.000000e+002	0.000000e+000	-2.000000e+002	0.000000e+000
900600000	-1.803299e+001	-1.228904e+002	-8.028170e+001	1.190138e+002	-2.000000e+002	0.000000e+000	-2.000000e+002	0.000000e+000
900637500	-1.801993e+001	-1.230932e+002	-7.691285e+001	1.207078e+002	-2.000000e+002	0.000000e+000	-2.000000e+002	0.000000e+000
900675000	-1.802692e+001	-1.232819e+002	-7.607408e+001	-1.574470e+002	-2.000000e+002	0.000000e+000	-2.000000e+002	0.000000e+000
900712500	-1.802059e+001	-1.235058e+002	-8.215492e+001	-1.431436e+002	-2.000000e+002	0.000000e+000	-2.000000e+002	0.000000e+000
900750000	-1.801979e+001	-1.236972e+002	-8.572935e+001	1.203831e+002	-2.000000e+002	0.000000e+000	-2.000000e+002	0.000000e+000
900787500	-1.802722e+001	-1.238831e+002	-9.193446e+001	-1.752336e+002	-2.000000e+002	0.000000e+000	-2.000000e+002	0.000000e+000
900825000	-1.802079e+001	-1.241409e+002	-7.813973e+001	8.342448e+001	-2.000000e+002	0.000000e+000	-2.000000e+002	0.000000e+000
900862500	-1.802011e+001	-1.242775e+002	-7.694470e+001	-1.771503e+002	-2.000000e+002	0.000000e+000	-2.000000e+002	0.000000e+000
900900000	-1.801983e+001	-1.244911e+002	-8.588541e+001	1.680178e+002	-2.000000e+002	0.000000e+000	-2.000000e+002	0.000000e+000
900937500	-1.802249e+001	-1.247026e+002	-8.034924e+001	5.804236e+001	-2.000000e+002	0.000000e+000	-2.000000e+002	0.000000e+000
900975000	-1.802141e+001	-1.248661e+002	-8.950751e+001	3.521952e+001	-2.000000e+002	0.000000e+000	-2.000000e+002	0.000000e+000
901012500	-1.801684e+001	-1.250726e+002	-8.136920e+001	1.658570e+002	-2.000000e+002	0.000000e+000	-2.000000e+002	0.000000e+000
901050000	-1.802408e+001	-1.252649e+002	-7.763464e+001	9.268847e+001	-2.000000e+002	0.000000e+000	-2.000000e+002	0.000000e+000
901087500	-1.801855e+001	-1.254968e+002	-8.292655e+001	1.371488e+002	-2.000000e+002	0.000000e+000	-2.000000e+002	0.000000e+000
901125000	-1.801832e+001	-1.257299e+002	-7.727819e+001	1.318844e+002	-2.000000e+002	0.000000e+000	-2.000000e+002	0.000000e+000
901162500	-1.801595e+001	-1.258178e+002	-7.402028e+001	1.040329e+002	-2.000000e+002	0.000000e+000	-2.000000e+002	0.000000e+000
901200000	-1.801222e+001	-1.260750e+002	-7.477213e+001	1.361425e+002	-2.000000e+002	0.000000e+000	-2.000000e+002	0.000000e+000
901237500	-1.800739e+001	-1.262816e+002	-8.202591e+001	1.291086e+002	-2.000000e+002	0.000000e+000	-2.000000e+002	0.000000e+000
901275000	-1.802400e+001	-1.265373e+002	-8.436750e+001	9.871833e+001	-2.000000e+002	0.000000e+000	-2.000000e+002	0.000000e+000
901312500	-1.800323e+001	-1.266167e+002	-8.123234e+001	7.765145e+001	-2.000000e+002	0.000000e+000	-2.000000e+002	0.000000e+000
901350000	-1.801671e+001	-1.268973e+002	-8.698479e+001	-1.489396e+002	-2.000000e+002	0.000000e+000	-2.000000e+002	0.000000e+000
901387500	-1.800290e+001	-1.270967e+002	-8.332525e+001	1.293571e+002	-2.000000e+002	0.000000e+000	-2.000000e+002	0.000000e+000
901425000	-1.801551e+001	-1.272619e+002	-8.313709e+001	7.056098e+001	-2.000000e+002	0.000000e+000	-2.000000e+002	0.000000e+000
901462500	-1.801262e+001	-1.274723e+002	-7.680386e+001	1.096518e+002	-2.000000e+002	0.000000e+000	-2.000000e+002	0.000000e+000
901500000	-1.800279e+001	-1.276035e+002	-7.828804e+001	1.162721e+002	-2.000000e+002	0.000000e+000	-2.000000e+002	0.000000e+000
901537500	-1.800988e+001	-1.279053e+002	-8.010782e+001	1.031632e+002	-2.000000e+002	0.000000e+000	-2.000000e+002	0.000000e+000
901575000	-1.800557e+001	-1.280646e+002	-7.724146e+001	1.105300e+002	-2.000000e+002	0.000000e+000	-2.000000e+002	0.000000e+000
901612500	-1.800902e+001	-1.282886e+002	-7.663143e+001	1.009056e+002	-2.000000e+002	0.000000e+000	-2.000000e+002	0.000000e+000
901650000	-1.800666e+001	-1.284575e+002	-8.602796e+001	1.628372e+002	-2.000000e+002	0.000000e+000	-2.000000e+002	0.000000e+000
901687500	-1.799451e+001	-1.286537e+002	-7.754771e+001	8.977320e+001	-2.000000e+002	0.000000e+000	-2.000000e+002	0.000000e+000
901725000	-1.799382e+001	-1.288575e+002	-8.372863e+001	9.436456e+001	-2.000000e+002	0.000000e+000	-2.000000e+002	0.000000e+000
901762500	-1.799933e+001	-1.290525e+002	-8.024475e+001	1.744727e+002	-2.000000e+002	0.000000e+000	-2.000000e+002	0.000000e+000
901800000	-1.799156e+001	-1.293315e+002	-8.963683e+001	9.055308e+001	-2.000000e+002	0.000000e+000	-2.000000e+002	0.000000e+000
901837500	-1.800140e+001	-1.295036e+002	-8.860929e+001	-6.478177e+001	-2.000000e+002	0.000000e+000	-2.000000e+002	0.000000e+000
901875000	-1.798197e+001	-1.297465e+002	-7.544779e+001	1.130477e+002	-2.000000e+002	0.000000e+000	-2.000000e+002	0.000000e+000
901912500	-1.799468e+001	-1.298846e+002	-7.772837e+001	1.377922e+002	-2.000000e+002	0.000000e+000	-2.000000e+002	0.000000e+000
901950000	-1.799265e+001	-1.300858e+002	-7.607342e+001	1.609353e+002	-2.000000e+002	0.000000e+000	-2.000000e+002	0.000000e+000
901987500	-1.798402e+001	-1.303151e+002	-8.473441e+001	1.239445e+002	-2.000000e+002	0.000000e+000	-2.000000e+002	0.000000e+000
902025000	-1.798890e+001	-1.305023e+002	-8.595923e+001	7.050953e+001	-2.000000e+002	0.000000e+000	-2.000000e+002	0.000000e+000
902062500	-1.798708e+001	-1.307339e+002	-7.759757e+001	8.839540e+001	-2.000000e+002	0.000000e+000	-2.000000e+002	0.000000e+000
902100000	-1.798734e+001	-1.309483e+002	-8.163193e+001	1.179970e+002	-2.000000e+002	0.000000e+000	-2.000000e+002	0.000000e+000
902137500	-1.798687e+001	-1.311779e+002	-8.631805e+001	-1.151432e+002	-2.000000e+002	0.000000e+000	-2.000000e+002	0.000000e+000
902175000	-1.797650e+001	-1.313742e+002	-7.259185e+001	1.145133e+002	-2.000000e+002	0.000000e+000	-2.000000e+002	0.000000e+000
902212500	-1.797490e+001	-1.315795e+002	-8.250441e+001	1.782637e+002	-2.000000e+002	0.000000e+000	-2.000000e+002	0.000000e+000
902250000	-1.796984e+001	-1.317953e+002	-8.643233e+001	8.942970e+001	-2.000000e+002	0.000000e+000	-2.000000e+002	0.000000e+000
902287500	-1.797189e+001	-1.319999e+002	-8.031096e+001	1.463506e+002	-2.000000e+002	0.000000e+000	-2.000000e+002	0.000000e+000
902325000	-1.797593e+001	-1.322355e+002	-8.051468e+001	-7.791282e+001	-2.000000e+002	0.000000e+000	-2.000000e+002	0.000000e+000
902362500	-1.797156e+001	-1.324954e+002	-7.881989e+001	8.912951e+001	-2.000000e+002	0.000000e+000	-2.000000e+002	0.000000e+000
902400000	-1.797092e+001	-1.327147e+002	-8.204102e+001	-1.735214e+002	-2.000000e+002	0.000000e+000	-2.000000e+002	0.000000e+000
902437500	-1.796241e+001	-1.329108e+002	-7.490935e+001	1.318161e+002	-2.000000e+002	0.000000e+000	-2.000000e+002	0.000000e+000
902475000	-1.796482e+001	-1.331216e+002	-8.314858e+001	1.201858e+002	-2.000000e+002	0.000000e+000	-2.000000e+002	0.000000e+000
902512500	-1.796047e+001	-1.334201e+002	-8.597306e+001	-1.217856e+002	-2.000000e+002	0.000000e+000	-2.000000e+002	0.000000e+000
902550000	-1.796332e+001	-1.336414e+002	-8.483255e+001	1.051941e+002	-2.000000e+002	0.000000e+000	-2.000000e+002	0.000000e+000
902587500	-1.796574e+001	-1.339056e+002	-7.384324e+001	-1.767415e+002	-2.000000e+002	0.000000e+000	-2.000000e+002	0.000000e+000
902625000	-1.797197e+001	-1.340967e+002	-8.050199e+001	1.417248e+002	-2.000000e+002	0.000000e+000	-2.000000e+002	0.000000e+000
902662500	-1.796279e+001	-1.342957e+002	-9.956330e+001	1.136371e+002	-2.000000e+002	0.000000e+000	-2.000000e+002	0.000000e+000
902700000	-1.798053e+001	-1.345471e+002	-8.032637e+001	1.597074e+002	-2.000000e+002	0.000000e+000	-2.000000e+002	0.000000e+000
902737500	-1.797750e+001	-1.347994e+002	-7.659234e+001	1.039348e+002	-2.000000e+002	0.000000e+000	-2.000000e+002	0.000000e+000
902775000	-1.798440e+001	-1.349533e+002	-7.896509e+001	1.525878e+002	-2.000000e+002	0.000000e+000	-2.000000e+002	0.000000e+000
902812500	-1.799340e+001	-1.351618e+002	-8.291752e+001	4.329002e+001	-2.000000e+002	0.000000e+000	-2.000000e+002	0.000000e+000
902850000	-1.799443e+001	-1.353885e+002	-7.123541e+001	1.084424e+002	-2.000000e+002	0.000000e+000	-2.000000e+002	0.000000e+000
902887500	-1.799728e+001	-1.355638e+002	-8.079353e+001	9.157015e+001	-2.000000e+002	0.000000e+000	-2.000000e+002	0.000000e+000
902925000	-1.799582e+001	-1.358127e+002	-7.919961e+001	1.355573e+002	-2.000000e+002	0.000000e+000	-2.000000e+002	0.000000e+000
902962500	-1.800545e+001	-1.359814e+002	-7.995783e+001	1.542749e+002	-2.000000e+002	0.000000e+000	-2.000000e+002	0.000000e+000
903000000	-1.800198e+001	-1.361747e+002	-7.894924e+001	1.292032e+002	-2.000000e+002	0.000000e+000	-2.000000e+002	0.000000e+000
903037500	-1.801152e+001	-1.363844e+002	-7.771266e+001	1.593416e+002	-2.000000e+002	0.000000e+000	-2.000000e+002	0.000000e+000
903075000	-1.800609e+001	-1.365633e+002	-7.960011e+001	1.150116e+002	-2.000000e+002	0.000000e+000	-2.000000e+002	0.000000e+000
903112500	-1.800593e+001	-1.368052e+002	-8.030111e+001	-1.775696e+002	-2.000000e+002	0.000000e+000	-2.000000e+002	0.000000e+000
903150000	-1.800484e+001	-1.369811e+002	-8.908693e+001	8.026454e+001	-2.000000e+002	0.000000e+000	-2.000000e+002	0.000000e+000
903187500	-1.800952e+001	-1.372116e+002	-7.591547e+001	1.222115e+002	-2.000000e+002	0.000000e+000	-2.000000e+002	0.000000e+000
903225000	-1.800343e+001	-1.374052e+002	-8.589955e+001	1.444943e+002	-2.000000e+002	0.000000e+000	-2.000000e+002	0.000000e+000
903262500	-1.801532e+001	-1.375593e+002	-7.407652e+001	1.001860e+002	-2.000000e+002	0.000000e+000	-2.000000e+002	0.000000e+000
903300000	-1.801095e+001	-1.377729e+002	-7.815924e+001	5.363483e+001	-2.000000e+002	0.000000e+000	-2.000000e+002	0.000000e+000
903337500	-1.800033e+001	-1.379957e+002	-7.997019e+001	1.310692e+002	-2.000000e+002	0.000000e+000	-2.000000e+002	0.000000e+000
903375000	-1.800355e+001	-1.382195e+002	-7.624455e+001	9.734938e+001	-2.000000e+002	0.000000e+000	-2.000000e+002	0.000000e+000
903412500	-1.801007e+001	-1.384148e+002	-8.193274e+001	8.776006e+001	-2.000000e+002	0.000000e+000	-2.000000e+002	0.000000e+000
903450000	-1.800446e+001	-1.386385e+002	-7.716611e+001	1.325901e+002	-2.000000e+002	0.000000e+000	-2.000000e+002	0.000000e+000
903487500	-1.800301e+001	-1.388655e+002	-8.360979e+001	4.382595e+001	-2.000000e+002	0.000000e+000	-2.000000e+002	0.000000e+000
903525000	-1.799624e+001	-1.390939e+002	-7.998754e+001	1.570413e+002	-2.000000e+002	0.000000e+000	-2.000000e+002	0.000000e+000
903562500	-1.801111e+001	-1.393319e+002	-7.981109e+001	1.232035e+002	-2.000000e+002	0.000000e+000	-2.000000e+002	0.000000e+000
903600000	-1.800701e+001	-1.395114e+002	-8.011956e+001	1.274489e+002	-2.000000e+002	0.000000e+000	-2.000000e+002	0.000000e+000
903637500	-1.801514e+001	-1.397132e+002	-8.133789e+001	-1.558098e+002	-2.000000e+002	0.000000e+000	-2.000000e+002	0.000000e+000
903675000	-1.801606e+001	-1.399364e+002	-7.879211e+001	1.507942e+002	-2.000000e+002	0.000000e+000	-2.000000e+002	0.000000e+000
903712500	-1.800450e+001	-1.401182e+002	-7.950462e+001	1.204521e+002	-2.000000e+002	0.000000e+000	-2.000000e+002	0.000000e+000
903750000	-1.802113e+001	-1.403445e+002	-8.914254e+001	-1.774185e+002	-2.000000e+002	0.000000e+000	-2.000000e+002	0.000000e+000
903787500	-1.801305e+001	-1.405986e+002	-8.153108e+001	5.407547e+001	-2.000000e+002	0.000000e+000	-2.000000e+002	0.000000e+000
903825000	-1.800825e+001	-1.407761e+002	-7.713640e+001	1.294620e+002	-2.000000e+002	0.000000e+000	-2.000000e+002	0.000000e+000
903862500	-1.801360e+001	-1.410064e+002	-7.824733e+001	1.228716e+002	-2.000000e+002	0.000000e+000	-2.000000e+002	0.000000e+000
903900000	-1.802298e+001	-1.411374e+002	-7.380861e+001	1.024022e+002	-2.000000e+002	0.000000e+000	-2.000000e+002	0.000000e+000
903937500	-1.801990e+001	-1.414022e+002	-8.148077e+001	7.278698e+001	-2.000000e+002	0.000000e+000	-2.000000e+002	0.000000e+000
903975000	-1.803249e+001	-1.415904e+002	-7.692769e+001	5.343478e+001	-2.000000e+002	0.000000e+000	-2.000000e+002	0.000000e+000
904012500	-1.801968e+001	-1.418259e+002	-8.478547e+001	1.157453e+002	-2.000000e+002	0.000000e+000	-2.000000e+002	0.000000e+000
904050000	-1.803406e+001	-1.420309e+002	-8.440578e+001	-8.222350e+001	-2.000000e+002	0.000000e+000	-2.000000e+002	0.000000e+000
904087500	-1.802913e+001	-1.421504e+002	-8.528987e+001	2.396043e+001	-2.000000e+002	0.000000e+000	-2.000000e+002	0.000000e+000
904125000	-1.803004e+001	-1.423927e+002	-8.211546e+001	8.076419e+001	-2.000000e+002	0.000000e+000	-2.000000e+002	0.000000e+000
904162500	-1.802949e+001	-1.425948e+002	-8.758364e+001	7.507256e+001	-2.000000e+002	0.000000e+000	-2.000000e+002	0.000000e+000
904200000	-1.804104e+001	-1.427943e+002	-8.279727e+001	7.138545e+001	-2.000000e+002	0.000000e+000	-2.000000e+002	0.000000e+000
904237500	-1.803061e+001	-1.430546e+002	-7.657207e+001	4.388210e+001	-2.000000e+002	0.000000e+000	-2.000000e+002	0.000000e+000
904275000	-1.803778e+001	-1.432243e+002	-7.611335e+001	5.849625e+001	-2.000000e+002	0.000000e+000	-2.000000e+002	0.000000e+000
904312500	-1.804685e+001	-1.433932e+002	-7.725522e+001	1.277251e+002	-2.000000e+002	0.000000e+000	-2.000000e+002	0.000000e+000
904350000	-1.804024e+001	-1.436100e+002	-7.997108e+001	1.194519e+002	-2.000000e+002	0.000000e+000	-2.000000e+002	0.000000e+000
904387500	-1.803945e+001	-1.438211e+002	-8.079736e+001	1.141255e+002	-2.000000e+002	0.000000e+000	-2.000000e+002	0.000000e+000
904425000	-1.803851e+001	-1.440253e+002	-8.587942e+001	1.073074e+002	-2.000000e+002	0.000000e+000	-2.000000e+002	0.000000e+000
904462500	-1.804933e+001	-1.442622e+002	-7.624751e+001	1.205884e+002	-2.000000e+002	0.000000e+000	-2.000000e+002	0.000000e+000
904500000	-1.803871e+001	-1.444205e+002	-7.559431e+001	8.106511e+001	-2.000000e+002	0.000000e+000	-2.000000e+002	0.000000e+000
904537500	-1.804305e+001	-1.446458e+002	-9.008043e+001	7.660568e+001	-2.000000e+002	0.000000e+000	-2.000000e+002	0.000000e+000
904575000	-1.804722e+001	-1.448143e+002	-8.047965e+001	6.709016e+001	-2.000000e+002	0.000000e+000	-2.000000e+002	0.000000e+000
904612500	-1.805101e+001	-1.450730e+002	-7.602318e+001	8.686621e+001	-2.000000e+002	0.000000e+000	-2.000000e+002	0.000000e+000
904650000	-1.804647e+001	-1.452391e+002	-7.930431e+001	8.907749e+001	-2.000000e+002	0.000000e+000	-2.000000e+002	0.000000e+000
904687500	-1.805770e+001	-1.454903e+002	-8.159662e+001	1.144405e+002	-2.000000e+002	0.000000e+000	-2.000000e+002	0.000000e+000
904725000	-1.805445e+001	-1.456879e+002	-7.860703e+001	1.762680e+002	-2.000000e+002	0.000000e+000	-2.000000e+002	0.000000e+000
904762500	-1.805731e+001	-1.458733e+002	-7.472488e+001	1.093327e+002	-2.000000e+002	0.000000e+000	-2.000000e+002	0.000000e+000
904800000	-1.804863e+001	-1.460535e+002	-8.613484e+001	-1.758977e+001	-2.000000e+002	0.000000e+000	-2.000000e+002	0.000000e+000
904837500	-1.805629e+001	-1.462135e+002	-8.530169e+001	-1.403311e+000	-2.000000e+002	0.000000e+000	-2.000000e+002	0.000000e+000
904875000	-1.805254e+001	-1.465056e+002	-7.729870e+001	9.591587e+001	-2.000000e+002	0.000000e+000	-2.000000e+002	0.000000e+000
904912500	-1.806689e+001	-1.466437e+002	-8.105308e+001	5.781263e+001	-2.000000e+002	0.000000e+000	-2.000000e+002	0.000000e+000
904950000	-1.806578e+001	-1.468846e+002	-8.024381e+001	1.673146e+001	-2.000000e+002	0.000000e+000	-2.000000e+002	0.000000e+000
904987500	-1.807044e+001	-1.470666e+002	-7.657046e+001	9.979591e+001	-2.000000e+002	0.000000e+000	-2.000000e+002	0.000000e+000
905025000	-1.806570e+001	-1.472661e+002	-8.322296e+001	1.144787e+002	-2.000000e+002	0.000000e+000	-2.000000e+002	0.000000e+000
905062500	-1.806453e+001	-1.474215e+002	-7.403107e+001	8.294725e+001	-2.000000e+002	0.000000e+000	-2.000000e+002	0.000000e+000
905100000	-1.806310e+001	-1.476274e+002	-7.550953e+001	1.382883e+002	-2.000000e+002	0.000000e+000	-2.000000e+002	0.000000e+000
905137500	-1.807556e+001	-1.477810e+002	-7.635342e+001	7.216777e+001	-2.000000e+002	0.000000e+000	-2.000000e+002	0.000000e+000
905175000	-1.807300e+001	-1.479901e+002	-7.532248e+001	8.468190e+001	-2.000000e+002	0.000000e+000	-2.000000e+002	0.000000e+000
905212500	-1.807491e+001	-1.482368e+002	-8.992794e+001	-1.572008e+002	-2.000000e+002	0.000000e+000	-2.000000e+002	0.000000e+000
905250000	-1.808104e+001	-1.484210e+002	-8.809608e+001	9.974897e+001	-2.000000e+002	0.000000e+000	-2.000000e+002	0.000000e+000
905287500	-1.807350e+001	-1.485414e+002	-8.386672e+001	1.781397e+002	-2.000000e+002	0.000000e+000	-2.000000e+002	0.000000e+000
905325000	-1.807135e+001	-1.488079e+002	-8.343991e+001	1.225668e+002	-2.000000e+002	0.000000e+000	-2.000000e+002	0.000000e+000
905362500	-1.806698e+001	-1.490108e+002	-7.918953e+001	9.402848e+001	-2.000000e+002	0.000000e+000	-2.000000e+002	0.000000e+000
905400000	-1.807040e+001	-1.492426e+002	-7.262262e+001	1.059521e+002	-2.000000e+002	0.000000e+000	-2.000000e+002	0.000000e+000
905437500	-1.806698e+001	-1.493840e+002	-7.603727e+001	1.577448e+002	-2.000000e+002	0.000000e+000	-2.000000e+002	0.000000e+000
905475000	-1.805155e+001	-1.496207e+002	-8.326191e+001	7.164890e+001	-2.000000e+002	0.000000e+000	-2.000000e+002	0.000000e+000
905512500	-1.806442e+001	-1.498163e+002	-7.764361e+001	9.314651e+001	-2.000000e+002	0.000000e+000	-2.000000e+002	0.000000e+000
905550000	-1.806153e+001	-1.500237e+002	-7.908090e+001	1.204634e+002	-2.000000e+002	0.000000e+000	-2.000000e+002	0.000000e+000
905587500	-1.806393e+001	-1.502546e+002	-7.687464e+001	5.744320e+001	-2.000000e+002	0.000000e+000	-2.000000e+002	0.000000e+000
905625000	-1.805905e+001	-1.504899e+002	-7.987444e+001	5.495733e+001	-2.000000e+002	0.000000e+000	-2.000000e+002	0.000000e+000
905662500	-1.806158e+001	-1.507398e+002	-9.013249e+001	-5.959418e+001	-2.000000e+002	0.000000e+000	-2.000000e+002	0.000000e+000
905700000	-1.807024e+001	-1.508600e+002	-7.923319e+001	9.158762e+001	-2.000000e+002	0.000000e+000	-2.000000e+002	0.000000e+000
