!Agilent Technologies,E5071C,MY46214392,A.11.36
!Date: Thu Feb 26 21:19:42 2026
!Data & Calibration Information:
!Freq	S11:NONE(--)	S21:NONE(--)	S12:NONE(--)	S22:NONE(--)
!PortZ  Port1:50+j0    Port2:50+j0
!Above PortZ is port z conversion or system Z0 setting when saving the data.
!When reading, reference impedance value at option line is always used.
# Hz S dB R 50
900000000	-1.810855e+001	-1.203705e+002	-5.992290e+001	6.929081e+001	-2.000000e+002	0.000000e+000	-2.000000e+002	0.000000e+000
900037500	-1.810160e+001	-1.205494e+002	-5.941309e+001	6.628682e+001	-2.000000e+002	0.000000e+000	-2.000000e+002	0.000000e+000
900075000	-1.811169e+001	-1.207344e+002	-6.012780e+001	6.957176e+001	-2.000000e+002	0.000000e+000	-2.000000e+002	0.000000e+000
900112500	-1.811349e+001	-1.209706e+002	-5.910493e+001	6.686869e+001	-2.000000e+002	0.000000e+000	-2.000000e+002	0.000000e+000
900150000	-1.810597e+001	-1.211202e+002	-5.945850e+001	6.846805e+001	-2.000000e+002	0.000000e+000	-2.000000e+002	0.000000e+000
900187500	-1.810554e+001	-1.213888e+002	-6.055488e+001	6.757388e+001	-2.000000e+002	0.000000e+000	-2.000000e+002	0.000000e+000
900225000	-1.810261e+001	-1.215099e+002	-6.026064e+001	6.459635e+001	-2.000000e+002	0.000000e+000	-2.000000e+002	0.000000e+000
900262500	-1.810649e+001	-1.217631e+002	-5.958855e+001	6.426013e+001	-2.000000e+002	0.000000e+000	-2.000000e+002	0.000000e+000
900300000	-1.810363e+001	-1.219449e+002	-5.896181e+001	6.573423e+001	-2.000000e+002	0.000000e+000	-2.000000e+002	0.000000e+000
900337500	-1.811000e+001	-1.220987e+002	-5.945794e+001	5.985806e+001	-2.000000e+002	0.000000e+000	-2.000000e+002	0.000000e+000
900375000	-1.810670e+001	-1.223757e+002	-5.943897e+001	6.500682e+001	-2.000000e+002	0.000000e+000	-2.000000e+002	0.000000e+000
900412500	-1.810647e+001	-1.224881e+002	-5.945251e+001	6.474902e+001	-2.000000e+002	0.000000e+000	-2.000000e+002	0.000000e+000
900450000	-1.810000e+001	-1.227398e+002	-5.967477e+001	6.244817e+001	-2.000000e+002	0.000000e+000	-2.000000e+002	0.000000e+000
900487500	-1.810333e+001	-1.228579e+002	-5.974095e+001	5.661432e+001	-2.000000e+002	0.000000e+000	-2.000000e+002	0.000000e+000
900525000	-1.810624e+001	-1.231473e+002	-5.923654e+001	6.287515e+001	-2.000000e+002	0.000000e+000	-2.000000e+002	0.000000e+000
900562500	-1.810092e+001	-1.233110e+002	-5.869965e+001	6.531899e+001	-2.000000e+002	0.000000e+000	-2.000000e+002	0.000000e+000
900600000	-1.810074e+001	-1.235648e+002	-5.858729e+001	6.050633e+001	-2.000000e+002	0.000000e+000	-2.000000e+002	0.000000e+000
900637500	-1.810618e+001	-1.236507e+002	-5.866391e+001	6.390854e+001	-2.000000e+002	0.000000e+000	-2.000000e+002	0.000000e+000
900675000	-1.810338e+001	-1.239379e+002	-5.920128e+001	5.571809e+001	-2.000000e+002	0.000000e+000	-2.000000e+002	0.000000e+000
900712500	-1.810842e+001	-1.241092e+002	-5.921728e+001	6.003955e+001	-2.000000e+002	0.000000e+000	-2.000000e+002	0.000000e+000
900750000	-1.810329e+001	-1.243493e+002	-5.868487e+001	5.707028e+001	-2.000000e+002	0.000000e+000	-2.000000e+002	0.000000e+000
900787500	-1.810234e+001	-1.245296e+002	-5.916321e+001	5.739549e+001	-2.000000e+002	0.000000e+000	-2.000000e+002	0.000000e+000
900825000	-1.809857e+001	-1.247389e+002	-5.867696e+001	5.797956e+001	-2.000000e+002	0.000000e+000	-2.000000e+002	0.000000e+000
900862500	-1.810094e+001	-1.249452e+002	-5.966271e+001	5.820478e+001	-2.000000e+002	0.000000e+000	-2.000000e+002	0.000000e+000
900900000	-1.809646e+001	-1.250526e+002	-5.888008e+001	5.863761e+001	-2.000000e+002	0.000000e+000	-2.000000e+002	0.000000e+000
900937500	-1.810158e+001	-1.252599e+002	-5.857605e+001	6.174770e+001	-2.000000e+002	0.000000e+000	-2.000000e+002	0.000000e+000
900975000	-1.810452e+001	-1.255113e+002	-5.838149e+001	5.846663e+001	-2.000000e+002	0.000000e+000	-2.000000e+002	0.000000e+000
901012500	-1.810154e+001	-1.256992e+002	-5.835126e+001	5.578225e+001	-2.000000e+002	0.000000e+000	-2.000000e+002	0.000000e+000
901050000	-1.809401e+001	-1.259617e+002	-5.917272e+001	5.861757e+001	-2.000000e+002	0.000000e+000	-2.000000e+002	0.000000e+000
901087500	-1.809623e+001	-1.261090e+002	-5.816466e+001	5.257608e+001	-2.000000e+002	0.000000e+000	-2.000000e+002	0.000000e+000
901125000	-1.810199e+001	-1.263025e+002	-5.880169e+001	5.825058e+001	-2.000000e+002	0.000000e+000	-2.000000e+002	0.000000e+000
901162500	-1.809610e+001	-1.264831e+002	-5.802523e+001	5.807882e+001	-2.000000e+002	0.000000e+000	-2.000000e+002	0.000000e+000
901200000	-1.808967e+001	-1.267408e+002	-5.779521e+001	5.476858e+001	-2.000000e+002	0.000000e+000	-2.000000e+002	0.000000e+000
901237500	-1.808744e+001	-1.269205e+002	-5.775507e+001	5.177322e+001	-2.000000e+002	0.000000e+000	-2.000000e+002	0.000000e+000
901275000	-1.808200e+001	-1.270784e+002	-5.814958e+001	5.310658e+001	-2.000000e+002	0.000000e+000	-2.000000e+002	0.000000e+000
901312500	-1.808532e+001	-1.272742e+002	-5.795515e+001	5.518937e+001	-2.000000e+002	0.000000e+000	-2.000000e+002	0.000000e+000
901350000	-1.808978e+001	-1.275014e+002	-5.832599e+001	5.464332e+001	-2.000000e+002	0.000000e+000	-2.000000e+002	0.000000e+000
901387500	-1.808601e+001	-1.276998e+002	-5.890870e+001	5.133018e+001	-2.000000e+002	0.000000e+000	-2.000000e+002	0.000000e+000
901425000	-1.807993e+001	-1.279398e+002	-5.825822e+001	4.941895e+001	-2.000000e+002	0.000000e+000	-2.000000e+002	0.000000e+000
901462500	-1.808293e+001	-1.280964e+002	-5.882024e+001	5.561096e+001	-2.000000e+002	0.000000e+000	-2.000000e+002	0.000000e+000
901500000	-1.808245e+001	-1.282872e+002	-5.863091e+001	4.780292e+001	-2.000000e+002	0.000000e+000	-2.000000e+002	0.000000e+000
901537500	-1.807311e+001	-1.285128e+002	-5.771729e+001	4.688268e+001	-2.000000e+002	0.000000e+000	-2.000000e+002	0.000000e+000
901575000	-1.807982e+001	-1.287212e+002	-5.742554e+001	4.833489e+001	-2.000000e+002	0.000000e+000	-2.000000e+002	0.000000e+000
901612500	-1.808229e+001	-1.288797e+002	-5.812420e+001	4.824999e+001	-2.000000e+002	0.000000e+000	-2.000000e+002	0.000000e+000
901650000	-1.807432e+001	-1.290851e+002	-5.769370e+001	4.607925e+001	-2.000000e+002	0.000000e+000	-2.000000e+002	0.000000e+000
901687500	-1.807285e+001	-1.293214e+002	-5.753647e+001	4.672781e+001	-2.000000e+002	0.000000e+000	-2.000000e+002	0.000000e+000
901725000	-1.806546e+001	-1.294797e+002	-5.746472e+001	4.712110e+001	-2.000000e+002	0.000000e+000	-2.000000e+002	0.000000e+000
901762500	-1.806689e+001	-1.297405e+002	-5.799657e+001	4.814510e+001	-2.000000e+002	0.000000e+000	-2.000000e+002	0.000000e+000
901800000	-1.807733e+001	-1.299592e+002	-5.775774e+001	4.254156e+001	-2.000000e+002	0.000000e+000	-2.000000e+002	0.000000e+000
901837500	-1.806919e+001	-1.301135e+002	-5.768916e+001	4.210127e+001	-2.000000e+002	0.000000e+000	-2.000000e+002	0.000000e+000
901875000	-1.806862e+001	-1.303161e+002	-5.789128e+001	4.422093e+001	-2.000000e+002	0.000000e+000	-2.000000e+002	0.000000e+000
901912500	-1.806740e+001	-1.304618e+002	-5.680050e+001	4.172795e+001	-2.000000e+002	0.000000e+000	-2.000000e+002	0.000000e+000
901950000	-1.806784e+001	-1.307156e+002	-5.756802e+001	4.275487e+001	-2.000000e+002	0.000000e+000	-2.000000e+002	0.000000e+000
901987500	-1.806141e+001	-1.309083e+002	-5.733792e+001	4.495246e+001	-2.000000e+002	0.000000e+000	-2.000000e+002	0.000000e+000
902025000	-1.805934e+001	-1.311470e+002	-5.751744e+001	3.961939e+001	-2.000000e+002	0.000000e+000	-2.000000e+002	0.000000e+000
902062500	-1.806305e+001	-1.313887e+002	-5.728145e+001	3.934744e+001	-2.000000e+002	0.000000e+000	-2.000000e+002	0.000000e+000
902100000	-1.805330e+001	-1.316584e+002	-5.763893e+001	4.079290e+001	-2.000000e+002	0.000000e+000	-2.000000e+002	0.000000e+000
902137500	-1.804819e+001	-1.318036e+002	-5.763206e+001	3.553274e+001	-2.000000e+002	0.000000e+000	-2.000000e+002	0.000000e+000
902175000	-1.804885e+001	-1.320366e+002	-5.779154e+001	3.696858e+001	-2.000000e+002	0.000000e+000	-2.000000e+002	0.000000e+000
902212500	-1.805086e+001	-1.322463e+002	-5.684879e+001	4.417498e+001	-2.000000e+002	0.000000e+000	-2.000000e+002	0.000000e+000
902250000	-1.803635e+001	-1.324577e+002	-5.672805e+001	4.021280e+001	-2.000000e+002	0.000000e+000	-2.000000e+002	0.000000e+000
902287500	-1.804311e+001	-1.326072e+002	-5.716638e+001	4.198994e+001	-2.000000e+002	0.000000e+000	-2.000000e+002	0.000000e+000
902325000	-1.803934e+001	-1.328982e+002	-5.721723e+001	3.498137e+001	-2.000000e+002	0.000000e+000	-2.000000e+002	0.000000e+000
902362500	-1.803383e+001	-1.331115e+002	-5.707920e+001	3.385818e+001	-2.000000e+002	0.000000e+000	-2.000000e+002	0.000000e+000
902400000	-1.804056e+001	-1.332971e+002	-5.628709e+001	3.501710e+001	-2.000000e+002	0.000000e+000	-2.000000e+002	0.000000e+000
902437500	-1.802976e+001	-1.335160e+002	-5.651082e+001	3.330664e+001	-2.000000e+002	0.000000e+000	-2.000000e+002	0.000000e+000
902475000	-1.802547e+001	-1.338223e+002	-5.702583e+001	3.814148e+001	-2.000000e+002	0.000000e+000	-2.000000e+002	0.000000e+000
902512500	-1.803278e+001	-1.340814e+002	-5.651142e+001	3.870329e+001	-2.000000e+002	0.000000e+000	-2.000000e+002	0.000000e+000
902550000	-1.802744e+001	-1.343114e+002	-5.687330e+001	3.448159e+001	-2.000000e+002	0.000000e+000	-2.000000e+002	0.000000e+000
902587500	-1.803475e+001	-1.345406e+002	-5.656359e+001	3.334976e+001	-2.000000e+002	0.000000e+000	-2.000000e+002	0.000000e+000
902625000	-1.803437e+001	-1.347668e+002	-5.619106e+001	3.109465e+001	-2.000000e+002	0.000000e+000	-2.000000e+002	0.000000e+000
902662500	-1.803838e+001	-1.350375e+002	-5.758630e+001	2.799675e+001	-2.000000e+002	0.000000e+000	-2.000000e+002	0.000000e+000
902700000	-1.805160e+001	-1.352328e+002	-5.724308e+001	3.123498e+001	-2.000000e+002	0.000000e+000	-2.000000e+002	0.000000e+000
902737500	-1.804135e+001	-1.353944e+002	-5.636360e+001	3.420066e+001	-2.000000e+002	0.000000e+000	-2.000000e+002	0.000000e+000
902775000	-1.804526e+001	-1.356582e+002	-5.625413e+001	3.090603e+001	-2.000000e+002	0.000000e+000	-2.000000e+002	0.000000e+000
902812500	-1.805587e+001	-1.358330e+002	-5.640890e+001	3.026622e+001	-2.000000e+002	0.000000e+000	-2.000000e+002	0.000000e+000
902850000	-1.806630e+001	-1.360717e+002	-5.727596e+001	2.839003e+001	-2.000000e+002	0.000000e+000	-2.000000e+002	0.000000e+000
902887500	-1.806597e+001	-1.362876e+002	-5.637486e+001	3.010907e+001	-2.000000e+002	0.000000e+000	-2.000000e+002	0.000000e+000
902925000	-1.806473e+001	-1.365086e+002	-5.620957e+001	3.101582e+001	-2.000000e+002	0.000000e+000	-2.000000e+002	0.000000e+000
902962500	-1.807502e+001	-1.366151e+002	-5.579169e+001	2.761236e+001	-2.000000e+002	0.000000e+000	-2.000000e+002	0.000000e+000
903000000	-1.807882e+001	-1.368381e+002	-5.635047e+001	3.133174e+001	-2.000000e+002	0.000000e+000	-2.000000e+002	0.000000e+000
903037500	-1.807740e+001	-1.370856e+002	-5.660667e+001	2.912969e+001	-2.000000e+002	0.000000e+000	-2.000000e+002	0.000000e+000
903075000	-1.807239e+001	-1.372281e+002	-5.584141e+001	2.745915e+001	-2.000000e+002	0.000000e+000	-2.000000e+002	0.000000e+000
903112500	-1.806523e+001	-1.374147e+002	-5.609881e+001	2.836377e+001	-2.000000e+002	0.000000e+000	-2.000000e+002	0.000000e+000
903150000	-1.806913e+001	-1.376771e+002	-5.576900e+001	2.529592e+001	-2.000000e+002	0.000000e+000	-2.000000e+002	0.000000e+000
903187500	-1.807389e+001	-1.378840e+002	-5.551758e+001	2.801081e+001	-2.000000e+002	0.000000e+000	-2.000000e+002	0.000000e+000
903225000	-1.807901e+001	-1.380454e+002	-5.546615e+001	2.502247e+001	-2.000000e+002	0.000000e+000	-2.000000e+002	0.000000e+000
903262500	-1.807480e+001	-1.382543e+002	-5.606054e+001	2.817357e+001	-2.000000e+002	0.000000e+000	-2.000000e+002	0.000000e+000
903300000	-1.806866e+001	-1.384229e+002	-5.576452e+001	2.234260e+001	-2.000000e+002	0.000000e+000	-2.000000e+002	0.000000e+000
903337500	-1.806984e+001	-1.386434e+002	-5.657880e+001	2.733918e+001	-2.000000e+002	0.000000e+000	-2.000000e+002	0.000000e+000
903375000	-1.806519e+001	-1.388733e+002	-5.551439e+001	2.474394e+001	-2.000000e+002	0.000000e+000	-2.000000e+002	0.000000e+000
903412500	-1.806374e+001	-1.390681e+002	-5.553516e+001	2.440781e+001	-2.000000e+002	0.000000e+000	-2.000000e+002	0.000000e+000
903450000	-1.806409e+001	-1.392944e+002	-5.572618e+001	2.232876e+001	-2.000000e+002	0.000000e+000	-2.000000e+002	0.000000e+000
903487500	-1.806586e+001	-1.395177e+002	-5.534285e+001	2.248012e+001	-2.000000e+002	0.000000e+000	-2.000000e+002	0.000000e+000
903525000	-1.806416e+001	-1.397420e+002	-5.504981e+001	2.113862e+001	-2.000000e+002	0.000000e+000	-2.000000e+002	0.000000e+000
903562500	-1.807140e+001	-1.399653e+002	-5.512812e+001	2.195613e+001	-2.000000e+002	0.000000e+000	-2.000000e+002	0.000000e+000
903600000	-1.807492e+001	-1.401904e+002	-5.456523e+001	1.612538e+001	-2.000000e+002	0.000000e+000	-2.000000e+002	0.000000e+000
903637500	-1.806723e+001	-1.403989e+002	-5.569990e+001	1.676465e+001	-2.000000e+002	0.000000e+000	-2.000000e+002	0.000000e+000
903675000	-1.807533e+001	-1.406141e+002	-5.536141e+001	2.789723e+001	-2.000000e+002	0.000000e+000	-2.000000e+002	0.000000e+000
903712500	-1.807576e+001	-1.407972e+002	-5.481737e+001	2.176303e+001	-2.000000e+002	0.000000e+000	-2.000000e+002	0.000000e+000
903750000	-1.807508e+001	-1.410468e+002	-5.543565e+001	1.935800e+001	-2.000000e+002	0.000000e+000	-2.000000e+002	0.000000e+000
903787500	-1.807037e+001	-1.411992e+002	-5.530051e+001	2.037405e+001	-2.000000e+002	0.000000e+000	-2.000000e+002	0.000000e+000
903825000	-1.808141e+001	-1.415218e+002	-5.474947e+001	1.852939e+001	-2.000000e+002	0.000000e+000	-2.000000e+002	0.000000e+000
903862500	-1.809037e+001	-1.416613e+002	-5.480286e+001	1.342771e+001	-2.000000e+002	0.000000e+000	-2.000000e+002	0.000000e+000
903900000	-1.809117e+001	-1.418670e+002	-5.505653e+001	1.656726e+001	-2.000000e+002	0.000000e+000	-2.000000e+002	0.000000e+000
903937500	-1.808804e+001	-1.420952e+002	-5.538702e+001	1.436223e+001	-2.000000e+002	0.000000e+000	-2.000000e+002	0.000000e+000
903975000	-1.808564e+001	-1.422834e+002	-5.519492e+001	1.703102e+001	-2.000000e+002	0.000000e+000	-2.000000e+002	0.000000e+000
904012500	-1.809722e+001	-1.425366e+002	-5.460642e+001	1.659018e+001	-2.000000e+002	0.000000e+000	-2.000000e+002	0.000000e+000
904050000	-1.809103e+001	-1.427359e+002	-5.433786e+001	1.327547e+001	-2.000000e+002	0.000000e+000	-2.000000e+002	0.000000e+000
904087500	-1.809015e+001	-1.428844e+002	-5.487521e+001	1.005123e+001	-2.000000e+002	0.000000e+000	-2.000000e+002	0.000000e+000
904125000	-1.809685e+001	-1.431121e+002	-5.434032e+001	1.534464e+001	-2.000000e+002	0.000000e+000	-2.000000e+002	0.000000e+000
904162500	-1.809870e+001	-1.433396e+002	-5.415199e+001	1.388894e+001	-2.000000e+002	0.000000e+000	-2.000000e+002	0.000000e+000
904200000	-1.809801e+001	-1.434983e+002	-5.429935e+001	1.385074e+001	-2.000000e+002	0.000000e+000	-2.000000e+002	0.000000e+000
904237500	-1.810179e+001	-1.436742e+002	-5.407136e+001	1.113633e+001	-2.000000e+002	0.000000e+000	-2.000000e+002	0.000000e+000
904275000	-1.809982e+001	-1.439029e+002	-5.397515e+001	1.061200e+001	-2.000000e+002	0.000000e+000	-2.000000e+002	0.000000e+000
904312500	-1.809525e+001	-1.441338e+002	-5.410877e+001	1.062178e+001	-2.000000e+002	0.000000e+000	-2.000000e+002	0.000000e+000
904350000	-1.810323e+001	-1.443837e+002	-5.409015e+001	1.002694e+001	-2.000000e+002	0.000000e+000	-2.000000e+002	0.000000e+000
904387500	-1.810033e+001	-1.445317e+002	-5.399029e+001	9.530099e+000	-2.000000e+002	0.000000e+000	-2.000000e+002	0.000000e+000
904425000	-1.810233e+001	-1.447390e+002	-5.338243e+001	7.975664e+000	-2.000000e+002	0.000000e+000	-2.000000e+002	0.000000e+000
904462500	-1.810640e+001	-1.449092e+002	-5.425124e+001	8.706434e+000	-2.000000e+002	0.000000e+000	-2.000000e+002	0.000000e+000
904500000	-1.810908e+001	-1.451341e+002	-5.395950e+001	8.795076e+000	-2.000000e+002	0.000000e+000	-2.000000e+002	0.000000e+000
904537500	-1.811709e+001	-1.453324e+002	-5.386856e+001	9.713745e+000	-2.000000e+002	0.000000e+000	-2.000000e+002	0.000000e+000
904575000	-1.810679e+001	-1.455605e+002	-5.429000e+001	4.347068e+000	-2.000000e+002	0.000000e+000	-2.000000e+002	0.000000e+000
904612500	-1.810902e+001	-1.457548e+002	-5.344152e+001	8.318179e+000	-2.000000e+002	0.000000e+000	-2.000000e+002	0.000000e+000
904650000	-1.811374e+001	-1.459452e+002	-5.341830e+001	5.560240e+000	-2.000000e+002	0.000000e+000	-2.000000e+002	0.000000e+000
904687500	-1.811767e+001	-1.462048e+002	-5.333112e+001	4.491956e+000	-2.000000e+002	0.000000e+000	-2.000000e+002	0.000000e+000
904725000	-1.810923e+001	-1.464133e+002	-5.363507e+001	3.320291e+000	-2.000000e+002	0.000000e+000	-2.000000e+002	0.000000e+000
904762500	-1.811380e+001	-1.465697e+002	-5.323371e+001	3.358786e+000	-2.000000e+002	0.000000e+000	-2.000000e+002	0.000000e+000
904800000	-1.812042e+001	-1.468425e+002	-5.323186e+001	4.321331e+000	-2.000000e+002	0.000000e+000	-2.000000e+002	0.000000e+000
904837500	-1.811217e+001	-1.469487e+002	-5.354030e+001	4.656903e+000	-2.000000e+002	0.000000e+000	-2.000000e+002	0.000000e+000
904875000	-1.811874e+001	-1.471889e+002	-5.297560e+001	3.369253e+000	-2.000000e+002	0.000000e+000	-2.000000e+002	0.000000e+000
904912500	-1.812095e+001	-1.473735e+002	-5.340066e+001	1.236306e+000	-2.000000e+002	0.000000e+000	-2.000000e+002	0.000000e+000
904950000	-1.812144e+001	-1.476010e+002	-5.319130e+001	2.211606e+000	-2.000000e+002	0.000000e+000	-2.000000e+002	0.000000e+000
904987500	-1.813286e+001	-1.477446e+002	-5.326479e+001	1.892349e+000	-2.000000e+002	0.000000e+000	-2.000000e+002	0.000000e+000
905025000	-1.813273e+001	-1.479370e+002	-5.312625e+001	1.070343e+000	-2.000000e+002	0.000000e+000	-2.000000e+002	0.000000e+000
905062500	-1.813461e+001	-1.482172e+002	-5.309690e+001	1.607961e+000	-2.000000e+002	0.000000e+000	-2.000000e+002	0.000000e+000
905100000	-1.813400e+001	-1.483412e+002	-5.320030e+001	-1.258905e+000	-2.000000e+002	0.000000e+000	-2.000000e+002	0.000000e+000
905137500	-1.813980e+001	-1.485061e+002	-5.299497e+001	-2.541429e+000	-2.000000e+002	0.000000e+000	-2.000000e+002	0.000000e+000
905175000	-1.812977e+001	-1.487687e+002	-5.296210e+001	7.277060e-001	-2.000000e+002	0.000000e+000	-2.000000e+002	0.000000e+000
905212500	-1.813555e+001	-1.489608e+002	-5.242949e+001	-1.511024e+000	-2.000000e+002	0.000000e+000	-2.000000e+002	0.000000e+000
905250000	-1.813311e+001	-1.490954e+002	-5.276655e+001	-2.489624e+000	-2.000000e+002	0.000000e+000	-2.000000e+002	0.000000e+000
905287500	-1.812928e+001	-1.493094e+002	-5.293309e+001	-3.140813e+000	-2.000000e+002	0.000000e+000	-2.000000e+002	0.000000e+000
905325000	-1.812407e+001	-1.495702e+002	-5.254915e+001	-1.806043e-001	-2.000000e+002	0.000000e+000	-2.000000e+002	0.000000e+000
905362500	-1.813195e+001	-1.496735e+002	-5.248206e+001	-6.498785e+000	-2.000000e+002	0.000000e+000	-2.000000e+002	0.000000e+000
905400000	-1.812566e+001	-1.499137e+002	-5.251594e+001	-4.255291e+000	-2.000000e+002	0.000000e+000	-2.000000e+002	0.000000e+000
905437500	-1.811876e+001	-1.501911e+002	-5.238194e+001	-7.882762e+000	-2.000000e+002	0.000000e+000	-2.000000e+002	0.000000e+000
905475000	-1.812666e+001	-1.503626e+002	-5.223247e+001	-3.997473e+000	-2.000000e+002	0.000000e+000	-2.000000e+002	0.000000e+000
905512500	-1.812894e+001	-1.505936e+002	-5.240653e+001	-6.834414e+000	-2.000000e+002	0.000000e+000	-2.000000e+002	0.000000e+000
905550000	-1.812114e+001	-1.507585e+002	-5.171331e+001	-6.717122e+000	-2.000000e+002	0.000000e+000	-2.000000e+002	0.000000e+000
905587500	-1.812014e+001	-1.509895e+002	-5.173909e+001	-6.415145e+000	-2.000000e+002	0.000000e+000	-2.000000e+002	0.000000e+000
905625000	-1.812730e+001	-1.511520e+002	-5.210753e+001	-7.067551e+000	-2.000000e+002	0.000000e+000	-2.000000e+002	0.000000e+000
905662500	-1.811978e+001	-1.514019e+002	-5.227636e+001	-8.112015e+000	-2.000000e+002	0.000000e+000	-2.000000e+002	0.000000e+000
905700000	-1.811876e+001	-1.516343e+002	-5.221429e+001	-1.043696e+001	-2.000000e+002	0.000000e+000	-2.000000e+002	0.000000e+000
