!Agilent Technologies,E5071C,MY46214392,A.11.36
!Date: Thu Feb 26 21:45:26 2026
!Data & Calibration Information:
!Freq	S11:NONE(--)	S21:NONE(--)	S12:NONE(--)	S22:NONE(--)
!PortZ  Port1:50+j0    Port2:50+j0
!Above PortZ is port z conversion or system Z0 setting when saving the data.
!When reading, reference impedance value at option line is always used.
# Hz S dB R 50
900000000	-1.804274e+001	-1.198157e+002	-8.158737e+001	1.190713e+002	-2.000000e+002	0.000000e+000	-2.000000e+002	0.000000e+000
900037500	-1.803430e+001	-1.200672e+002	-7.751969e+001	1.771361e+002	-2.000000e+002	0.000000e+000	-2.000000e+002	0.000000e+000
900075000	-1.802855e+001	-1.201943e+002	-8.886061e+001	1.131438e+002	-2.000000e+002	0.000000e+000	-2.000000e+002	0.000000e+000
900112500	-1.803392e+001	-1.204939e+002	-8.568907e+001	1.702594e+002	-2.000000e+002	0.000000e+000	-2.000000e+002	0.000000e+000
900150000	-1.802993e+001	-1.206580e+002	-7.905000e+001	1.596905e+002	-2.000000e+002	0.000000e+000	-2.000000e+002	0.000000e+000
900187500	-1.803327e+001	-1.208708e+002	-7.934812e+001	1.483008e+002	-2.000000e+002	0.000000e+000	-2.000000e+002	0.000000e+000
900225000	-1.803158e+001	-1.210324e+002	-8.122180e+001	1.448444e+002	-2.000000e+002	0.000000e+000	-2.000000e+002	0.000000e+000
900262500	-1.803438e+001	-1.211582e+002	-7.996482e+001	1.377900e+002	-2.000000e+002	0.000000e+000	-2.000000e+002	0.000000e+000
900300000	-1.803042e+001	-1.214414e+002	-7.287203e+001	1.656157e+002	-2.000000e+002	0.000000e+000	-2.000000e+002	0.000000e+000
900337500	-1.802986e+001	-1.215922e+002	-7.500488e+001	1.492755e+002	-2.000000e+002	0.000000e+000	-2.000000e+002	0.000000e+000
900375000	-1.803371e+001	-1.218674e+002	-7.527462e+001	1.758486e+002	-2.000000e+002	0.000000e+000	-2.000000e+002	0.000000e+000
900412500	-1.803575e+001	-1.220397e+002	-7.749899e+001	1.479697e+002	-2.000000e+002	0.000000e+000	-2.000000e+002	0.000000e+000
900450000	-1.803212e+001	-1.222075e+002	-7.647021e+001	1.478122e+002	-2.000000e+002	0.000000e+000	-2.000000e+002	0.000000e+000
900487500	-1.803056e+001	-1.224501e+002	-8.261655e+001	1.578202e+002	-2.000000e+002	0.000000e+000	-2.000000e+002	0.000000e+000
900525000	-1.802866e+001	-1.226097e+002	-8.639376e+001	1.163104e+002	-2.000000e+002	0.000000e+000	-2.000000e+002	0.000000e+000
900562500	-1.803211e+001	-1.228088e+002	-7.491661e+001	-1.706221e+002	-2.000000e+002	0.000000e+000	-2.000000e+002	0.000000e+000
900600000	-1.803070e+001	-1.230229e+002	-7.517730e+001	1.466046e+002	-2.000000e+002	0.000000e+000	-2.000000e+002	0.000000e+000
900637500	-1.803970e+001	-1.231859e+002	-7.342213e+001	1.439912e+002	-2.000000e+002	0.000000e+000	-2.000000e+002	0.000000e+000
900675000	-1.802507e+001	-1.233724e+002	-7.435440e+001	1.483261e+002	-2.000000e+002	0.000000e+000	-2.000000e+002	0.000000e+000
900712500	-1.802462e+001	-1.236333e+002	-7.725502e+001	1.710195e+002	-2.000000e+002	0.000000e+000	-2.000000e+002	0.000000e+000
900750000	-1.802873e+001	-1.238010e+002	-8.564752e+001	1.668135e+002	-2.000000e+002	0.000000e+000	-2.000000e+002	0.000000e+000
900787500	-1.803039e+001	-1.240056e+002	-7.263846e+001	1.562658e+002	-2.000000e+002	0.000000e+000	-2.000000e+002	0.000000e+000
900825000	-1.802003e+001	-1.241730e+002	-8.280366e+001	1.268069e+002	-2.000000e+002	0.000000e+000	-2.000000e+002	0.000000e+000
900862500	-1.802965e+001	-1.243781e+002	-7.759712e+001	1.346974e+002	-2.000000e+002	0.000000e+000	-2.000000e+002	0.000000e+000
900900000	-1.803238e+001	-1.245931e+002	-7.023601e+001	1.594329e+002	-2.000000e+002	0.000000e+000	-2.000000e+002	0.000000e+000
900937500	-1.802414e+001	-1.247676e+002	-7.671982e+001	1.594211e+002	-2.000000e+002	0.000000e+000	-2.000000e+002	0.000000e+000
900975000	-1.803155e+001	-1.249772e+002	-7.346942e+001	1.362535e+002	-2.000000e+002	0.000000e+000	-2.000000e+002	0.000000e+000
901012500	-1.802648e+001	-1.251873e+002	-7.326558e+001	1.215501e+002	-2.000000e+002	0.000000e+000	-2.000000e+002	0.000000e+000
901050000	-1.802077e+001	-1.254129e+002	-7.462910e+001	1.433056e+002	-2.000000e+002	0.000000e+000	-2.000000e+002	0.000000e+000
901087500	-1.802271e+001	-1.255845e+002	-7.681972e+001	-1.722789e+002	-2.000000e+002	0.000000e+000	-2.000000e+002	0.000000e+000
901125000	-1.802166e+001	-1.258224e+002	-7.506010e+001	1.576562e+002	-2.000000e+002	0.000000e+000	-2.000000e+002	0.000000e+000
901162500	-1.802041e+001	-1.259893e+002	-7.953574e+001	1.282052e+002	-2.000000e+002	0.000000e+000	-2.000000e+002	0.000000e+000
901200000	-1.801970e+001	-1.261709e+002	-7.447594e+001	1.603616e+002	-2.000000e+002	0.000000e+000	-2.000000e+002	0.000000e+000
901237500	-1.803013e+001	-1.263928e+002	-7.579023e+001	1.679162e+002	-2.000000e+002	0.000000e+000	-2.000000e+002	0.000000e+000
901275000	-1.802069e+001	-1.265776e+002	-7.480942e+001	1.773609e+002	-2.000000e+002	0.000000e+000	-2.000000e+002	0.000000e+000
901312500	-1.802488e+001	-1.267866e+002	-6.855555e+001	1.561057e+002	-2.000000e+002	0.000000e+000	-2.000000e+002	0.000000e+000
901350000	-1.800982e+001	-1.269843e+002	-8.315683e+001	9.589859e+001	-2.000000e+002	0.000000e+000	-2.000000e+002	0.000000e+000
901387500	-1.801745e+001	-1.271936e+002	-7.729620e+001	-1.526981e+002	-2.000000e+002	0.000000e+000	-2.000000e+002	0.000000e+000
901425000	-1.801778e+001	-1.273522e+002	-7.629257e+001	1.715982e+002	-2.000000e+002	0.000000e+000	-2.000000e+002	0.000000e+000
901462500	-1.801321e+001	-1.275974e+002	-8.422058e+001	1.312983e+002	-2.000000e+002	0.000000e+000	-2.000000e+002	0.000000e+000
901500000	-1.801028e+001	-1.277391e+002	-7.601721e+001	1.469493e+002	-2.000000e+002	0.000000e+000	-2.000000e+002	0.000000e+000
901537500	-1.801186e+001	-1.280081e+002	-8.033435e+001	1.535991e+002	-2.000000e+002	0.000000e+000	-2.000000e+002	0.000000e+000
901575000	-1.800729e+001	-1.281300e+002	-7.778746e+001	1.405253e+002	-2.000000e+002	0.000000e+000	-2.000000e+002	0.000000e+000
901612500	-1.800517e+001	-1.284176e+002	-7.595281e+001	1.209151e+002	-2.000000e+002	0.000000e+000	-2.000000e+002	0.000000e+000
901650000	-1.800681e+001	-1.285323e+002	-7.559910e+001	1.193861e+002	-2.000000e+002	0.000000e+000	-2.000000e+002	0.000000e+000
901687500	-1.800279e+001	-1.287961e+002	-7.402832e+001	1.041255e+002	-2.000000e+002	0.000000e+000	-2.000000e+002	0.000000e+000
901725000	-1.800875e+001	-1.289844e+002	-7.940385e+001	1.404788e+002	-2.000000e+002	0.000000e+000	-2.000000e+002	0.000000e+000
901762500	-1.800238e+001	-1.292048e+002	-7.842642e+001	1.522043e+002	-2.000000e+002	0.000000e+000	-2.000000e+002	0.000000e+000
901800000	-1.799745e+001	-1.293634e+002	-7.314828e+001	1.504714e+002	-2.000000e+002	0.000000e+000	-2.000000e+002	0.000000e+000
901837500	-1.799928e+001	-1.295346e+002	-7.341947e+001	1.020754e+002	-2.000000e+002	0.000000e+000	-2.000000e+002	0.000000e+000
901875000	-1.799656e+001	-1.297935e+002	-8.186366e+001	1.417556e+002	-2.000000e+002	0.000000e+000	-2.000000e+002	0.000000e+000
901912500	-1.799868e+001	-1.300220e+002	-7.710814e+001	1.475212e+002	-2.000000e+002	0.000000e+000	-2.000000e+002	0.000000e+000
901950000	-1.798920e+001	-1.302088e+002	-7.400292e+001	1.440347e+002	-2.000000e+002	0.000000e+000	-2.000000e+002	0.000000e+000
901987500	-1.798329e+001	-1.303752e+002	-7.773941e+001	1.600683e+002	-2.000000e+002	0.000000e+000	-2.000000e+002	0.000000e+000
902025000	-1.798695e+001	-1.305713e+002	-8.026211e+001	1.526380e+002	-2.000000e+002	0.000000e+000	-2.000000e+002	0.000000e+000
902062500	-1.799223e+001	-1.308189e+002	-7.380325e+001	1.380060e+002	-2.000000e+002	0.000000e+000	-2.000000e+002	0.000000e+000
902100000	-1.798529e+001	-1.310410e+002	-7.516564e+001	9.316880e+001	-2.000000e+002	0.000000e+000	-2.000000e+002	0.000000e+000
902137500	-1.799020e+001	-1.312679e+002	-8.417405e+001	1.690108e+002	-2.000000e+002	0.000000e+000	-2.000000e+002	0.000000e+000
902175000	-1.798123e+001	-1.314917e+002	-7.637495e+001	1.209498e+002	-2.000000e+002	0.000000e+000	-2.000000e+002	0.000000e+000
902212500	-1.798675e+001	-1.316988e+002	-8.204323e+001	9.524632e+001	-2.000000e+002	0.000000e+000	-2.000000e+002	0.000000e+000
902250000	-1.797925e+001	-1.319389e+002	-8.127518e+001	9.539542e+001	-2.000000e+002	0.000000e+000	-2.000000e+002	0.000000e+000
902287500	-1.797491e+001	-1.321196e+002	-7.406048e+001	-1.778304e+002	-2.000000e+002	0.000000e+000	-2.000000e+002	0.000000e+000
902325000	-1.797084e+001	-1.323574e+002	-7.440875e+001	1.138633e+002	-2.000000e+002	0.000000e+000	-2.000000e+002	0.000000e+000
902362500	-1.796968e+001	-1.326106e+002	-6.849306e+001	1.315569e+002	-2.000000e+002	0.000000e+000	-2.000000e+002	0.000000e+000
902400000	-1.797184e+001	-1.328125e+002	-7.301653e+001	1.219650e+002	-2.000000e+002	0.000000e+000	-2.000000e+002	0.000000e+000
902437500	-1.796192e+001	-1.330156e+002	-7.330346e+001	9.047393e+001	-2.000000e+002	0.000000e+000	-2.000000e+002	0.000000e+000
902475000	-1.796543e+001	-1.332491e+002	-7.214635e+001	1.388911e+002	-2.000000e+002	0.000000e+000	-2.000000e+002	0.000000e+000
902512500	-1.797153e+001	-1.334684e+002	-7.508297e+001	1.063356e+002	-2.000000e+002	0.000000e+000	-2.000000e+002	0.000000e+000
902550000	-1.797006e+001	-1.337696e+002	-7.307108e+001	1.518133e+002	-2.000000e+002	0.000000e+000	-2.000000e+002	0.000000e+000
902587500	-1.797115e+001	-1.339718e+002	-7.490366e+001	1.532613e+002	-2.000000e+002	0.000000e+000	-2.000000e+002	0.000000e+000
902625000	-1.797438e+001	-1.341964e+002	-7.676250e+001	1.177699e+002	-2.000000e+002	0.000000e+000	-2.000000e+002	0.000000e+000
902662500	-1.797500e+001	-1.344314e+002	-7.341375e+001	8.968826e+001	-2.000000e+002	0.000000e+000	-2.000000e+002	0.000000e+000
902700000	-1.797803e+001	-1.346118e+002	-7.474385e+001	1.333083e+002	-2.000000e+002	0.000000e+000	-2.000000e+002	0.000000e+000
902737500	-1.798264e+001	-1.349204e+002	-7.859972e+001	1.488427e+002	-2.000000e+002	0.000000e+000	-2.000000e+002	0.000000e+000
902775000	-1.799019e+001	-1.351007e+002	-7.865523e+001	1.592914e+002	-2.000000e+002	0.000000e+000	-2.000000e+002	0.000000e+000
902812500	-1.799589e+001	-1.352691e+002	-7.337492e+001	1.379355e+002	-2.000000e+002	0.000000e+000	-2.000000e+002	0.000000e+000
902850000	-1.800064e+001	-1.354978e+002	-8.179786e+001	1.286430e+002	-2.000000e+002	0.000000e+000	-2.000000e+002	0.000000e+000
902887500	-1.800309e+001	-1.357648e+002	-8.221279e+001	1.202087e+002	-2.000000e+002	0.000000e+000	-2.000000e+002	0.000000e+000
902925000	-1.800282e+001	-1.358943e+002	-7.426675e+001	1.026473e+002	-2.000000e+002	0.000000e+000	-2.000000e+002	0.000000e+000
902962500	-1.800786e+001	-1.360991e+002	-7.096518e+001	1.037715e+002	-2.000000e+002	0.000000e+000	-2.000000e+002	0.000000e+000
903000000	-1.800910e+001	-1.362672e+002	-7.549936e+001	1.251187e+002	-2.000000e+002	0.000000e+000	-2.000000e+002	0.000000e+000
903037500	-1.801564e+001	-1.364718e+002	-8.400746e+001	1.423392e+002	-2.000000e+002	0.000000e+000	-2.000000e+002	0.000000e+000
903075000	-1.800875e+001	-1.366770e+002	-7.407295e+001	6.530929e+001	-2.000000e+002	0.000000e+000	-2.000000e+002	0.000000e+000
903112500	-1.800866e+001	-1.368696e+002	-7.577364e+001	1.263620e+002	-2.000000e+002	0.000000e+000	-2.000000e+002	0.000000e+000
903150000	-1.800753e+001	-1.371260e+002	-8.221405e+001	1.124288e+002	-2.000000e+002	0.000000e+000	-2.000000e+002	0.000000e+000
903187500	-1.801331e+001	-1.372256e+002	-7.424368e+001	9.232213e+001	-2.000000e+002	0.000000e+000	-2.000000e+002	0.000000e+000
903225000	-1.800988e+001	-1.374961e+002	-7.751977e+001	1.320556e+002	-2.000000e+002	0.000000e+000	-2.000000e+002	0.000000e+000
903262500	-1.800381e+001	-1.376598e+002	-7.780919e+001	9.390857e+001	-2.000000e+002	0.000000e+000	-2.000000e+002	0.000000e+000
903300000	-1.800382e+001	-1.378985e+002	-7.491931e+001	1.305538e+002	-2.000000e+002	0.000000e+000	-2.000000e+002	0.000000e+000
903337500	-1.800445e+001	-1.381098e+002	-7.461919e+001	1.043093e+002	-2.000000e+002	0.000000e+000	-2.000000e+002	0.000000e+000
903375000	-1.800141e+001	-1.383518e+002	-7.650322e+001	1.553443e+002	-2.000000e+002	0.000000e+000	-2.000000e+002	0.000000e+000
903412500	-1.801044e+001	-1.384951e+002	-7.648653e+001	7.947505e+001	-2.000000e+002	0.000000e+000	-2.000000e+002	0.000000e+000
903450000	-1.800779e+001	-1.387386e+002	-7.501549e+001	8.915274e+001	-2.000000e+002	0.000000e+000	-2.000000e+002	0.000000e+000
903487500	-1.800086e+001	-1.389338e+002	-7.692716e+001	1.023064e+002	-2.000000e+002	0.000000e+000	-2.000000e+002	0.000000e+000
903525000	-1.801081e+001	-1.391503e+002	-7.381245e+001	1.138596e+002	-2.000000e+002	0.000000e+000	-2.000000e+002	0.000000e+000
903562500	-1.800926e+001	-1.394495e+002	-7.568330e+001	1.419898e+002	-2.000000e+002	0.000000e+000	-2.000000e+002	0.000000e+000
903600000	-1.800734e+001	-1.395671e+002	-7.574280e+001	1.201340e+002	-2.000000e+002	0.000000e+000	-2.000000e+002	0.000000e+000
903637500	-1.801432e+001	-1.398278e+002	-7.679005e+001	1.227591e+002	-2.000000e+002	0.000000e+000	-2.000000e+002	0.000000e+000
903675000	-1.801001e+001	-1.399827e+002	-7.408457e+001	1.208074e+002	-2.000000e+002	0.000000e+000	-2.000000e+002	0.000000e+000
903712500	-1.801595e+001	-1.402720e+002	-8.125638e+001	1.542136e+002	-2.000000e+002	0.000000e+000	-2.000000e+002	0.000000e+000
903750000	-1.800937e+001	-1.404989e+002	-7.351634e+001	9.300934e+001	-2.000000e+002	0.000000e+000	-2.000000e+002	0.000000e+000
903787500	-1.801069e+001	-1.406528e+002	-8.104960e+001	8.764326e+001	-2.000000e+002	0.000000e+000	-2.000000e+002	0.000000e+000
903825000	-1.802333e+001	-1.408543e+002	-7.390896e+001	1.132361e+002	-2.000000e+002	0.000000e+000	-2.000000e+002	0.000000e+000
903862500	-1.802526e+001	-1.410634e+002	-7.221207e+001	1.048331e+002	-2.000000e+002	0.000000e+000	-2.000000e+002	0.000000e+000
903900000	-1.802566e+001	-1.412570e+002	-7.976910e+001	1.041620e+002	-2.000000e+002	0.000000e+000	-2.000000e+002	0.000000e+000
903937500	-1.802996e+001	-1.415494e+002	-7.799034e+001	1.207001e+002	-2.000000e+002	0.000000e+000	-2.000000e+002	0.000000e+000
903975000	-1.802379e+001	-1.416880e+002	-7.518544e+001	1.693901e+002	-2.000000e+002	0.000000e+000	-2.000000e+002	0.000000e+000
904012500	-1.802985e+001	-1.418616e+002	-7.489983e+001	8.568802e+001	-2.000000e+002	0.000000e+000	-2.000000e+002	0.000000e+000
904050000	-1.803328e+001	-1.421276e+002	-8.426903e+001	1.360107e+002	-2.000000e+002	0.000000e+000	-2.000000e+002	0.000000e+000
904087500	-1.802927e+001	-1.423085e+002	-7.812178e+001	1.124094e+002	-2.000000e+002	0.000000e+000	-2.000000e+002	0.000000e+000
904125000	-1.803646e+001	-1.424817e+002	-7.889840e+001	1.294456e+002	-2.000000e+002	0.000000e+000	-2.000000e+002	0.000000e+000
904162500	-1.803362e+001	-1.427407e+002	-8.117228e+001	6.882031e+001	-2.000000e+002	0.000000e+000	-2.000000e+002	0.000000e+000
904200000	-1.803621e+001	-1.428944e+002	-7.507268e+001	1.153840e+002	-2.000000e+002	0.000000e+000	-2.000000e+002	0.000000e+000
904237500	-1.803981e+001	-1.431198e+002	-7.266944e+001	1.137949e+002	-2.000000e+002	0.000000e+000	-2.000000e+002	0.000000e+000
904275000	-1.803675e+001	-1.432860e+002	-7.314985e+001	1.205268e+002	-2.000000e+002	0.000000e+000	-2.000000e+002	0.000000e+000
904312500	-1.803902e+001	-1.435423e+002	-7.640972e+001	8.417674e+001	-2.000000e+002	0.000000e+000	-2.000000e+002	0.000000e+000
904350000	-1.804337e+001	-1.436959e+002	-7.300555e+001	9.234830e+001	-2.000000e+002	0.000000e+000	-2.000000e+002	0.000000e+000
904387500	-1.805474e+001	-1.439607e+002	-7.772941e+001	8.933591e+001	-2.000000e+002	0.000000e+000	-2.000000e+002	0.000000e+000
904425000	-1.805159e+001	-1.441376e+002	-7.753202e+001	9.126975e+001	-2.000000e+002	0.000000e+000	-2.000000e+002	0.000000e+000
904462500	-1.804760e+001	-1.443412e+002	-7.357740e+001	1.128143e+002	-2.000000e+002	0.000000e+000	-2.000000e+002	0.000000e+000
904500000	-1.805223e+001	-1.445643e+002	-7.854679e+001	1.223419e+002	-2.000000e+002	0.000000e+000	-2.000000e+002	0.000000e+000
904537500	-1.804882e+001	-1.447117e+002	-7.910864e+001	1.476341e+002	-2.000000e+002	0.000000e+000	-2.000000e+002	0.000000e+000
904575000	-1.805288e+001	-1.449685e+002	-7.380308e+001	1.071247e+002	-2.000000e+002	0.000000e+000	-2.000000e+002	0.000000e+000
904612500	-1.804937e+001	-1.451500e+002	-7.836599e+001	8.514780e+001	-2.000000e+002	0.000000e+000	-2.000000e+002	0.000000e+000
904650000	-1.805584e+001	-1.453751e+002	-7.626900e+001	1.333023e+002	-2.000000e+002	0.000000e+000	-2.000000e+002	0.000000e+000
904687500	-1.805658e+001	-1.455065e+002	-7.100078e+001	9.538087e+001	-2.000000e+002	0.000000e+000	-2.000000e+002	0.000000e+000
904725000	-1.806120e+001	-1.457766e+002	-7.335322e+001	1.165439e+002	-2.000000e+002	0.000000e+000	-2.000000e+002	0.000000e+000
904762500	-1.806390e+001	-1.460071e+002	-7.416915e+001	9.094060e+001	-2.000000e+002	0.000000e+000	-2.000000e+002	0.000000e+000
904800000	-1.805386e+001	-1.461823e+002	-7.663589e+001	9.933157e+001	-2.000000e+002	0.000000e+000	-2.000000e+002	0.000000e+000
904837500	-1.806871e+001	-1.463849e+002	-7.284579e+001	1.061168e+002	-2.000000e+002	0.000000e+000	-2.000000e+002	0.000000e+000
904875000	-1.806447e+001	-1.465254e+002	-7.010039e+001	7.896168e+001	-2.000000e+002	0.000000e+000	-2.000000e+002	0.000000e+000
904912500	-1.806279e+001	-1.467872e+002	-7.676615e+001	1.293918e+002	-2.000000e+002	0.000000e+000	-2.000000e+002	0.000000e+000
904950000	-1.807044e+001	-1.469703e+002	-7.489036e+001	8.399733e+001	-2.000000e+002	0.000000e+000	-2.000000e+002	0.000000e+000
904987500	-1.807197e+001	-1.471672e+002	-7.416218e+001	1.092910e+002	-2.000000e+002	0.000000e+000	-2.000000e+002	0.000000e+000
905025000	-1.807017e+001	-1.474205e+002	-7.763071e+001	1.240570e+002	-2.000000e+002	0.000000e+000	-2.000000e+002	0.000000e+000
905062500	-1.807840e+001	-1.475869e+002	-7.452942e+001	6.859708e+001	-2.000000e+002	0.000000e+000	-2.000000e+002	0.000000e+000
905100000	-1.807518e+001	-1.477089e+002	-7.569678e+001	9.128358e+001	-2.000000e+002	0.000000e+000	-2.000000e+002	0.000000e+000
905137500	-1.807713e+001	-1.479571e+002	-8.533754e+001	1.409989e+002	-2.000000e+002	0.000000e+000	-2.000000e+002	0.000000e+000
905175000	-1.807165e+001	-1.481760e+002	-8.816990e+001	1.466069e+001	-2.000000e+002	0.000000e+000	-2.000000e+002	0.000000e+000
905212500	-1.807875e+001	-1.482891e+002	-7.348809e+001	1.353679e+002	-2.000000e+002	0.000000e+000	-2.000000e+002	0.000000e+000
905250000	-1.808295e+001	-1.485372e+002	-7.486598e+001	8.253141e+001	-2.000000e+002	0.000000e+000	-2.000000e+002	0.000000e+000
905287500	-1.807181e+001	-1.486969e+002	-7.634654e+001	6.222492e+001	-2.000000e+002	0.000000e+000	-2.000000e+002	0.000000e+000
905325000	-1.807830e+001	-1.489296e+002	-7.323149e+001	1.055185e+002	-2.000000e+002	0.000000e+000	-2.000000e+002	0.000000e+000
905362500	-1.806023e+001	-1.491270e+002	-7.806120e+001	1.145905e+002	-2.000000e+002	0.000000e+000	-2.000000e+002	0.000000e+000
905400000	-1.806926e+001	-1.492799e+002	-7.847830e+001	1.494171e+002	-2.000000e+002	0.000000e+000	-2.000000e+002	0.000000e+000
905437500	-1.806639e+001	-1.494718e+002	-7.467749e+001	1.171716e+002	-2.000000e+002	0.000000e+000	-2.000000e+002	0.000000e+000
905475000	-1.806166e+001	-1.497355e+002	-7.576964e+001	1.143775e+002	-2.000000e+002	0.000000e+000	-2.000000e+002	0.000000e+000
905512500	-1.806453e+001	-1.499648e+002	-7.472344e+001	1.055608e+002	-2.000000e+002	0.000000e+000	-2.000000e+002	0.000000e+000
905550000	-1.806510e+001	-1.501393e+002	-7.365325e+001	1.004453e+002	-2.000000e+002	0.000000e+000	-2.000000e+002	0.000000e+000
905587500	-1.805738e+001	-1.503892e+002	-7.590886e+001	1.343390e+001	-2.000000e+002	0.000000e+000	-2.000000e+002	0.000000e+000
905625000	-1.807109e+001	-1.505407e+002	-8.146358e+001	3.410254e+001	-2.000000e+002	0.000000e+000	-2.000000e+002	0.000000e+000
905662500	-1.806976e+001	-1.507298e+002	-7.546910e+001	7.748609e+001	-2.000000e+002	0.000000e+000	-2.000000e+002	0.000000e+000
905700000	-1.806158e+001	-1.509928e+002	-7.690758e+001	6.212923e+001	-2.000000e+002	0.000000e+000	-2.000000e+002	0.000000e+000
