!Agilent Technologies,E5071C,MY46214392,A.11.36
!Date: Thu Feb 26 21:36:25 2026
!Data & Calibration Information:
!Freq	S11:NONE(--)	S21:NONE(--)	S12:NONE(--)	S22:NONE(--)
!PortZ  Port1:50+j0    Port2:50+j0
!Above PortZ is port z conversion or system Z0 setting when saving the data.
!When reading, reference impedance value at option line is always used.
# Hz S dB R 50
900000000	-1.805974e+001	-1.200587e+002	-7.939362e+001	-3.112168e+001	-2.000000e+002	0.000000e+000	-2.000000e+002	0.000000e+000
900037500	-1.806062e+001	-1.202176e+002	-7.600994e+001	-1.506855e+001	-2.000000e+002	0.000000e+000	-2.000000e+002	0.000000e+000
900075000	-1.806094e+001	-1.203863e+002	-7.249950e+001	-1.843962e+001	-2.000000e+002	0.000000e+000	-2.000000e+002	0.000000e+000
900112500	-1.806416e+001	-1.206580e+002	-7.455149e+001	-5.931146e+001	-2.000000e+002	0.000000e+000	-2.000000e+002	0.000000e+000
900150000	-1.805909e+001	-1.207897e+002	-7.277435e+001	-1.817218e+001	-2.000000e+002	0.000000e+000	-2.000000e+002	0.000000e+000
900187500	-1.806212e+001	-1.209993e+002	-7.279082e+001	-2.663870e+000	-2.000000e+002	0.000000e+000	-2.000000e+002	0.000000e+000
900225000	-1.806296e+001	-1.211703e+002	-7.525067e+001	-2.194997e+001	-2.000000e+002	0.000000e+000	-2.000000e+002	0.000000e+000
900262500	-1.806204e+001	-1.213828e+002	-7.223603e+001	-5.507138e+000	-2.000000e+002	0.000000e+000	-2.000000e+002	0.000000e+000
900300000	-1.805606e+001	-1.215673e+002	-7.294446e+001	-3.499900e+001	-2.000000e+002	0.000000e+000	-2.000000e+002	0.000000e+000
900337500	-1.806547e+001	-1.217913e+002	-7.350225e+001	-2.712996e+001	-2.000000e+002	0.000000e+000	-2.000000e+002	0.000000e+000
900375000	-1.805250e+001	-1.220133e+002	-7.657230e+001	-5.303568e+001	-2.000000e+002	0.000000e+000	-2.000000e+002	0.000000e+000
900412500	-1.805739e+001	-1.221643e+002	-7.447748e+001	-2.432219e+000	-2.000000e+002	0.000000e+000	-2.000000e+002	0.000000e+000
900450000	-1.805452e+001	-1.224041e+002	-7.042293e+001	-1.530393e+001	-2.000000e+002	0.000000e+000	-2.000000e+002	0.000000e+000
900487500	-1.805556e+001	-1.225546e+002	-7.065415e+001	-2.553946e+001	-2.000000e+002	0.000000e+000	-2.000000e+002	0.000000e+000
900525000	-1.805363e+001	-1.227931e+002	-7.511851e+001	-2.107417e+001	-2.000000e+002	0.000000e+000	-2.000000e+002	0.000000e+000
900562500	-1.805886e+001	-1.229598e+002	-7.238792e+001	-1.011197e+001	-2.000000e+002	0.000000e+000	-2.000000e+002	0.000000e+000
900600000	-1.805488e+001	-1.232298e+002	-6.992358e+001	-1.551850e+001	-2.000000e+002	0.000000e+000	-2.000000e+002	0.000000e+000
900637500	-1.805489e+001	-1.233327e+002	-7.401321e+001	-1.790759e+001	-2.000000e+002	0.000000e+000	-2.000000e+002	0.000000e+000
900675000	-1.805046e+001	-1.235567e+002	-7.017412e+001	-4.204659e+001	-2.000000e+002	0.000000e+000	-2.000000e+002	0.000000e+000
900712500	-1.804734e+001	-1.237439e+002	-7.755977e+001	-2.427211e+001	-2.000000e+002	0.000000e+000	-2.000000e+002	0.000000e+000
900750000	-1.804724e+001	-1.239865e+002	-7.136420e+001	-1.571282e+001	-2.000000e+002	0.000000e+000	-2.000000e+002	0.000000e+000
900787500	-1.805446e+001	-1.241778e+002	-7.577568e+001	-4.902945e+001	-2.000000e+002	0.000000e+000	-2.000000e+002	0.000000e+000
900825000	-1.805262e+001	-1.244011e+002	-7.326921e+001	-4.301059e+000	-2.000000e+002	0.000000e+000	-2.000000e+002	0.000000e+000
900862500	-1.805765e+001	-1.245188e+002	-8.064560e+001	-3.519241e+001	-2.000000e+002	0.000000e+000	-2.000000e+002	0.000000e+000
900900000	-1.805195e+001	-1.246967e+002	-7.246668e+001	-4.466066e+001	-2.000000e+002	0.000000e+000	-2.000000e+002	0.000000e+000
900937500	-1.805060e+001	-1.249171e+002	-7.370687e+001	-2.722460e+001	-2.000000e+002	0.000000e+000	-2.000000e+002	0.000000e+000
900975000	-1.805159e+001	-1.251644e+002	-7.601100e+001	-1.978026e+001	-2.000000e+002	0.000000e+000	-2.000000e+002	0.000000e+000
901012500	-1.805141e+001	-1.253751e+002	-7.541581e+001	-1.114757e+001	-2.000000e+002	0.000000e+000	-2.000000e+002	0.000000e+000
901050000	-1.804597e+001	-1.255690e+002	-7.372950e+001	-3.165379e+000	-2.000000e+002	0.000000e+000	-2.000000e+002	0.000000e+000
901087500	-1.804958e+001	-1.257451e+002	-7.605553e+001	-3.563991e+001	-2.000000e+002	0.000000e+000	-2.000000e+002	0.000000e+000
901125000	-1.804645e+001	-1.259495e+002	-7.718894e+001	-4.507857e+001	-2.000000e+002	0.000000e+000	-2.000000e+002	0.000000e+000
901162500	-1.803951e+001	-1.261438e+002	-7.208251e+001	-3.126339e+001	-2.000000e+002	0.000000e+000	-2.000000e+002	0.000000e+000
901200000	-1.804475e+001	-1.263557e+002	-7.314004e+001	-1.439417e+001	-2.000000e+002	0.000000e+000	-2.000000e+002	0.000000e+000
901237500	-1.804523e+001	-1.265233e+002	-7.094040e+001	5.474067e+000	-2.000000e+002	0.000000e+000	-2.000000e+002	0.000000e+000
901275000	-1.804253e+001	-1.267226e+002	-7.274167e+001	-5.409377e+001	-2.000000e+002	0.000000e+000	-2.000000e+002	0.000000e+000
901312500	-1.804228e+001	-1.269448e+002	-7.072242e+001	-2.340990e+001	-2.000000e+002	0.000000e+000	-2.000000e+002	0.000000e+000
901350000	-1.804325e+001	-1.271041e+002	-7.841551e+001	-4.065357e+001	-2.000000e+002	0.000000e+000	-2.000000e+002	0.000000e+000
901387500	-1.804494e+001	-1.273581e+002	-7.254597e+001	-1.129571e+001	-2.000000e+002	0.000000e+000	-2.000000e+002	0.000000e+000
901425000	-1.803375e+001	-1.275335e+002	-7.286158e+001	-1.286101e+001	-2.000000e+002	0.000000e+000	-2.000000e+002	0.000000e+000
901462500	-1.803653e+001	-1.277524e+002	-7.231021e+001	-4.710893e+000	-2.000000e+002	0.000000e+000	-2.000000e+002	0.000000e+000
901500000	-1.804150e+001	-1.279611e+002	-7.683252e+001	-3.172200e+001	-2.000000e+002	0.000000e+000	-2.000000e+002	0.000000e+000
901537500	-1.803673e+001	-1.281852e+002	-7.209005e+001	-3.368808e+001	-2.000000e+002	0.000000e+000	-2.000000e+002	0.000000e+000
901575000	-1.803261e+001	-1.283523e+002	-7.304580e+001	-3.192661e+001	-2.000000e+002	0.000000e+000	-2.000000e+002	0.000000e+000
901612500	-1.803195e+001	-1.285167e+002	-7.409285e+001	-1.897773e+001	-2.000000e+002	0.000000e+000	-2.000000e+002	0.000000e+000
901650000	-1.803393e+001	-1.287549e+002	-8.111481e+001	-7.428077e+001	-2.000000e+002	0.000000e+000	-2.000000e+002	0.000000e+000
901687500	-1.803271e+001	-1.289583e+002	-7.030882e+001	-2.562588e+001	-2.000000e+002	0.000000e+000	-2.000000e+002	0.000000e+000
901725000	-1.801487e+001	-1.291279e+002	-7.272468e+001	-4.607023e+001	-2.000000e+002	0.000000e+000	-2.000000e+002	0.000000e+000
901762500	-1.803300e+001	-1.293782e+002	-7.193774e+001	-3.461308e+001	-2.000000e+002	0.000000e+000	-2.000000e+002	0.000000e+000
901800000	-1.802647e+001	-1.295848e+002	-7.176635e+001	-3.260095e+001	-2.000000e+002	0.000000e+000	-2.000000e+002	0.000000e+000
901837500	-1.802743e+001	-1.297602e+002	-7.235269e+001	-3.871050e+001	-2.000000e+002	0.000000e+000	-2.000000e+002	0.000000e+000
901875000	-1.802527e+001	-1.299890e+002	-7.403338e+001	-3.108814e+001	-2.000000e+002	0.000000e+000	-2.000000e+002	0.000000e+000
901912500	-1.802890e+001	-1.301482e+002	-7.214820e+001	-2.315247e+001	-2.000000e+002	0.000000e+000	-2.000000e+002	0.000000e+000
901950000	-1.801592e+001	-1.304094e+002	-7.563158e+001	-2.365616e+001	-2.000000e+002	0.000000e+000	-2.000000e+002	0.000000e+000
901987500	-1.801395e+001	-1.306026e+002	-7.374707e+001	2.739911e+000	-2.000000e+002	0.000000e+000	-2.000000e+002	0.000000e+000
902025000	-1.801996e+001	-1.308455e+002	-7.537902e+001	-3.456990e+001	-2.000000e+002	0.000000e+000	-2.000000e+002	0.000000e+000
902062500	-1.802052e+001	-1.309736e+002	-7.392805e+001	-1.531165e+001	-2.000000e+002	0.000000e+000	-2.000000e+002	0.000000e+000
902100000	-1.800579e+001	-1.312218e+002	-7.264351e+001	-6.159436e+001	-2.000000e+002	0.000000e+000	-2.000000e+002	0.000000e+000
902137500	-1.800621e+001	-1.313971e+002	-7.202942e+001	-4.404185e+001	-2.000000e+002	0.000000e+000	-2.000000e+002	0.000000e+000
902175000	-1.800542e+001	-1.316762e+002	-7.102108e+001	-3.160793e+001	-2.000000e+002	0.000000e+000	-2.000000e+002	0.000000e+000
902212500	-1.801411e+001	-1.318090e+002	-7.600323e+001	-7.079650e+001	-2.000000e+002	0.000000e+000	-2.000000e+002	0.000000e+000
902250000	-1.800316e+001	-1.320517e+002	-7.193703e+001	-3.585455e+001	-2.000000e+002	0.000000e+000	-2.000000e+002	0.000000e+000
902287500	-1.799701e+001	-1.323184e+002	-7.090433e+001	-5.276626e+001	-2.000000e+002	0.000000e+000	-2.000000e+002	0.000000e+000
902325000	-1.800132e+001	-1.325020e+002	-7.116732e+001	-2.795249e+001	-2.000000e+002	0.000000e+000	-2.000000e+002	0.000000e+000
902362500	-1.799635e+001	-1.327362e+002	-7.154669e+001	-6.440820e+001	-2.000000e+002	0.000000e+000	-2.000000e+002	0.000000e+000
902400000	-1.798997e+001	-1.329604e+002	-7.537634e+001	-4.201734e+001	-2.000000e+002	0.000000e+000	-2.000000e+002	0.000000e+000
902437500	-1.799151e+001	-1.332139e+002	-7.518905e+001	-6.480456e+001	-2.000000e+002	0.000000e+000	-2.000000e+002	0.000000e+000
902475000	-1.799395e+001	-1.334937e+002	-7.038912e+001	-4.511457e+001	-2.000000e+002	0.000000e+000	-2.000000e+002	0.000000e+000
902512500	-1.798327e+001	-1.336697e+002	-7.505330e+001	-4.521477e+001	-2.000000e+002	0.000000e+000	-2.000000e+002	0.000000e+000
902550000	-1.798995e+001	-1.338747e+002	-7.386911e+001	-6.187066e+001	-2.000000e+002	0.000000e+000	-2.000000e+002	0.000000e+000
902587500	-1.799799e+001	-1.341599e+002	-7.396638e+001	-3.344645e+001	-2.000000e+002	0.000000e+000	-2.000000e+002	0.000000e+000
902625000	-1.800237e+001	-1.343885e+002	-7.226392e+001	-2.970279e+001	-2.000000e+002	0.000000e+000	-2.000000e+002	0.000000e+000
902662500	-1.799773e+001	-1.346231e+002	-7.378808e+001	-5.327939e+001	-2.000000e+002	0.000000e+000	-2.000000e+002	0.000000e+000
902700000	-1.800542e+001	-1.348525e+002	-7.176041e+001	-2.672264e+001	-2.000000e+002	0.000000e+000	-2.000000e+002	0.000000e+000
902737500	-1.800951e+001	-1.350922e+002	-7.274160e+001	-8.215843e+001	-2.000000e+002	0.000000e+000	-2.000000e+002	0.000000e+000
902775000	-1.801477e+001	-1.352830e+002	-7.523887e+001	-2.770859e+001	-2.000000e+002	0.000000e+000	-2.000000e+002	0.000000e+000
902812500	-1.801783e+001	-1.354752e+002	-7.281277e+001	-3.882563e+001	-2.000000e+002	0.000000e+000	-2.000000e+002	0.000000e+000
902850000	-1.801574e+001	-1.357424e+002	-7.274591e+001	-5.954011e+001	-2.000000e+002	0.000000e+000	-2.000000e+002	0.000000e+000
902887500	-1.802680e+001	-1.359220e+002	-7.599767e+001	-5.782485e+001	-2.000000e+002	0.000000e+000	-2.000000e+002	0.000000e+000
902925000	-1.802698e+001	-1.360790e+002	-7.220379e+001	-7.233045e+001	-2.000000e+002	0.000000e+000	-2.000000e+002	0.000000e+000
902962500	-1.802914e+001	-1.363054e+002	-6.916956e+001	-5.432940e+001	-2.000000e+002	0.000000e+000	-2.000000e+002	0.000000e+000
903000000	-1.802612e+001	-1.365174e+002	-7.182414e+001	-5.890957e+001	-2.000000e+002	0.000000e+000	-2.000000e+002	0.000000e+000
903037500	-1.803001e+001	-1.366498e+002	-7.581880e+001	-6.423917e+001	-2.000000e+002	0.000000e+000	-2.000000e+002	0.000000e+000
903075000	-1.803121e+001	-1.368886e+002	-7.313010e+001	-4.053831e+001	-2.000000e+002	0.000000e+000	-2.000000e+002	0.000000e+000
903112500	-1.803430e+001	-1.370986e+002	-7.123059e+001	-8.606689e+001	-2.000000e+002	0.000000e+000	-2.000000e+002	0.000000e+000
903150000	-1.802302e+001	-1.372598e+002	-7.144306e+001	-5.178657e+001	-2.000000e+002	0.000000e+000	-2.000000e+002	0.000000e+000
903187500	-1.802825e+001	-1.374867e+002	-7.334475e+001	-5.269748e+001	-2.000000e+002	0.000000e+000	-2.000000e+002	0.000000e+000
903225000	-1.802821e+001	-1.376778e+002	-7.451354e+001	-6.679205e+001	-2.000000e+002	0.000000e+000	-2.000000e+002	0.000000e+000
903262500	-1.802988e+001	-1.378610e+002	-7.672108e+001	-5.052797e+001	-2.000000e+002	0.000000e+000	-2.000000e+002	0.000000e+000
903300000	-1.802718e+001	-1.380438e+002	-7.128997e+001	-4.324955e+001	-2.000000e+002	0.000000e+000	-2.000000e+002	0.000000e+000
903337500	-1.802513e+001	-1.383218e+002	-7.198891e+001	-7.097412e+001	-2.000000e+002	0.000000e+000	-2.000000e+002	0.000000e+000
903375000	-1.802696e+001	-1.384848e+002	-7.219030e+001	-4.532939e+001	-2.000000e+002	0.000000e+000	-2.000000e+002	0.000000e+000
903412500	-1.802257e+001	-1.387065e+002	-7.808099e+001	-5.818513e+001	-2.000000e+002	0.000000e+000	-2.000000e+002	0.000000e+000
903450000	-1.803274e+001	-1.388969e+002	-7.679497e+001	-3.154449e+001	-2.000000e+002	0.000000e+000	-2.000000e+002	0.000000e+000
903487500	-1.802979e+001	-1.391568e+002	-7.246120e+001	-5.578291e+001	-2.000000e+002	0.000000e+000	-2.000000e+002	0.000000e+000
903525000	-1.802505e+001	-1.393256e+002	-7.309964e+001	-6.076948e+001	-2.000000e+002	0.000000e+000	-2.000000e+002	0.000000e+000
903562500	-1.802676e+001	-1.395995e+002	-6.907962e+001	-4.778521e+001	-2.000000e+002	0.000000e+000	-2.000000e+002	0.000000e+000
903600000	-1.802694e+001	-1.397552e+002	-7.301848e+001	-5.011687e+001	-2.000000e+002	0.000000e+000	-2.000000e+002	0.000000e+000
903637500	-1.804111e+001	-1.400326e+002	-7.547536e+001	-5.469449e+001	-2.000000e+002	0.000000e+000	-2.000000e+002	0.000000e+000
903675000	-1.803393e+001	-1.401664e+002	-7.287296e+001	-6.218378e+001	-2.000000e+002	0.000000e+000	-2.000000e+002	0.000000e+000
903712500	-1.803800e+001	-1.403930e+002	-7.129918e+001	-5.583827e+001	-2.000000e+002	0.000000e+000	-2.000000e+002	0.000000e+000
903750000	-1.803859e+001	-1.406937e+002	-7.549010e+001	-4.824830e+001	-2.000000e+002	0.000000e+000	-2.000000e+002	0.000000e+000
903787500	-1.804519e+001	-1.408139e+002	-7.363455e+001	-4.328081e+001	-2.000000e+002	0.000000e+000	-2.000000e+002	0.000000e+000
903825000	-1.803950e+001	-1.410833e+002	-7.092794e+001	-5.072028e+001	-2.000000e+002	0.000000e+000	-2.000000e+002	0.000000e+000
903862500	-1.804461e+001	-1.412490e+002	-7.125230e+001	-5.843478e+001	-2.000000e+002	0.000000e+000	-2.000000e+002	0.000000e+000
903900000	-1.804817e+001	-1.414733e+002	-7.073474e+001	-5.488908e+001	-2.000000e+002	0.000000e+000	-2.000000e+002	0.000000e+000
903937500	-1.804573e+001	-1.416653e+002	-6.986780e+001	-6.016963e+001	-2.000000e+002	0.000000e+000	-2.000000e+002	0.000000e+000
903975000	-1.804361e+001	-1.418720e+002	-7.414827e+001	-3.482589e+001	-2.000000e+002	0.000000e+000	-2.000000e+002	0.000000e+000
904012500	-1.804362e+001	-1.421338e+002	-7.052952e+001	-5.980681e+001	-2.000000e+002	0.000000e+000	-2.000000e+002	0.000000e+000
904050000	-1.805407e+001	-1.423221e+002	-7.209316e+001	-6.427890e+001	-2.000000e+002	0.000000e+000	-2.000000e+002	0.000000e+000
904087500	-1.805315e+001	-1.424948e+002	-7.017977e+001	-8.304982e+001	-2.000000e+002	0.000000e+000	-2.000000e+002	0.000000e+000
904125000	-1.805662e+001	-1.427136e+002	-7.470773e+001	-5.046821e+001	-2.000000e+002	0.000000e+000	-2.000000e+002	0.000000e+000
904162500	-1.805818e+001	-1.429357e+002	-7.196960e+001	-8.240825e+001	-2.000000e+002	0.000000e+000	-2.000000e+002	0.000000e+000
904200000	-1.806698e+001	-1.430956e+002	-7.798171e+001	-9.053047e+001	-2.000000e+002	0.000000e+000	-2.000000e+002	0.000000e+000
904237500	-1.805865e+001	-1.432592e+002	-6.994454e+001	-7.382515e+001	-2.000000e+002	0.000000e+000	-2.000000e+002	0.000000e+000
904275000	-1.806701e+001	-1.435183e+002	-7.296533e+001	-6.486545e+001	-2.000000e+002	0.000000e+000	-2.000000e+002	0.000000e+000
904312500	-1.806175e+001	-1.436957e+002	-7.253683e+001	-4.318214e+001	-2.000000e+002	0.000000e+000	-2.000000e+002	0.000000e+000
904350000	-1.807767e+001	-1.439508e+002	-7.469613e+001	-9.157837e+001	-2.000000e+002	0.000000e+000	-2.000000e+002	0.000000e+000
904387500	-1.806466e+001	-1.441434e+002	-7.231180e+001	-7.398752e+001	-2.000000e+002	0.000000e+000	-2.000000e+002	0.000000e+000
904425000	-1.806684e+001	-1.443451e+002	-7.288257e+001	-5.405329e+001	-2.000000e+002	0.000000e+000	-2.000000e+002	0.000000e+000
904462500	-1.807007e+001	-1.445806e+002	-7.240572e+001	-8.207211e+001	-2.000000e+002	0.000000e+000	-2.000000e+002	0.000000e+000
904500000	-1.807234e+001	-1.447448e+002	-7.765904e+001	-7.413441e+001	-2.000000e+002	0.000000e+000	-2.000000e+002	0.000000e+000
904537500	-1.806341e+001	-1.449282e+002	-7.325913e+001	-6.208577e+001	-2.000000e+002	0.000000e+000	-2.000000e+002	0.000000e+000
904575000	-1.807327e+001	-1.450656e+002	-7.040946e+001	-7.831809e+001	-2.000000e+002	0.000000e+000	-2.000000e+002	0.000000e+000
904612500	-1.807335e+001	-1.453505e+002	-7.085096e+001	-5.234931e+001	-2.000000e+002	0.000000e+000	-2.000000e+002	0.000000e+000
904650000	-1.806919e+001	-1.455316e+002	-6.848456e+001	-6.372951e+001	-2.000000e+002	0.000000e+000	-2.000000e+002	0.000000e+000
904687500	-1.807720e+001	-1.457311e+002	-7.574056e+001	-1.078691e+002	-2.000000e+002	0.000000e+000	-2.000000e+002	0.000000e+000
904725000	-1.807729e+001	-1.459855e+002	-7.548908e+001	-7.787340e+001	-2.000000e+002	0.000000e+000	-2.000000e+002	0.000000e+000
904762500	-1.808416e+001	-1.461992e+002	-7.029599e+001	-6.737000e+001	-2.000000e+002	0.000000e+000	-2.000000e+002	0.000000e+000
904800000	-1.807505e+001	-1.463673e+002	-7.311605e+001	-7.336395e+001	-2.000000e+002	0.000000e+000	-2.000000e+002	0.000000e+000
904837500	-1.808156e+001	-1.465718e+002	-7.637648e+001	-1.082659e+002	-2.000000e+002	0.000000e+000	-2.000000e+002	0.000000e+000
904875000	-1.808431e+001	-1.468121e+002	-7.817772e+001	-6.499439e+001	-2.000000e+002	0.000000e+000	-2.000000e+002	0.000000e+000
904912500	-1.809143e+001	-1.469813e+002	-6.823817e+001	-7.430141e+001	-2.000000e+002	0.000000e+000	-2.000000e+002	0.000000e+000
904950000	-1.809552e+001	-1.471780e+002	-7.200890e+001	-7.290116e+001	-2.000000e+002	0.000000e+000	-2.000000e+002	0.000000e+000
904987500	-1.809265e+001	-1.473732e+002	-7.219516e+001	-8.827225e+001	-2.000000e+002	0.000000e+000	-2.000000e+002	0.000000e+000
905025000	-1.809425e+001	-1.475674e+002	-7.048323e+001	-5.871242e+001	-2.000000e+002	0.000000e+000	-2.000000e+002	0.000000e+000
905062500	-1.809271e+001	-1.477903e+002	-7.263858e+001	-6.701765e+001	-2.000000e+002	0.000000e+000	-2.000000e+002	0.000000e+000
905100000	-1.809890e+001	-1.479555e+002	-6.938137e+001	-8.400188e+001	-2.000000e+002	0.000000e+000	-2.000000e+002	0.000000e+000
905137500	-1.809981e+001	-1.481549e+002	-7.054582e+001	-8.908224e+001	-2.000000e+002	0.000000e+000	-2.000000e+002	0.000000e+000
905175000	-1.809930e+001	-1.483445e+002	-7.054589e+001	-7.785359e+001	-2.000000e+002	0.000000e+000	-2.000000e+002	0.000000e+000
905212500	-1.809792e+001	-1.484955e+002	-7.590093e+001	-7.765612e+001	-2.000000e+002	0.000000e+000	-2.000000e+002	0.000000e+000
905250000	-1.809957e+001	-1.487058e+002	-7.063820e+001	-7.133851e+001	-2.000000e+002	0.000000e+000	-2.000000e+002	0.000000e+000
905287500	-1.809011e+001	-1.488996e+002	-7.039068e+001	-7.928717e+001	-2.000000e+002	0.000000e+000	-2.000000e+002	0.000000e+000
905325000	-1.809386e+001	-1.491071e+002	-7.026983e+001	-7.860887e+001	-2.000000e+002	0.000000e+000	-2.000000e+002	0.000000e+000
905362500	-1.808782e+001	-1.492763e+002	-7.348978e+001	-7.845780e+001	-2.000000e+002	0.000000e+000	-2.000000e+002	0.000000e+000
905400000	-1.808594e+001	-1.495342e+002	-7.012745e+001	-1.029471e+002	-2.000000e+002	0.000000e+000	-2.000000e+002	0.000000e+000
905437500	-1.809047e+001	-1.497097e+002	-6.853670e+001	-7.246657e+001	-2.000000e+002	0.000000e+000	-2.000000e+002	0.000000e+000
905475000	-1.808313e+001	-1.499498e+002	-7.513124e+001	-7.903368e+001	-2.000000e+002	0.000000e+000	-2.000000e+002	0.000000e+000
905512500	-1.809356e+001	-1.500806e+002	-7.155056e+001	-7.403639e+001	-2.000000e+002	0.000000e+000	-2.000000e+002	0.000000e+000
905550000	-1.808956e+001	-1.503002e+002	-6.947082e+001	-7.827133e+001	-2.000000e+002	0.000000e+000	-2.000000e+002	0.000000e+000
905587500	-1.807906e+001	-1.505502e+002	-7.436144e+001	-7.312168e+001	-2.000000e+002	0.000000e+000	-2.000000e+002	0.000000e+000
905625000	-1.807704e+001	-1.508083e+002	-7.372082e+001	-8.228303e+001	-2.000000e+002	0.000000e+000	-2.000000e+002	0.000000e+000
905662500	-1.809025e+001	-1.510016e+002	-7.228317e+001	-1.012093e+002	-2.000000e+002	0.000000e+000	-2.000000e+002	0.000000e+000
