!Agilent Technologies,E5071C,MY46214392,A.11.36
!Date: Thu Feb 26 21:28:44 2026
!Data & Calibration Information:
!Freq	S11:NONE(--)	S21:NONE(--)	S12:NONE(--)	S22:NONE(--)
!PortZ  Port1:50+j0    Port2:50+j0
!Above PortZ is port z conversion or system Z0 setting when saving the data.
!When reading, reference impedance value at option line is always used.
# Hz S dB R 50
900000000	-1.806235e+001	-1.201034e+002	-6.985169e+001	-5.367435e+001	-2.000000e+002	0.000000e+000	-2.000000e+002	0.000000e+000
900037500	-1.805935e+001	-1.202805e+002	-6.857266e+001	-6.962274e+001	-2.000000e+002	0.000000e+000	-2.000000e+002	0.000000e+000
900075000	-1.806787e+001	-1.204918e+002	-7.138478e+001	-9.808258e+001	-2.000000e+002	0.000000e+000	-2.000000e+002	0.000000e+000
900112500	-1.805767e+001	-1.206580e+002	-6.770306e+001	-7.807916e+001	-2.000000e+002	0.000000e+000	-2.000000e+002	0.000000e+000
900150000	-1.806216e+001	-1.208581e+002	-6.749120e+001	-9.054506e+001	-2.000000e+002	0.000000e+000	-2.000000e+002	0.000000e+000
900187500	-1.805664e+001	-1.210877e+002	-7.027969e+001	-5.677375e+001	-2.000000e+002	0.000000e+000	-2.000000e+002	0.000000e+000
900225000	-1.805817e+001	-1.212441e+002	-7.122808e+001	-9.812501e+001	-2.000000e+002	0.000000e+000	-2.000000e+002	0.000000e+000
900262500	-1.805590e+001	-1.214895e+002	-7.017484e+001	-5.701909e+001	-2.000000e+002	0.000000e+000	-2.000000e+002	0.000000e+000
900300000	-1.805992e+001	-1.216154e+002	-6.848182e+001	-7.010105e+001	-2.000000e+002	0.000000e+000	-2.000000e+002	0.000000e+000
900337500	-1.805438e+001	-1.218451e+002	-7.107087e+001	-4.672674e+001	-2.000000e+002	0.000000e+000	-2.000000e+002	0.000000e+000
900375000	-1.805872e+001	-1.220396e+002	-6.961294e+001	-7.586863e+001	-2.000000e+002	0.000000e+000	-2.000000e+002	0.000000e+000
900412500	-1.805380e+001	-1.222096e+002	-6.921643e+001	-7.850305e+001	-2.000000e+002	0.000000e+000	-2.000000e+002	0.000000e+000
900450000	-1.805327e+001	-1.224047e+002	-6.990174e+001	-7.966035e+001	-2.000000e+002	0.000000e+000	-2.000000e+002	0.000000e+000
900487500	-1.805918e+001	-1.226629e+002	-6.679070e+001	-8.286823e+001	-2.000000e+002	0.000000e+000	-2.000000e+002	0.000000e+000
900525000	-1.805927e+001	-1.228053e+002	-7.451951e+001	-8.091489e+001	-2.000000e+002	0.000000e+000	-2.000000e+002	0.000000e+000
900562500	-1.805346e+001	-1.230876e+002	-7.009114e+001	-8.098433e+001	-2.000000e+002	0.000000e+000	-2.000000e+002	0.000000e+000
900600000	-1.805810e+001	-1.232472e+002	-6.920760e+001	-8.445752e+001	-2.000000e+002	0.000000e+000	-2.000000e+002	0.000000e+000
900637500	-1.805706e+001	-1.234618e+002	-6.865358e+001	-7.335532e+001	-2.000000e+002	0.000000e+000	-2.000000e+002	0.000000e+000
900675000	-1.804893e+001	-1.236617e+002	-6.944789e+001	-1.073662e+002	-2.000000e+002	0.000000e+000	-2.000000e+002	0.000000e+000
900712500	-1.805048e+001	-1.238709e+002	-6.929863e+001	-7.562610e+001	-2.000000e+002	0.000000e+000	-2.000000e+002	0.000000e+000
900750000	-1.805159e+001	-1.240481e+002	-7.022812e+001	-9.372063e+001	-2.000000e+002	0.000000e+000	-2.000000e+002	0.000000e+000
900787500	-1.805004e+001	-1.242027e+002	-7.152501e+001	-1.107064e+002	-2.000000e+002	0.000000e+000	-2.000000e+002	0.000000e+000
900825000	-1.804643e+001	-1.244607e+002	-6.948458e+001	-7.714669e+001	-2.000000e+002	0.000000e+000	-2.000000e+002	0.000000e+000
900862500	-1.805002e+001	-1.246385e+002	-7.094973e+001	-7.403174e+001	-2.000000e+002	0.000000e+000	-2.000000e+002	0.000000e+000
900900000	-1.804709e+001	-1.247966e+002	-6.885225e+001	-8.308964e+001	-2.000000e+002	0.000000e+000	-2.000000e+002	0.000000e+000
900937500	-1.804636e+001	-1.249786e+002	-6.753968e+001	-7.325413e+001	-2.000000e+002	0.000000e+000	-2.000000e+002	0.000000e+000
900975000	-1.805560e+001	-1.251577e+002	-6.773446e+001	-7.689343e+001	-2.000000e+002	0.000000e+000	-2.000000e+002	0.000000e+000
901012500	-1.804384e+001	-1.254105e+002	-7.207955e+001	-8.536060e+001	-2.000000e+002	0.000000e+000	-2.000000e+002	0.000000e+000
901050000	-1.805001e+001	-1.255987e+002	-6.811074e+001	-7.410843e+001	-2.000000e+002	0.000000e+000	-2.000000e+002	0.000000e+000
901087500	-1.804085e+001	-1.258088e+002	-6.933836e+001	-9.159610e+001	-2.000000e+002	0.000000e+000	-2.000000e+002	0.000000e+000
901125000	-1.803554e+001	-1.259835e+002	-6.924847e+001	-9.115770e+001	-2.000000e+002	0.000000e+000	-2.000000e+002	0.000000e+000
901162500	-1.804269e+001	-1.261747e+002	-6.925614e+001	-7.806670e+001	-2.000000e+002	0.000000e+000	-2.000000e+002	0.000000e+000
901200000	-1.803794e+001	-1.263782e+002	-6.970188e+001	-8.927925e+001	-2.000000e+002	0.000000e+000	-2.000000e+002	0.000000e+000
901237500	-1.803930e+001	-1.266112e+002	-7.001626e+001	-7.323762e+001	-2.000000e+002	0.000000e+000	-2.000000e+002	0.000000e+000
901275000	-1.804582e+001	-1.267828e+002	-6.864261e+001	-8.689576e+001	-2.000000e+002	0.000000e+000	-2.000000e+002	0.000000e+000
901312500	-1.803310e+001	-1.269809e+002	-7.134012e+001	-9.487618e+001	-2.000000e+002	0.000000e+000	-2.000000e+002	0.000000e+000
901350000	-1.804636e+001	-1.271453e+002	-7.031336e+001	-5.569924e+001	-2.000000e+002	0.000000e+000	-2.000000e+002	0.000000e+000
901387500	-1.803567e+001	-1.273764e+002	-6.890217e+001	-1.008745e+002	-2.000000e+002	0.000000e+000	-2.000000e+002	0.000000e+000
901425000	-1.804152e+001	-1.276277e+002	-7.105474e+001	-6.691811e+001	-2.000000e+002	0.000000e+000	-2.000000e+002	0.000000e+000
901462500	-1.803533e+001	-1.278433e+002	-6.885695e+001	-1.025338e+002	-2.000000e+002	0.000000e+000	-2.000000e+002	0.000000e+000
901500000	-1.803209e+001	-1.280284e+002	-6.747926e+001	-8.095538e+001	-2.000000e+002	0.000000e+000	-2.000000e+002	0.000000e+000
901537500	-1.802836e+001	-1.281659e+002	-6.967275e+001	-9.259153e+001	-2.000000e+002	0.000000e+000	-2.000000e+002	0.000000e+000
901575000	-1.803505e+001	-1.284225e+002	-6.784846e+001	-9.815974e+001	-2.000000e+002	0.000000e+000	-2.000000e+002	0.000000e+000
901612500	-1.803039e+001	-1.285673e+002	-6.919017e+001	-9.663907e+001	-2.000000e+002	0.000000e+000	-2.000000e+002	0.000000e+000
901650000	-1.803100e+001	-1.287867e+002	-6.993849e+001	-8.872311e+001	-2.000000e+002	0.000000e+000	-2.000000e+002	0.000000e+000
901687500	-1.802604e+001	-1.290258e+002	-6.906203e+001	-9.449852e+001	-2.000000e+002	0.000000e+000	-2.000000e+002	0.000000e+000
901725000	-1.802655e+001	-1.292101e+002	-6.809586e+001	-8.688759e+001	-2.000000e+002	0.000000e+000	-2.000000e+002	0.000000e+000
901762500	-1.802478e+001	-1.294430e+002	-7.032424e+001	-7.465877e+001	-2.000000e+002	0.000000e+000	-2.000000e+002	0.000000e+000
901800000	-1.802408e+001	-1.295761e+002	-7.000347e+001	-7.206639e+001	-2.000000e+002	0.000000e+000	-2.000000e+002	0.000000e+000
901837500	-1.802120e+001	-1.298325e+002	-6.739267e+001	-8.507448e+001	-2.000000e+002	0.000000e+000	-2.000000e+002	0.000000e+000
901875000	-1.801302e+001	-1.300492e+002	-6.721028e+001	-8.411041e+001	-2.000000e+002	0.000000e+000	-2.000000e+002	0.000000e+000
901912500	-1.802427e+001	-1.302388e+002	-6.898528e+001	-8.213574e+001	-2.000000e+002	0.000000e+000	-2.000000e+002	0.000000e+000
901950000	-1.801545e+001	-1.304457e+002	-6.774627e+001	-1.023522e+002	-2.000000e+002	0.000000e+000	-2.000000e+002	0.000000e+000
901987500	-1.802243e+001	-1.306023e+002	-6.822267e+001	-1.001436e+002	-2.000000e+002	0.000000e+000	-2.000000e+002	0.000000e+000
902025000	-1.801422e+001	-1.309113e+002	-6.624242e+001	-1.132346e+002	-2.000000e+002	0.000000e+000	-2.000000e+002	0.000000e+000
902062500	-1.801518e+001	-1.311156e+002	-6.970243e+001	-8.424498e+001	-2.000000e+002	0.000000e+000	-2.000000e+002	0.000000e+000
902100000	-1.800536e+001	-1.312465e+002	-6.757330e+001	-8.818480e+001	-2.000000e+002	0.000000e+000	-2.000000e+002	0.000000e+000
902137500	-1.800118e+001	-1.315417e+002	-6.873569e+001	-9.772586e+001	-2.000000e+002	0.000000e+000	-2.000000e+002	0.000000e+000
902175000	-1.800460e+001	-1.317597e+002	-6.838665e+001	-8.769549e+001	-2.000000e+002	0.000000e+000	-2.000000e+002	0.000000e+000
902212500	-1.799642e+001	-1.319310e+002	-7.042090e+001	-1.042675e+002	-2.000000e+002	0.000000e+000	-2.000000e+002	0.000000e+000
902250000	-1.800433e+001	-1.321354e+002	-6.839673e+001	-9.727466e+001	-2.000000e+002	0.000000e+000	-2.000000e+002	0.000000e+000
902287500	-1.799262e+001	-1.323821e+002	-7.094596e+001	-9.955275e+001	-2.000000e+002	0.000000e+000	-2.000000e+002	0.000000e+000
902325000	-1.799517e+001	-1.325640e+002	-6.796312e+001	-9.141122e+001	-2.000000e+002	0.000000e+000	-2.000000e+002	0.000000e+000
902362500	-1.799009e+001	-1.327935e+002	-6.791498e+001	-1.030094e+002	-2.000000e+002	0.000000e+000	-2.000000e+002	0.000000e+000
902400000	-1.798831e+001	-1.330442e+002	-6.675412e+001	-1.075285e+002	-2.000000e+002	0.000000e+000	-2.000000e+002	0.000000e+000
902437500	-1.798302e+001	-1.332339e+002	-6.926094e+001	-9.865201e+001	-2.000000e+002	0.000000e+000	-2.000000e+002	0.000000e+000
902475000	-1.798604e+001	-1.334985e+002	-6.927096e+001	-1.193703e+002	-2.000000e+002	0.000000e+000	-2.000000e+002	0.000000e+000
902512500	-1.799172e+001	-1.336462e+002	-6.949590e+001	-9.185162e+001	-2.000000e+002	0.000000e+000	-2.000000e+002	0.000000e+000
902550000	-1.798805e+001	-1.339403e+002	-6.805807e+001	-1.006040e+002	-2.000000e+002	0.000000e+000	-2.000000e+002	0.000000e+000
902587500	-1.799295e+001	-1.342063e+002	-6.842326e+001	-7.969816e+001	-2.000000e+002	0.000000e+000	-2.000000e+002	0.000000e+000
902625000	-1.798942e+001	-1.344842e+002	-7.019202e+001	-9.996591e+001	-2.000000e+002	0.000000e+000	-2.000000e+002	0.000000e+000
902662500	-1.799291e+001	-1.346950e+002	-6.972522e+001	-1.110967e+002	-2.000000e+002	0.000000e+000	-2.000000e+002	0.000000e+000
902700000	-1.799841e+001	-1.349072e+002	-7.057243e+001	-8.363727e+001	-2.000000e+002	0.000000e+000	-2.000000e+002	0.000000e+000
902737500	-1.799977e+001	-1.350646e+002	-7.024036e+001	-1.078460e+002	-2.000000e+002	0.000000e+000	-2.000000e+002	0.000000e+000
902775000	-1.800691e+001	-1.353306e+002	-6.914683e+001	-1.129887e+002	-2.000000e+002	0.000000e+000	-2.000000e+002	0.000000e+000
902812500	-1.801310e+001	-1.356047e+002	-6.682350e+001	-9.569799e+001	-2.000000e+002	0.000000e+000	-2.000000e+002	0.000000e+000
902850000	-1.801701e+001	-1.357638e+002	-6.809768e+001	-1.151476e+002	-2.000000e+002	0.000000e+000	-2.000000e+002	0.000000e+000
902887500	-1.803168e+001	-1.359315e+002	-6.920130e+001	-8.636841e+001	-2.000000e+002	0.000000e+000	-2.000000e+002	0.000000e+000
902925000	-1.802415e+001	-1.361527e+002	-6.908599e+001	-1.164491e+002	-2.000000e+002	0.000000e+000	-2.000000e+002	0.000000e+000
902962500	-1.803214e+001	-1.363795e+002	-7.072633e+001	-9.939519e+001	-2.000000e+002	0.000000e+000	-2.000000e+002	0.000000e+000
903000000	-1.802449e+001	-1.365336e+002	-6.578819e+001	-1.026085e+002	-2.000000e+002	0.000000e+000	-2.000000e+002	0.000000e+000
903037500	-1.802510e+001	-1.367172e+002	-7.164876e+001	-1.156809e+002	-2.000000e+002	0.000000e+000	-2.000000e+002	0.000000e+000
903075000	-1.803314e+001	-1.368874e+002	-6.951860e+001	-1.093268e+002	-2.000000e+002	0.000000e+000	-2.000000e+002	0.000000e+000
903112500	-1.802873e+001	-1.371193e+002	-6.978374e+001	-1.052575e+002	-2.000000e+002	0.000000e+000	-2.000000e+002	0.000000e+000
903150000	-1.803087e+001	-1.372982e+002	-6.844184e+001	-1.065235e+002	-2.000000e+002	0.000000e+000	-2.000000e+002	0.000000e+000
903187500	-1.803113e+001	-1.374866e+002	-6.784956e+001	-1.061056e+002	-2.000000e+002	0.000000e+000	-2.000000e+002	0.000000e+000
903225000	-1.802737e+001	-1.376714e+002	-6.895997e+001	-1.214900e+002	-2.000000e+002	0.000000e+000	-2.000000e+002	0.000000e+000
903262500	-1.802969e+001	-1.378868e+002	-6.744832e+001	-1.274737e+002	-2.000000e+002	0.000000e+000	-2.000000e+002	0.000000e+000
903300000	-1.802231e+001	-1.381374e+002	-6.873525e+001	-9.926052e+001	-2.000000e+002	0.000000e+000	-2.000000e+002	0.000000e+000
903337500	-1.802592e+001	-1.383420e+002	-6.705828e+001	-1.127483e+002	-2.000000e+002	0.000000e+000	-2.000000e+002	0.000000e+000
903375000	-1.802834e+001	-1.385426e+002	-6.797329e+001	-1.092249e+002	-2.000000e+002	0.000000e+000	-2.000000e+002	0.000000e+000
903412500	-1.802271e+001	-1.387682e+002	-6.756864e+001	-1.106482e+002	-2.000000e+002	0.000000e+000	-2.000000e+002	0.000000e+000
903450000	-1.802782e+001	-1.389955e+002	-6.883106e+001	-1.039741e+002	-2.000000e+002	0.000000e+000	-2.000000e+002	0.000000e+000
903487500	-1.803533e+001	-1.391656e+002	-6.664802e+001	-1.118971e+002	-2.000000e+002	0.000000e+000	-2.000000e+002	0.000000e+000
903525000	-1.802886e+001	-1.393881e+002	-6.916392e+001	-1.212552e+002	-2.000000e+002	0.000000e+000	-2.000000e+002	0.000000e+000
903562500	-1.802513e+001	-1.396447e+002	-6.704961e+001	-1.143134e+002	-2.000000e+002	0.000000e+000	-2.000000e+002	0.000000e+000
903600000	-1.803142e+001	-1.398268e+002	-6.598862e+001	-1.236714e+002	-2.000000e+002	0.000000e+000	-2.000000e+002	0.000000e+000
903637500	-1.802819e+001	-1.400621e+002	-6.850842e+001	-1.256399e+002	-2.000000e+002	0.000000e+000	-2.000000e+002	0.000000e+000
903675000	-1.803361e+001	-1.402722e+002	-7.233194e+001	-1.262792e+002	-2.000000e+002	0.000000e+000	-2.000000e+002	0.000000e+000
903712500	-1.803934e+001	-1.404758e+002	-6.972767e+001	-1.222839e+002	-2.000000e+002	0.000000e+000	-2.000000e+002	0.000000e+000
903750000	-1.803711e+001	-1.407111e+002	-6.723246e+001	-1.165909e+002	-2.000000e+002	0.000000e+000	-2.000000e+002	0.000000e+000
903787500	-1.803303e+001	-1.408905e+002	-6.649476e+001	-1.020210e+002	-2.000000e+002	0.000000e+000	-2.000000e+002	0.000000e+000
903825000	-1.803934e+001	-1.411049e+002	-6.987101e+001	-1.156835e+002	-2.000000e+002	0.000000e+000	-2.000000e+002	0.000000e+000
903862500	-1.804538e+001	-1.412988e+002	-6.815002e+001	-1.230677e+002	-2.000000e+002	0.000000e+000	-2.000000e+002	0.000000e+000
903900000	-1.804004e+001	-1.415574e+002	-6.845566e+001	-1.267210e+002	-2.000000e+002	0.000000e+000	-2.000000e+002	0.000000e+000
903937500	-1.803935e+001	-1.417553e+002	-6.673582e+001	-1.091839e+002	-2.000000e+002	0.000000e+000	-2.000000e+002	0.000000e+000
903975000	-1.805724e+001	-1.419298e+002	-6.610635e+001	-1.188401e+002	-2.000000e+002	0.000000e+000	-2.000000e+002	0.000000e+000
904012500	-1.804780e+001	-1.421759e+002	-6.808911e+001	-1.310341e+002	-2.000000e+002	0.000000e+000	-2.000000e+002	0.000000e+000
904050000	-1.805487e+001	-1.422995e+002	-6.487258e+001	-1.199574e+002	-2.000000e+002	0.000000e+000	-2.000000e+002	0.000000e+000
904087500	-1.805604e+001	-1.426170e+002	-6.710207e+001	-1.311889e+002	-2.000000e+002	0.000000e+000	-2.000000e+002	0.000000e+000
904125000	-1.806111e+001	-1.427620e+002	-6.708095e+001	-1.209925e+002	-2.000000e+002	0.000000e+000	-2.000000e+002	0.000000e+000
904162500	-1.805407e+001	-1.429725e+002	-6.573214e+001	-1.171453e+002	-2.000000e+002	0.000000e+000	-2.000000e+002	0.000000e+000
904200000	-1.805718e+001	-1.431430e+002	-6.631625e+001	-1.373155e+002	-2.000000e+002	0.000000e+000	-2.000000e+002	0.000000e+000
904237500	-1.806194e+001	-1.433840e+002	-6.661566e+001	-1.177243e+002	-2.000000e+002	0.000000e+000	-2.000000e+002	0.000000e+000
904275000	-1.805966e+001	-1.435480e+002	-6.890787e+001	-1.424612e+002	-2.000000e+002	0.000000e+000	-2.000000e+002	0.000000e+000
904312500	-1.806069e+001	-1.437857e+002	-6.667550e+001	-1.213597e+002	-2.000000e+002	0.000000e+000	-2.000000e+002	0.000000e+000
904350000	-1.807224e+001	-1.439927e+002	-6.653781e+001	-1.163283e+002	-2.000000e+002	0.000000e+000	-2.000000e+002	0.000000e+000
904387500	-1.806084e+001	-1.441759e+002	-6.739055e+001	-1.121775e+002	-2.000000e+002	0.000000e+000	-2.000000e+002	0.000000e+000
904425000	-1.807222e+001	-1.443850e+002	-6.664004e+001	-1.325850e+002	-2.000000e+002	0.000000e+000	-2.000000e+002	0.000000e+000
904462500	-1.807084e+001	-1.445975e+002	-6.831238e+001	-1.373480e+002	-2.000000e+002	0.000000e+000	-2.000000e+002	0.000000e+000
904500000	-1.807024e+001	-1.447539e+002	-6.589077e+001	-1.189734e+002	-2.000000e+002	0.000000e+000	-2.000000e+002	0.000000e+000
904537500	-1.807590e+001	-1.449994e+002	-6.560902e+001	-1.250261e+002	-2.000000e+002	0.000000e+000	-2.000000e+002	0.000000e+000
904575000	-1.807601e+001	-1.452269e+002	-6.939803e+001	-1.316547e+002	-2.000000e+002	0.000000e+000	-2.000000e+002	0.000000e+000
904612500	-1.807840e+001	-1.454332e+002	-6.661379e+001	-1.460965e+002	-2.000000e+002	0.000000e+000	-2.000000e+002	0.000000e+000
904650000	-1.806902e+001	-1.456292e+002	-6.652381e+001	-1.207241e+002	-2.000000e+002	0.000000e+000	-2.000000e+002	0.000000e+000
904687500	-1.806943e+001	-1.458386e+002	-6.850126e+001	-1.321706e+002	-2.000000e+002	0.000000e+000	-2.000000e+002	0.000000e+000
904725000	-1.806780e+001	-1.460135e+002	-6.730157e+001	-1.329479e+002	-2.000000e+002	0.000000e+000	-2.000000e+002	0.000000e+000
904762500	-1.807823e+001	-1.462350e+002	-6.745935e+001	-1.234245e+002	-2.000000e+002	0.000000e+000	-2.000000e+002	0.000000e+000
904800000	-1.808321e+001	-1.464418e+002	-6.547268e+001	-1.279530e+002	-2.000000e+002	0.000000e+000	-2.000000e+002	0.000000e+000
904837500	-1.808432e+001	-1.466011e+002	-6.634675e+001	-1.313695e+002	-2.000000e+002	0.000000e+000	-2.000000e+002	0.000000e+000
904875000	-1.808086e+001	-1.468510e+002	-6.718467e+001	-1.118353e+002	-2.000000e+002	0.000000e+000	-2.000000e+002	0.000000e+000
904912500	-1.809220e+001	-1.470638e+002	-6.727830e+001	-1.322120e+002	-2.000000e+002	0.000000e+000	-2.000000e+002	0.000000e+000
904950000	-1.809286e+001	-1.471710e+002	-6.584471e+001	-1.397923e+002	-2.000000e+002	0.000000e+000	-2.000000e+002	0.000000e+000
904987500	-1.807711e+001	-1.474110e+002	-6.584619e+001	-1.391018e+002	-2.000000e+002	0.000000e+000	-2.000000e+002	0.000000e+000
905025000	-1.808980e+001	-1.476504e+002	-6.581792e+001	-1.250269e+002	-2.000000e+002	0.000000e+000	-2.000000e+002	0.000000e+000
905062500	-1.808979e+001	-1.478041e+002	-6.568931e+001	-1.334172e+002	-2.000000e+002	0.000000e+000	-2.000000e+002	0.000000e+000
905100000	-1.808268e+001	-1.480004e+002	-6.646123e+001	-1.336523e+002	-2.000000e+002	0.000000e+000	-2.000000e+002	0.000000e+000
905137500	-1.810097e+001	-1.482104e+002	-6.491355e+001	-1.248177e+002	-2.000000e+002	0.000000e+000	-2.000000e+002	0.000000e+000
905175000	-1.809659e+001	-1.484005e+002	-6.793695e+001	-1.436341e+002	-2.000000e+002	0.000000e+000	-2.000000e+002	0.000000e+000
905212500	-1.809907e+001	-1.486055e+002	-6.599911e+001	-1.420864e+002	-2.000000e+002	0.000000e+000	-2.000000e+002	0.000000e+000
905250000	-1.809103e+001	-1.487965e+002	-6.600092e+001	-1.546852e+002	-2.000000e+002	0.000000e+000	-2.000000e+002	0.000000e+000
905287500	-1.809738e+001	-1.489681e+002	-6.637478e+001	-1.324509e+002	-2.000000e+002	0.000000e+000	-2.000000e+002	0.000000e+000
905325000	-1.809410e+001	-1.491434e+002	-6.701601e+001	-1.410424e+002	-2.000000e+002	0.000000e+000	-2.000000e+002	0.000000e+000
905362500	-1.809889e+001	-1.493937e+002	-6.610216e+001	-1.298073e+002	-2.000000e+002	0.000000e+000	-2.000000e+002	0.000000e+000
905400000	-1.808948e+001	-1.495253e+002	-6.612590e+001	-1.452704e+002	-2.000000e+002	0.000000e+000	-2.000000e+002	0.000000e+000
905437500	-1.808555e+001	-1.497381e+002	-6.716488e+001	-1.407298e+002	-2.000000e+002	0.000000e+000	-2.000000e+002	0.000000e+000
905475000	-1.808311e+001	-1.499544e+002	-6.580571e+001	-1.289059e+002	-2.000000e+002	0.000000e+000	-2.000000e+002	0.000000e+000
905512500	-1.807940e+001	-1.501905e+002	-6.624956e+001	-1.378009e+002	-2.000000e+002	0.000000e+000	-2.000000e+002	0.000000e+000
905550000	-1.808113e+001	-1.504295e+002	-6.621846e+001	-1.367850e+002	-2.000000e+002	0.000000e+000	-2.000000e+002	0.000000e+000
905587500	-1.808713e+001	-1.506018e+002	-6.468020e+001	-1.520262e+002	-2.000000e+002	0.000000e+000	-2.000000e+002	0.000000e+000
905625000	-1.808308e+001	-1.508488e+002	-6.459701e+001	-1.373796e+002	-2.000000e+002	0.000000e+000	-2.000000e+002	0.000000e+000
905662500	-1.808812e+001	-1.511002e+002	-6.643712e+001	-1.353793e+002	-2.000000e+002	0.000000e+000	-2.000000e+002	0.000000e+000
