!Agilent Technologies,E5071C,MY46214392,A.11.36
!Date: Thu Feb 26 21:47:15 2026
!Data & Calibration Information:
!Freq	S11:NONE(--)	S21:NONE(--)	S12:NONE(--)	S22:NONE(--)
!PortZ  Port1:50+j0    Port2:50+j0
!Above PortZ is port z conversion or system Z0 setting when saving the data.
!When reading, reference impedance value at option line is always used.
# Hz S dB R 50
900000000	-1.803448e+001	-1.199271e+002	-8.476872e+001	-1.589261e+002	-2.000000e+002	0.000000e+000	-2.000000e+002	0.000000e+000
900037500	-1.803755e+001	-1.200820e+002	-8.198098e+001	-1.425059e+002	-2.000000e+002	0.000000e+000	-2.000000e+002	0.000000e+000
900075000	-1.803104e+001	-1.203129e+002	-8.260460e+001	-1.629745e+002	-2.000000e+002	0.000000e+000	-2.000000e+002	0.000000e+000
900112500	-1.802933e+001	-1.204530e+002	-7.476287e+001	-1.532215e+002	-2.000000e+002	0.000000e+000	-2.000000e+002	0.000000e+000
900150000	-1.803251e+001	-1.206518e+002	-8.264851e+001	-1.549930e+002	-2.000000e+002	0.000000e+000	-2.000000e+002	0.000000e+000
900187500	-1.803506e+001	-1.208738e+002	-7.257085e+001	-1.422633e+002	-2.000000e+002	0.000000e+000	-2.000000e+002	0.000000e+000
900225000	-1.802453e+001	-1.210861e+002	-7.748644e+001	-9.569080e+001	-2.000000e+002	0.000000e+000	-2.000000e+002	0.000000e+000
900262500	-1.804089e+001	-1.212336e+002	-7.605084e+001	-1.594253e+002	-2.000000e+002	0.000000e+000	-2.000000e+002	0.000000e+000
900300000	-1.802603e+001	-1.214630e+002	-7.690690e+001	-1.360962e+002	-2.000000e+002	0.000000e+000	-2.000000e+002	0.000000e+000
900337500	-1.803483e+001	-1.216664e+002	-7.995754e+001	-1.576625e+002	-2.000000e+002	0.000000e+000	-2.000000e+002	0.000000e+000
900375000	-1.803751e+001	-1.218909e+002	-7.376266e+001	-1.635816e+002	-2.000000e+002	0.000000e+000	-2.000000e+002	0.000000e+000
900412500	-1.802145e+001	-1.220307e+002	-8.387417e+001	-8.345091e+001	-2.000000e+002	0.000000e+000	-2.000000e+002	0.000000e+000
900450000	-1.803834e+001	-1.222730e+002	-7.497940e+001	-1.534858e+002	-2.000000e+002	0.000000e+000	-2.000000e+002	0.000000e+000
900487500	-1.802940e+001	-1.224859e+002	-7.892041e+001	1.653473e+002	-2.000000e+002	0.000000e+000	-2.000000e+002	0.000000e+000
900525000	-1.803054e+001	-1.226300e+002	-7.938283e+001	-1.622537e+002	-2.000000e+002	0.000000e+000	-2.000000e+002	0.000000e+000
900562500	-1.803271e+001	-1.228624e+002	-7.457845e+001	-1.558854e+002	-2.000000e+002	0.000000e+000	-2.000000e+002	0.000000e+000
900600000	-1.802819e+001	-1.230635e+002	-7.399709e+001	-1.575703e+002	-2.000000e+002	0.000000e+000	-2.000000e+002	0.000000e+000
900637500	-1.802134e+001	-1.232247e+002	-8.165585e+001	-1.381573e+002	-2.000000e+002	0.000000e+000	-2.000000e+002	0.000000e+000
900675000	-1.803604e+001	-1.234702e+002	-8.118684e+001	-6.027237e+001	-2.000000e+002	0.000000e+000	-2.000000e+002	0.000000e+000
900712500	-1.803139e+001	-1.236219e+002	-8.505597e+001	1.643362e+002	-2.000000e+002	0.000000e+000	-2.000000e+002	0.000000e+000
900750000	-1.803567e+001	-1.238225e+002	-9.036189e+001	3.520123e+001	-2.000000e+002	0.000000e+000	-2.000000e+002	0.000000e+000
900787500	-1.803102e+001	-1.239779e+002	-7.523588e+001	-1.511953e+002	-2.000000e+002	0.000000e+000	-2.000000e+002	0.000000e+000
900825000	-1.803282e+001	-1.242210e+002	-7.463957e+001	-1.498270e+002	-2.000000e+002	0.000000e+000	-2.000000e+002	0.000000e+000
900862500	-1.803072e+001	-1.244338e+002	-7.577936e+001	-1.724787e+002	-2.000000e+002	0.000000e+000	-2.000000e+002	0.000000e+000
900900000	-1.802826e+001	-1.246543e+002	-7.672881e+001	-1.618671e+002	-2.000000e+002	0.000000e+000	-2.000000e+002	0.000000e+000
900937500	-1.802886e+001	-1.248368e+002	-7.693204e+001	-1.026608e+002	-2.000000e+002	0.000000e+000	-2.000000e+002	0.000000e+000
900975000	-1.802703e+001	-1.250001e+002	-8.046698e+001	-1.072330e+002	-2.000000e+002	0.000000e+000	-2.000000e+002	0.000000e+000
901012500	-1.802337e+001	-1.251874e+002	-8.155842e+001	1.595825e+002	-2.000000e+002	0.000000e+000	-2.000000e+002	0.000000e+000
901050000	-1.802282e+001	-1.254180e+002	-8.220398e+001	-1.583249e+002	-2.000000e+002	0.000000e+000	-2.000000e+002	0.000000e+000
901087500	-1.802624e+001	-1.255962e+002	-7.981099e+001	-1.131022e+002	-2.000000e+002	0.000000e+000	-2.000000e+002	0.000000e+000
901125000	-1.801023e+001	-1.257914e+002	-7.935636e+001	-1.101237e+002	-2.000000e+002	0.000000e+000	-2.000000e+002	0.000000e+000
901162500	-1.801834e+001	-1.259843e+002	-7.443303e+001	-1.601821e+002	-2.000000e+002	0.000000e+000	-2.000000e+002	0.000000e+000
901200000	-1.802371e+001	-1.261748e+002	-7.940661e+001	-1.661335e+002	-2.000000e+002	0.000000e+000	-2.000000e+002	0.000000e+000
901237500	-1.802569e+001	-1.264525e+002	-8.151163e+001	-1.494905e+002	-2.000000e+002	0.000000e+000	-2.000000e+002	0.000000e+000
901275000	-1.801262e+001	-1.266014e+002	-7.883242e+001	-1.253699e+002	-2.000000e+002	0.000000e+000	-2.000000e+002	0.000000e+000
901312500	-1.801479e+001	-1.268106e+002	-8.785507e+001	-1.604713e+002	-2.000000e+002	0.000000e+000	-2.000000e+002	0.000000e+000
901350000	-1.801213e+001	-1.269743e+002	-7.302006e+001	1.662318e+002	-2.000000e+002	0.000000e+000	-2.000000e+002	0.000000e+000
901387500	-1.801541e+001	-1.271659e+002	-9.659459e+001	1.719258e+002	-2.000000e+002	0.000000e+000	-2.000000e+002	0.000000e+000
901425000	-1.801256e+001	-1.274115e+002	-7.463454e+001	-1.374468e+002	-2.000000e+002	0.000000e+000	-2.000000e+002	0.000000e+000
901462500	-1.801284e+001	-1.276460e+002	-7.494093e+001	-1.436421e+002	-2.000000e+002	0.000000e+000	-2.000000e+002	0.000000e+000
901500000	-1.800861e+001	-1.277907e+002	-7.516763e+001	-1.542576e+002	-2.000000e+002	0.000000e+000	-2.000000e+002	0.000000e+000
901537500	-1.801568e+001	-1.279670e+002	-8.139496e+001	-1.678480e+002	-2.000000e+002	0.000000e+000	-2.000000e+002	0.000000e+000
901575000	-1.800874e+001	-1.282739e+002	-7.505016e+001	-1.790317e+002	-2.000000e+002	0.000000e+000	-2.000000e+002	0.000000e+000
901612500	-1.801062e+001	-1.283965e+002	-7.791941e+001	-1.674227e+002	-2.000000e+002	0.000000e+000	-2.000000e+002	0.000000e+000
901650000	-1.800680e+001	-1.286464e+002	-7.625083e+001	-1.599961e+002	-2.000000e+002	0.000000e+000	-2.000000e+002	0.000000e+000
901687500	-1.800389e+001	-1.288202e+002	-7.924942e+001	-1.679765e+002	-2.000000e+002	0.000000e+000	-2.000000e+002	0.000000e+000
901725000	-1.799681e+001	-1.290330e+002	-7.550177e+001	1.278949e+002	-2.000000e+002	0.000000e+000	-2.000000e+002	0.000000e+000
901762500	-1.800313e+001	-1.292133e+002	-7.997664e+001	-1.447163e+002	-2.000000e+002	0.000000e+000	-2.000000e+002	0.000000e+000
901800000	-1.799258e+001	-1.294437e+002	-8.213419e+001	1.780124e+002	-2.000000e+002	0.000000e+000	-2.000000e+002	0.000000e+000
901837500	-1.799508e+001	-1.295830e+002	-7.479161e+001	-1.734663e+002	-2.000000e+002	0.000000e+000	-2.000000e+002	0.000000e+000
901875000	-1.799983e+001	-1.298829e+002	-7.951557e+001	-1.288937e+002	-2.000000e+002	0.000000e+000	-2.000000e+002	0.000000e+000
901912500	-1.799456e+001	-1.300295e+002	-7.591814e+001	-1.560561e+002	-2.000000e+002	0.000000e+000	-2.000000e+002	0.000000e+000
901950000	-1.799599e+001	-1.302413e+002	-7.949136e+001	1.737243e+002	-2.000000e+002	0.000000e+000	-2.000000e+002	0.000000e+000
901987500	-1.799335e+001	-1.304663e+002	-8.382810e+001	-1.777820e+002	-2.000000e+002	0.000000e+000	-2.000000e+002	0.000000e+000
902025000	-1.799237e+001	-1.306566e+002	-7.408113e+001	-1.506613e+002	-2.000000e+002	0.000000e+000	-2.000000e+002	0.000000e+000
902062500	-1.799366e+001	-1.308283e+002	-7.582380e+001	1.783668e+002	-2.000000e+002	0.000000e+000	-2.000000e+002	0.000000e+000
902100000	-1.799222e+001	-1.310615e+002	-7.764773e+001	1.176405e+002	-2.000000e+002	0.000000e+000	-2.000000e+002	0.000000e+000
902137500	-1.798662e+001	-1.312986e+002	-8.246186e+001	1.774815e+002	-2.000000e+002	0.000000e+000	-2.000000e+002	0.000000e+000
902175000	-1.797462e+001	-1.315091e+002	-7.974200e+001	-1.540592e+002	-2.000000e+002	0.000000e+000	-2.000000e+002	0.000000e+000
902212500	-1.798558e+001	-1.317218e+002	-7.875764e+001	1.549699e+002	-2.000000e+002	0.000000e+000	-2.000000e+002	0.000000e+000
902250000	-1.797227e+001	-1.319744e+002	-7.590978e+001	1.771799e+002	-2.000000e+002	0.000000e+000	-2.000000e+002	0.000000e+000
902287500	-1.797850e+001	-1.321533e+002	-7.290303e+001	-1.553158e+002	-2.000000e+002	0.000000e+000	-2.000000e+002	0.000000e+000
902325000	-1.797505e+001	-1.323511e+002	-7.898453e+001	1.179215e+002	-2.000000e+002	0.000000e+000	-2.000000e+002	0.000000e+000
902362500	-1.797459e+001	-1.325634e+002	-7.784112e+001	1.508499e+002	-2.000000e+002	0.000000e+000	-2.000000e+002	0.000000e+000
902400000	-1.796837e+001	-1.328243e+002	-7.875335e+001	-1.614603e+002	-2.000000e+002	0.000000e+000	-2.000000e+002	0.000000e+000
902437500	-1.796620e+001	-1.330585e+002	-8.061535e+001	1.734060e+002	-2.000000e+002	0.000000e+000	-2.000000e+002	0.000000e+000
902475000	-1.797453e+001	-1.333189e+002	-7.769182e+001	1.679725e+002	-2.000000e+002	0.000000e+000	-2.000000e+002	0.000000e+000
902512500	-1.796617e+001	-1.335342e+002	-8.364252e+001	-1.572568e+002	-2.000000e+002	0.000000e+000	-2.000000e+002	0.000000e+000
902550000	-1.797570e+001	-1.338045e+002	-7.386851e+001	1.673405e+002	-2.000000e+002	0.000000e+000	-2.000000e+002	0.000000e+000
902587500	-1.796840e+001	-1.340339e+002	-7.334819e+001	-1.741083e+002	-2.000000e+002	0.000000e+000	-2.000000e+002	0.000000e+000
902625000	-1.796770e+001	-1.342475e+002	-7.941478e+001	-1.702220e+002	-2.000000e+002	0.000000e+000	-2.000000e+002	0.000000e+000
902662500	-1.797386e+001	-1.344252e+002	-7.483236e+001	-1.509163e+002	-2.000000e+002	0.000000e+000	-2.000000e+002	0.000000e+000
902700000	-1.797537e+001	-1.346419e+002	-8.073172e+001	1.476232e+002	-2.000000e+002	0.000000e+000	-2.000000e+002	0.000000e+000
902737500	-1.797180e+001	-1.349233e+002	-7.346504e+001	-1.629450e+002	-2.000000e+002	0.000000e+000	-2.000000e+002	0.000000e+000
902775000	-1.798687e+001	-1.351168e+002	-7.862227e+001	-1.551689e+002	-2.000000e+002	0.000000e+000	-2.000000e+002	0.000000e+000
902812500	-1.798413e+001	-1.353476e+002	-7.542236e+001	-1.545648e+002	-2.000000e+002	0.000000e+000	-2.000000e+002	0.000000e+000
902850000	-1.799790e+001	-1.355681e+002	-8.438998e+001	1.608991e+002	-2.000000e+002	0.000000e+000	-2.000000e+002	0.000000e+000
902887500	-1.800291e+001	-1.357414e+002	-7.336122e+001	1.627487e+002	-2.000000e+002	0.000000e+000	-2.000000e+002	0.000000e+000
902925000	-1.800132e+001	-1.359046e+002	-7.775986e+001	1.573634e+002	-2.000000e+002	0.000000e+000	-2.000000e+002	0.000000e+000
902962500	-1.799738e+001	-1.361247e+002	-7.394717e+001	-1.609274e+002	-2.000000e+002	0.000000e+000	-2.000000e+002	0.000000e+000
903000000	-1.801084e+001	-1.362980e+002	-7.189678e+001	1.497075e+002	-2.000000e+002	0.000000e+000	-2.000000e+002	0.000000e+000
903037500	-1.801104e+001	-1.364602e+002	-8.276162e+001	-1.779483e+002	-2.000000e+002	0.000000e+000	-2.000000e+002	0.000000e+000
903075000	-1.800953e+001	-1.367658e+002	-7.700591e+001	1.637003e+002	-2.000000e+002	0.000000e+000	-2.000000e+002	0.000000e+000
903112500	-1.800842e+001	-1.368579e+002	-7.962050e+001	1.549000e+002	-2.000000e+002	0.000000e+000	-2.000000e+002	0.000000e+000
903150000	-1.799972e+001	-1.370569e+002	-7.637215e+001	1.783620e+002	-2.000000e+002	0.000000e+000	-2.000000e+002	0.000000e+000
903187500	-1.800671e+001	-1.372529e+002	-7.354658e+001	1.759776e+002	-2.000000e+002	0.000000e+000	-2.000000e+002	0.000000e+000
903225000	-1.800663e+001	-1.375096e+002	-8.636290e+001	-1.759284e+002	-2.000000e+002	0.000000e+000	-2.000000e+002	0.000000e+000
903262500	-1.800256e+001	-1.377318e+002	-7.357257e+001	1.750087e+002	-2.000000e+002	0.000000e+000	-2.000000e+002	0.000000e+000
903300000	-1.800696e+001	-1.379306e+002	-7.673368e+001	1.686319e+002	-2.000000e+002	0.000000e+000	-2.000000e+002	0.000000e+000
903337500	-1.800523e+001	-1.380889e+002	-7.335542e+001	1.726376e+002	-2.000000e+002	0.000000e+000	-2.000000e+002	0.000000e+000
903375000	-1.800684e+001	-1.383729e+002	-7.898313e+001	1.485195e+002	-2.000000e+002	0.000000e+000	-2.000000e+002	0.000000e+000
903412500	-1.801253e+001	-1.386209e+002	-8.101528e+001	-1.470282e+002	-2.000000e+002	0.000000e+000	-2.000000e+002	0.000000e+000
903450000	-1.800336e+001	-1.387815e+002	-8.745757e+001	2.195417e+001	-2.000000e+002	0.000000e+000	-2.000000e+002	0.000000e+000
903487500	-1.799910e+001	-1.389405e+002	-7.518675e+001	1.349299e+002	-2.000000e+002	0.000000e+000	-2.000000e+002	0.000000e+000
903525000	-1.800471e+001	-1.391788e+002	-7.880588e+001	-1.618318e+002	-2.000000e+002	0.000000e+000	-2.000000e+002	0.000000e+000
903562500	-1.800436e+001	-1.393961e+002	-7.478907e+001	-1.715942e+002	-2.000000e+002	0.000000e+000	-2.000000e+002	0.000000e+000
903600000	-1.800706e+001	-1.395929e+002	-7.773559e+001	1.447148e+002	-2.000000e+002	0.000000e+000	-2.000000e+002	0.000000e+000
903637500	-1.801581e+001	-1.398720e+002	-8.241062e+001	-1.797918e+002	-2.000000e+002	0.000000e+000	-2.000000e+002	0.000000e+000
903675000	-1.801757e+001	-1.400402e+002	-7.959216e+001	1.317039e+002	-2.000000e+002	0.000000e+000	-2.000000e+002	0.000000e+000
903712500	-1.800984e+001	-1.402689e+002	-8.437449e+001	1.735098e+002	-2.000000e+002	0.000000e+000	-2.000000e+002	0.000000e+000
903750000	-1.801255e+001	-1.405027e+002	-7.676343e+001	1.471673e+002	-2.000000e+002	0.000000e+000	-2.000000e+002	0.000000e+000
903787500	-1.801977e+001	-1.406861e+002	-7.781048e+001	-1.726883e+002	-2.000000e+002	0.000000e+000	-2.000000e+002	0.000000e+000
903825000	-1.802383e+001	-1.409366e+002	-8.069720e+001	1.229821e+002	-2.000000e+002	0.000000e+000	-2.000000e+002	0.000000e+000
903862500	-1.802202e+001	-1.411096e+002	-7.732710e+001	1.484855e+002	-2.000000e+002	0.000000e+000	-2.000000e+002	0.000000e+000
903900000	-1.802994e+001	-1.412889e+002	-8.378414e+001	1.568377e+002	-2.000000e+002	0.000000e+000	-2.000000e+002	0.000000e+000
903937500	-1.802714e+001	-1.415019e+002	-7.904439e+001	1.590223e+002	-2.000000e+002	0.000000e+000	-2.000000e+002	0.000000e+000
903975000	-1.802376e+001	-1.417230e+002	-8.449285e+001	4.773822e+001	-2.000000e+002	0.000000e+000	-2.000000e+002	0.000000e+000
904012500	-1.803311e+001	-1.419282e+002	-8.038253e+001	1.225652e+002	-2.000000e+002	0.000000e+000	-2.000000e+002	0.000000e+000
904050000	-1.803420e+001	-1.421481e+002	-7.603958e+001	1.664149e+002	-2.000000e+002	0.000000e+000	-2.000000e+002	0.000000e+000
904087500	-1.802985e+001	-1.423122e+002	-7.642519e+001	1.537735e+002	-2.000000e+002	0.000000e+000	-2.000000e+002	0.000000e+000
904125000	-1.802985e+001	-1.425321e+002	-7.426527e+001	-1.720436e+002	-2.000000e+002	0.000000e+000	-2.000000e+002	0.000000e+000
904162500	-1.803865e+001	-1.427449e+002	-7.662674e+001	1.744493e+002	-2.000000e+002	0.000000e+000	-2.000000e+002	0.000000e+000
904200000	-1.803669e+001	-1.430312e+002	-7.759922e+001	1.715347e+002	-2.000000e+002	0.000000e+000	-2.000000e+002	0.000000e+000
904237500	-1.804177e+001	-1.431765e+002	-7.277833e+001	1.178752e+002	-2.000000e+002	0.000000e+000	-2.000000e+002	0.000000e+000
904275000	-1.803685e+001	-1.433570e+002	-7.554426e+001	1.724712e+002	-2.000000e+002	0.000000e+000	-2.000000e+002	0.000000e+000
904312500	-1.804374e+001	-1.434870e+002	-8.274555e+001	-1.467367e+002	-2.000000e+002	0.000000e+000	-2.000000e+002	0.000000e+000
904350000	-1.805445e+001	-1.437888e+002	-7.556143e+001	1.450372e+002	-2.000000e+002	0.000000e+000	-2.000000e+002	0.000000e+000
904387500	-1.804593e+001	-1.439439e+002	-7.508769e+001	1.533782e+002	-2.000000e+002	0.000000e+000	-2.000000e+002	0.000000e+000
904425000	-1.805190e+001	-1.441570e+002	-7.566071e+001	1.538229e+002	-2.000000e+002	0.000000e+000	-2.000000e+002	0.000000e+000
904462500	-1.805212e+001	-1.443634e+002	-7.648999e+001	1.228200e+002	-2.000000e+002	0.000000e+000	-2.000000e+002	0.000000e+000
904500000	-1.804919e+001	-1.446226e+002	-8.039561e+001	1.663669e+002	-2.000000e+002	0.000000e+000	-2.000000e+002	0.000000e+000
904537500	-1.805459e+001	-1.447765e+002	-7.316343e+001	1.649952e+002	-2.000000e+002	0.000000e+000	-2.000000e+002	0.000000e+000
904575000	-1.804304e+001	-1.449713e+002	-7.776425e+001	1.106931e+002	-2.000000e+002	0.000000e+000	-2.000000e+002	0.000000e+000
904612500	-1.804410e+001	-1.451639e+002	-7.292521e+001	1.553462e+002	-2.000000e+002	0.000000e+000	-2.000000e+002	0.000000e+000
904650000	-1.805604e+001	-1.453929e+002	-8.161756e+001	-1.752855e+002	-2.000000e+002	0.000000e+000	-2.000000e+002	0.000000e+000
904687500	-1.804894e+001	-1.456174e+002	-8.170061e+001	1.680862e+002	-2.000000e+002	0.000000e+000	-2.000000e+002	0.000000e+000
904725000	-1.804895e+001	-1.458554e+002	-8.513820e+001	1.610653e+002	-2.000000e+002	0.000000e+000	-2.000000e+002	0.000000e+000
904762500	-1.805730e+001	-1.459909e+002	-7.544043e+001	1.592718e+002	-2.000000e+002	0.000000e+000	-2.000000e+002	0.000000e+000
904800000	-1.806575e+001	-1.461993e+002	-7.804271e+001	1.175158e+002	-2.000000e+002	0.000000e+000	-2.000000e+002	0.000000e+000
904837500	-1.805196e+001	-1.464635e+002	-8.593746e+001	-1.361854e+002	-2.000000e+002	0.000000e+000	-2.000000e+002	0.000000e+000
904875000	-1.805927e+001	-1.466528e+002	-7.636388e+001	1.371503e+002	-2.000000e+002	0.000000e+000	-2.000000e+002	0.000000e+000
904912500	-1.806616e+001	-1.468323e+002	-8.197250e+001	1.388800e+002	-2.000000e+002	0.000000e+000	-2.000000e+002	0.000000e+000
904950000	-1.806833e+001	-1.470220e+002	-7.386868e+001	1.434716e+002	-2.000000e+002	0.000000e+000	-2.000000e+002	0.000000e+000
904987500	-1.807170e+001	-1.472472e+002	-8.614148e+001	1.471860e+002	-2.000000e+002	0.000000e+000	-2.000000e+002	0.000000e+000
905025000	-1.806468e+001	-1.473851e+002	-7.518824e+001	-1.748009e+002	-2.000000e+002	0.000000e+000	-2.000000e+002	0.000000e+000
905062500	-1.807735e+001	-1.475326e+002	-7.700904e+001	1.329878e+002	-2.000000e+002	0.000000e+000	-2.000000e+002	0.000000e+000
905100000	-1.807804e+001	-1.477312e+002	-7.707096e+001	1.416107e+002	-2.000000e+002	0.000000e+000	-2.000000e+002	0.000000e+000
905137500	-1.807908e+001	-1.479641e+002	-7.955017e+001	1.788948e+002	-2.000000e+002	0.000000e+000	-2.000000e+002	0.000000e+000
905175000	-1.808660e+001	-1.482046e+002	-7.754987e+001	1.238720e+002	-2.000000e+002	0.000000e+000	-2.000000e+002	0.000000e+000
905212500	-1.808094e+001	-1.483397e+002	-7.307545e+001	1.196245e+002	-2.000000e+002	0.000000e+000	-2.000000e+002	0.000000e+000
905250000	-1.808170e+001	-1.485263e+002	-7.704924e+001	1.428215e+002	-2.000000e+002	0.000000e+000	-2.000000e+002	0.000000e+000
905287500	-1.807244e+001	-1.487661e+002	-7.773130e+001	1.649989e+002	-2.000000e+002	0.000000e+000	-2.000000e+002	0.000000e+000
905325000	-1.807605e+001	-1.489236e+002	-7.423709e+001	1.357539e+002	-2.000000e+002	0.000000e+000	-2.000000e+002	0.000000e+000
905362500	-1.807683e+001	-1.491267e+002	-7.964633e+001	1.341248e+002	-2.000000e+002	0.000000e+000	-2.000000e+002	0.000000e+000
905400000	-1.807044e+001	-1.493202e+002	-7.351397e+001	1.375160e+002	-2.000000e+002	0.000000e+000	-2.000000e+002	0.000000e+000
905437500	-1.806441e+001	-1.495062e+002	-7.811507e+001	1.472369e+002	-2.000000e+002	0.000000e+000	-2.000000e+002	0.000000e+000
905475000	-1.806908e+001	-1.497243e+002	-8.699330e+001	1.564179e+002	-2.000000e+002	0.000000e+000	-2.000000e+002	0.000000e+000
905512500	-1.805871e+001	-1.499837e+002	-7.606630e+001	1.498468e+002	-2.000000e+002	0.000000e+000	-2.000000e+002	0.000000e+000
905550000	-1.806746e+001	-1.501315e+002	-7.956943e+001	5.621314e+001	-2.000000e+002	0.000000e+000	-2.000000e+002	0.000000e+000
905587500	-1.806596e+001	-1.504005e+002	-7.671410e+001	1.458091e+002	-2.000000e+002	0.000000e+000	-2.000000e+002	0.000000e+000
905625000	-1.806138e+001	-1.505778e+002	-7.612647e+001	1.452105e+002	-2.000000e+002	0.000000e+000	-2.000000e+002	0.000000e+000
905662500	-1.806365e+001	-1.507959e+002	-7.303034e+001	1.581840e+002	-2.000000e+002	0.000000e+000	-2.000000e+002	0.000000e+000
