!Agilent Technologies,E5071C,MY46214392,A.11.36
!Date: Thu Feb 26 21:09:44 2026
!Data & Calibration Information:
!Freq	S11:NONE(--)	S21:NONE(--)	S12:NONE(--)	S22:NONE(--)
!PortZ  Port1:50+j0    Port2:50+j0
!Above PortZ is port z conversion or system Z0 setting when saving the data.
!When reading, reference impedance value at option line is always used.
# Hz S dB R 50
900000000	-1.811624e+001	-1.203516e+002	-4.430607e+001	-5.370043e+001	-2.000000e+002	0.000000e+000	-2.000000e+002	0.000000e+000
900037500	-1.810789e+001	-1.205672e+002	-4.423513e+001	-5.451206e+001	-2.000000e+002	0.000000e+000	-2.000000e+002	0.000000e+000
900075000	-1.810356e+001	-1.206980e+002	-4.416206e+001	-5.400116e+001	-2.000000e+002	0.000000e+000	-2.000000e+002	0.000000e+000
900112500	-1.811258e+001	-1.209668e+002	-4.406039e+001	-5.530135e+001	-2.000000e+002	0.000000e+000	-2.000000e+002	0.000000e+000
900150000	-1.810525e+001	-1.210988e+002	-4.406958e+001	-5.664861e+001	-2.000000e+002	0.000000e+000	-2.000000e+002	0.000000e+000
900187500	-1.810829e+001	-1.213642e+002	-4.398294e+001	-5.813651e+001	-2.000000e+002	0.000000e+000	-2.000000e+002	0.000000e+000
900225000	-1.809983e+001	-1.215334e+002	-4.380178e+001	-5.805532e+001	-2.000000e+002	0.000000e+000	-2.000000e+002	0.000000e+000
900262500	-1.811163e+001	-1.217801e+002	-4.386420e+001	-5.909172e+001	-2.000000e+002	0.000000e+000	-2.000000e+002	0.000000e+000
900300000	-1.811400e+001	-1.219529e+002	-4.371022e+001	-5.970993e+001	-2.000000e+002	0.000000e+000	-2.000000e+002	0.000000e+000
900337500	-1.811127e+001	-1.221271e+002	-4.363604e+001	-6.142229e+001	-2.000000e+002	0.000000e+000	-2.000000e+002	0.000000e+000
900375000	-1.811035e+001	-1.223319e+002	-4.362873e+001	-6.148070e+001	-2.000000e+002	0.000000e+000	-2.000000e+002	0.000000e+000
900412500	-1.810677e+001	-1.225972e+002	-4.345697e+001	-6.269933e+001	-2.000000e+002	0.000000e+000	-2.000000e+002	0.000000e+000
900450000	-1.811111e+001	-1.227298e+002	-4.354883e+001	-6.428459e+001	-2.000000e+002	0.000000e+000	-2.000000e+002	0.000000e+000
900487500	-1.810590e+001	-1.229026e+002	-4.344886e+001	-6.393915e+001	-2.000000e+002	0.000000e+000	-2.000000e+002	0.000000e+000
900525000	-1.811305e+001	-1.231081e+002	-4.331989e+001	-6.499091e+001	-2.000000e+002	0.000000e+000	-2.000000e+002	0.000000e+000
900562500	-1.810690e+001	-1.232951e+002	-4.332708e+001	-6.653181e+001	-2.000000e+002	0.000000e+000	-2.000000e+002	0.000000e+000
900600000	-1.810347e+001	-1.234893e+002	-4.305740e+001	-6.692593e+001	-2.000000e+002	0.000000e+000	-2.000000e+002	0.000000e+000
900637500	-1.810702e+001	-1.237152e+002	-4.320267e+001	-6.788426e+001	-2.000000e+002	0.000000e+000	-2.000000e+002	0.000000e+000
900675000	-1.810637e+001	-1.239283e+002	-4.316840e+001	-6.845777e+001	-2.000000e+002	0.000000e+000	-2.000000e+002	0.000000e+000
900712500	-1.810241e+001	-1.241517e+002	-4.346128e+001	-6.981654e+001	-2.000000e+002	0.000000e+000	-2.000000e+002	0.000000e+000
900750000	-1.809548e+001	-1.243226e+002	-4.313293e+001	-7.067418e+001	-2.000000e+002	0.000000e+000	-2.000000e+002	0.000000e+000
900787500	-1.809502e+001	-1.245457e+002	-4.322072e+001	-7.202892e+001	-2.000000e+002	0.000000e+000	-2.000000e+002	0.000000e+000
900825000	-1.810094e+001	-1.247355e+002	-4.315386e+001	-7.308724e+001	-2.000000e+002	0.000000e+000	-2.000000e+002	0.000000e+000
900862500	-1.810300e+001	-1.249269e+002	-4.324260e+001	-7.368822e+001	-2.000000e+002	0.000000e+000	-2.000000e+002	0.000000e+000
900900000	-1.809936e+001	-1.251321e+002	-4.324506e+001	-7.399771e+001	-2.000000e+002	0.000000e+000	-2.000000e+002	0.000000e+000
900937500	-1.809275e+001	-1.253342e+002	-4.333338e+001	-7.574298e+001	-2.000000e+002	0.000000e+000	-2.000000e+002	0.000000e+000
900975000	-1.809898e+001	-1.254674e+002	-4.324256e+001	-7.586042e+001	-2.000000e+002	0.000000e+000	-2.000000e+002	0.000000e+000
901012500	-1.809764e+001	-1.257333e+002	-4.327030e+001	-7.753717e+001	-2.000000e+002	0.000000e+000	-2.000000e+002	0.000000e+000
901050000	-1.808689e+001	-1.258872e+002	-4.344266e+001	-7.907356e+001	-2.000000e+002	0.000000e+000	-2.000000e+002	0.000000e+000
901087500	-1.809571e+001	-1.261412e+002	-4.343078e+001	-7.957711e+001	-2.000000e+002	0.000000e+000	-2.000000e+002	0.000000e+000
901125000	-1.809221e+001	-1.263232e+002	-4.357966e+001	-8.039140e+001	-2.000000e+002	0.000000e+000	-2.000000e+002	0.000000e+000
901162500	-1.809581e+001	-1.265302e+002	-4.402574e+001	-8.109754e+001	-2.000000e+002	0.000000e+000	-2.000000e+002	0.000000e+000
901200000	-1.808577e+001	-1.266890e+002	-4.391370e+001	-8.249884e+001	-2.000000e+002	0.000000e+000	-2.000000e+002	0.000000e+000
901237500	-1.809307e+001	-1.268915e+002	-4.412882e+001	-8.337700e+001	-2.000000e+002	0.000000e+000	-2.000000e+002	0.000000e+000
901275000	-1.809512e+001	-1.270554e+002	-4.422819e+001	-8.459936e+001	-2.000000e+002	0.000000e+000	-2.000000e+002	0.000000e+000
901312500	-1.809607e+001	-1.272964e+002	-4.458963e+001	-8.482607e+001	-2.000000e+002	0.000000e+000	-2.000000e+002	0.000000e+000
901350000	-1.808474e+001	-1.274622e+002	-4.493476e+001	-8.584204e+001	-2.000000e+002	0.000000e+000	-2.000000e+002	0.000000e+000
901387500	-1.809405e+001	-1.277267e+002	-4.529519e+001	-8.637374e+001	-2.000000e+002	0.000000e+000	-2.000000e+002	0.000000e+000
901425000	-1.808215e+001	-1.279041e+002	-4.555645e+001	-8.673734e+001	-2.000000e+002	0.000000e+000	-2.000000e+002	0.000000e+000
901462500	-1.809115e+001	-1.281447e+002	-4.623141e+001	-8.636454e+001	-2.000000e+002	0.000000e+000	-2.000000e+002	0.000000e+000
901500000	-1.808591e+001	-1.283143e+002	-4.670671e+001	-8.628617e+001	-2.000000e+002	0.000000e+000	-2.000000e+002	0.000000e+000
901537500	-1.808644e+001	-1.285575e+002	-4.729111e+001	-8.642524e+001	-2.000000e+002	0.000000e+000	-2.000000e+002	0.000000e+000
901575000	-1.808526e+001	-1.287050e+002	-4.829302e+001	-8.402539e+001	-2.000000e+002	0.000000e+000	-2.000000e+002	0.000000e+000
901612500	-1.808003e+001	-1.288915e+002	-4.963193e+001	-8.236471e+001	-2.000000e+002	0.000000e+000	-2.000000e+002	0.000000e+000
901650000	-1.807815e+001	-1.291627e+002	-5.076808e+001	-7.877980e+001	-2.000000e+002	0.000000e+000	-2.000000e+002	0.000000e+000
901687500	-1.807169e+001	-1.293246e+002	-5.196450e+001	-6.853506e+001	-2.000000e+002	0.000000e+000	-2.000000e+002	0.000000e+000
901725000	-1.807786e+001	-1.295430e+002	-5.425794e+001	-5.672297e+001	-2.000000e+002	0.000000e+000	-2.000000e+002	0.000000e+000
901762500	-1.806905e+001	-1.296960e+002	-5.443140e+001	-3.520693e+001	-2.000000e+002	0.000000e+000	-2.000000e+002	0.000000e+000
901800000	-1.807291e+001	-1.299357e+002	-5.369290e+001	-7.327095e+000	-2.000000e+002	0.000000e+000	-2.000000e+002	0.000000e+000
901837500	-1.806908e+001	-1.301668e+002	-5.163529e+001	9.939301e+000	-2.000000e+002	0.000000e+000	-2.000000e+002	0.000000e+000
901875000	-1.807371e+001	-1.303645e+002	-4.909166e+001	2.086322e+001	-2.000000e+002	0.000000e+000	-2.000000e+002	0.000000e+000
901912500	-1.807267e+001	-1.305444e+002	-4.660195e+001	2.656727e+001	-2.000000e+002	0.000000e+000	-2.000000e+002	0.000000e+000
901950000	-1.806790e+001	-1.307487e+002	-4.452659e+001	3.076840e+001	-2.000000e+002	0.000000e+000	-2.000000e+002	0.000000e+000
901987500	-1.806519e+001	-1.310052e+002	-4.244473e+001	3.161995e+001	-2.000000e+002	0.000000e+000	-2.000000e+002	0.000000e+000
902025000	-1.805746e+001	-1.312223e+002	-4.062136e+001	3.206716e+001	-2.000000e+002	0.000000e+000	-2.000000e+002	0.000000e+000
902062500	-1.805770e+001	-1.314372e+002	-3.895540e+001	3.153101e+001	-2.000000e+002	0.000000e+000	-2.000000e+002	0.000000e+000
902100000	-1.805750e+001	-1.316076e+002	-3.736937e+001	3.002627e+001	-2.000000e+002	0.000000e+000	-2.000000e+002	0.000000e+000
902137500	-1.805133e+001	-1.317719e+002	-3.586645e+001	2.902681e+001	-2.000000e+002	0.000000e+000	-2.000000e+002	0.000000e+000
902175000	-1.804543e+001	-1.319734e+002	-3.442156e+001	2.677264e+001	-2.000000e+002	0.000000e+000	-2.000000e+002	0.000000e+000
902212500	-1.804454e+001	-1.322337e+002	-3.305220e+001	2.457289e+001	-2.000000e+002	0.000000e+000	-2.000000e+002	0.000000e+000
902250000	-1.804645e+001	-1.324842e+002	-3.170316e+001	2.199289e+001	-2.000000e+002	0.000000e+000	-2.000000e+002	0.000000e+000
902287500	-1.803676e+001	-1.326421e+002	-3.044964e+001	1.890314e+001	-2.000000e+002	0.000000e+000	-2.000000e+002	0.000000e+000
902325000	-1.803985e+001	-1.329010e+002	-2.919301e+001	1.584480e+001	-2.000000e+002	0.000000e+000	-2.000000e+002	0.000000e+000
902362500	-1.803950e+001	-1.331029e+002	-2.797526e+001	1.202235e+001	-2.000000e+002	0.000000e+000	-2.000000e+002	0.000000e+000
902400000	-1.804323e+001	-1.333312e+002	-2.680399e+001	8.075146e+000	-2.000000e+002	0.000000e+000	-2.000000e+002	0.000000e+000
902437500	-1.803552e+001	-1.335692e+002	-2.566482e+001	3.806342e+000	-2.000000e+002	0.000000e+000	-2.000000e+002	0.000000e+000
902475000	-1.803677e+001	-1.338103e+002	-2.454271e+001	-7.947750e-001	-2.000000e+002	0.000000e+000	-2.000000e+002	0.000000e+000
902512500	-1.803711e+001	-1.339946e+002	-2.346537e+001	-5.833933e+000	-2.000000e+002	0.000000e+000	-2.000000e+002	0.000000e+000
902550000	-1.803169e+001	-1.342450e+002	-2.242589e+001	-1.120408e+001	-2.000000e+002	0.000000e+000	-2.000000e+002	0.000000e+000
902587500	-1.803574e+001	-1.345312e+002	-2.143019e+001	-1.693316e+001	-2.000000e+002	0.000000e+000	-2.000000e+002	0.000000e+000
902625000	-1.803801e+001	-1.347043e+002	-2.046375e+001	-2.310308e+001	-2.000000e+002	0.000000e+000	-2.000000e+002	0.000000e+000
902662500	-1.803211e+001	-1.349901e+002	-1.959899e+001	-2.959332e+001	-2.000000e+002	0.000000e+000	-2.000000e+002	0.000000e+000
902700000	-1.805153e+001	-1.351975e+002	-1.877991e+001	-3.650648e+001	-2.000000e+002	0.000000e+000	-2.000000e+002	0.000000e+000
902737500	-1.804962e+001	-1.354517e+002	-1.805288e+001	-4.354041e+001	-2.000000e+002	0.000000e+000	-2.000000e+002	0.000000e+000
902775000	-1.804485e+001	-1.356788e+002	-1.741060e+001	-5.084237e+001	-2.000000e+002	0.000000e+000	-2.000000e+002	0.000000e+000
902812500	-1.805561e+001	-1.358660e+002	-1.685068e+001	-5.817167e+001	-2.000000e+002	0.000000e+000	-2.000000e+002	0.000000e+000
902850000	-1.805941e+001	-1.361329e+002	-1.637659e+001	-6.559348e+001	-2.000000e+002	0.000000e+000	-2.000000e+002	0.000000e+000
902887500	-1.807028e+001	-1.363452e+002	-1.598487e+001	-7.283523e+001	-2.000000e+002	0.000000e+000	-2.000000e+002	0.000000e+000
902925000	-1.807536e+001	-1.364664e+002	-1.566958e+001	-7.996418e+001	-2.000000e+002	0.000000e+000	-2.000000e+002	0.000000e+000
902962500	-1.807059e+001	-1.366519e+002	-1.542222e+001	-8.686960e+001	-2.000000e+002	0.000000e+000	-2.000000e+002	0.000000e+000
903000000	-1.807180e+001	-1.368963e+002	-1.522322e+001	-9.352014e+001	-2.000000e+002	0.000000e+000	-2.000000e+002	0.000000e+000
903037500	-1.808248e+001	-1.370783e+002	-1.507790e+001	-9.994279e+001	-2.000000e+002	0.000000e+000	-2.000000e+002	0.000000e+000
903075000	-1.808643e+001	-1.372845e+002	-1.496453e+001	-1.060037e+002	-2.000000e+002	0.000000e+000	-2.000000e+002	0.000000e+000
903112500	-1.808062e+001	-1.374722e+002	-1.487068e+001	-1.118681e+002	-2.000000e+002	0.000000e+000	-2.000000e+002	0.000000e+000
903150000	-1.807497e+001	-1.376651e+002	-1.480264e+001	-1.175180e+002	-2.000000e+002	0.000000e+000	-2.000000e+002	0.000000e+000
903187500	-1.807469e+001	-1.378639e+002	-1.474602e+001	-1.229289e+002	-2.000000e+002	0.000000e+000	-2.000000e+002	0.000000e+000
903225000	-1.807882e+001	-1.380679e+002	-1.470846e+001	-1.280479e+002	-2.000000e+002	0.000000e+000	-2.000000e+002	0.000000e+000
903262500	-1.807505e+001	-1.382506e+002	-1.466988e+001	-1.330693e+002	-2.000000e+002	0.000000e+000	-2.000000e+002	0.000000e+000
903300000	-1.807407e+001	-1.384065e+002	-1.463400e+001	-1.378696e+002	-2.000000e+002	0.000000e+000	-2.000000e+002	0.000000e+000
903337500	-1.807734e+001	-1.386795e+002	-1.460730e+001	-1.425739e+002	-2.000000e+002	0.000000e+000	-2.000000e+002	0.000000e+000
903375000	-1.807627e+001	-1.388719e+002	-1.457421e+001	-1.471636e+002	-2.000000e+002	0.000000e+000	-2.000000e+002	0.000000e+000
903412500	-1.807131e+001	-1.391117e+002	-1.455006e+001	-1.516200e+002	-2.000000e+002	0.000000e+000	-2.000000e+002	0.000000e+000
903450000	-1.807115e+001	-1.393336e+002	-1.452202e+001	-1.559993e+002	-2.000000e+002	0.000000e+000	-2.000000e+002	0.000000e+000
903487500	-1.807733e+001	-1.395357e+002	-1.449130e+001	-1.602758e+002	-2.000000e+002	0.000000e+000	-2.000000e+002	0.000000e+000
903525000	-1.807190e+001	-1.397378e+002	-1.446414e+001	-1.645380e+002	-2.000000e+002	0.000000e+000	-2.000000e+002	0.000000e+000
903562500	-1.807502e+001	-1.399016e+002	-1.444270e+001	-1.686700e+002	-2.000000e+002	0.000000e+000	-2.000000e+002	0.000000e+000
903600000	-1.807259e+001	-1.401225e+002	-1.441265e+001	-1.727676e+002	-2.000000e+002	0.000000e+000	-2.000000e+002	0.000000e+000
903637500	-1.807981e+001	-1.403466e+002	-1.438661e+001	-1.768287e+002	-2.000000e+002	0.000000e+000	-2.000000e+002	0.000000e+000
903675000	-1.807125e+001	-1.405724e+002	-1.435908e+001	1.791021e+002	-2.000000e+002	0.000000e+000	-2.000000e+002	0.000000e+000
903712500	-1.806966e+001	-1.408676e+002	-1.433094e+001	1.751115e+002	-2.000000e+002	0.000000e+000	-2.000000e+002	0.000000e+000
903750000	-1.806671e+001	-1.409891e+002	-1.430452e+001	1.711432e+002	-2.000000e+002	0.000000e+000	-2.000000e+002	0.000000e+000
903787500	-1.807729e+001	-1.411994e+002	-1.428439e+001	1.672192e+002	-2.000000e+002	0.000000e+000	-2.000000e+002	0.000000e+000
903825000	-1.808529e+001	-1.414430e+002	-1.425502e+001	1.633175e+002	-2.000000e+002	0.000000e+000	-2.000000e+002	0.000000e+000
903862500	-1.808751e+001	-1.416526e+002	-1.423237e+001	1.594106e+002	-2.000000e+002	0.000000e+000	-2.000000e+002	0.000000e+000
903900000	-1.807754e+001	-1.418270e+002	-1.420839e+001	1.555756e+002	-2.000000e+002	0.000000e+000	-2.000000e+002	0.000000e+000
903937500	-1.808168e+001	-1.420285e+002	-1.418630e+001	1.517186e+002	-2.000000e+002	0.000000e+000	-2.000000e+002	0.000000e+000
903975000	-1.808825e+001	-1.422764e+002	-1.416491e+001	1.478356e+002	-2.000000e+002	0.000000e+000	-2.000000e+002	0.000000e+000
904012500	-1.808282e+001	-1.425246e+002	-1.414041e+001	1.440091e+002	-2.000000e+002	0.000000e+000	-2.000000e+002	0.000000e+000
904050000	-1.808556e+001	-1.426792e+002	-1.411952e+001	1.401315e+002	-2.000000e+002	0.000000e+000	-2.000000e+002	0.000000e+000
904087500	-1.808535e+001	-1.429404e+002	-1.410264e+001	1.363488e+002	-2.000000e+002	0.000000e+000	-2.000000e+002	0.000000e+000
904125000	-1.808999e+001	-1.430415e+002	-1.408620e+001	1.325058e+002	-2.000000e+002	0.000000e+000	-2.000000e+002	0.000000e+000
904162500	-1.809773e+001	-1.433581e+002	-1.406938e+001	1.286255e+002	-2.000000e+002	0.000000e+000	-2.000000e+002	0.000000e+000
904200000	-1.810277e+001	-1.435025e+002	-1.405284e+001	1.248022e+002	-2.000000e+002	0.000000e+000	-2.000000e+002	0.000000e+000
904237500	-1.808900e+001	-1.437936e+002	-1.403353e+001	1.209550e+002	-2.000000e+002	0.000000e+000	-2.000000e+002	0.000000e+000
904275000	-1.809482e+001	-1.439567e+002	-1.402679e+001	1.171055e+002	-2.000000e+002	0.000000e+000	-2.000000e+002	0.000000e+000
904312500	-1.809270e+001	-1.441790e+002	-1.401053e+001	1.132183e+002	-2.000000e+002	0.000000e+000	-2.000000e+002	0.000000e+000
904350000	-1.809828e+001	-1.443760e+002	-1.400454e+001	1.093052e+002	-2.000000e+002	0.000000e+000	-2.000000e+002	0.000000e+000
904387500	-1.809928e+001	-1.445202e+002	-1.399384e+001	1.053703e+002	-2.000000e+002	0.000000e+000	-2.000000e+002	0.000000e+000
904425000	-1.810618e+001	-1.448153e+002	-1.398137e+001	1.014479e+002	-2.000000e+002	0.000000e+000	-2.000000e+002	0.000000e+000
904462500	-1.809895e+001	-1.449341e+002	-1.397533e+001	9.749897e+001	-2.000000e+002	0.000000e+000	-2.000000e+002	0.000000e+000
904500000	-1.811284e+001	-1.451706e+002	-1.397542e+001	9.351495e+001	-2.000000e+002	0.000000e+000	-2.000000e+002	0.000000e+000
904537500	-1.810595e+001	-1.453977e+002	-1.397014e+001	8.948791e+001	-2.000000e+002	0.000000e+000	-2.000000e+002	0.000000e+000
904575000	-1.811423e+001	-1.456118e+002	-1.396411e+001	8.544322e+001	-2.000000e+002	0.000000e+000	-2.000000e+002	0.000000e+000
904612500	-1.810599e+001	-1.458536e+002	-1.396603e+001	8.131397e+001	-2.000000e+002	0.000000e+000	-2.000000e+002	0.000000e+000
904650000	-1.811454e+001	-1.459975e+002	-1.397020e+001	7.715890e+001	-2.000000e+002	0.000000e+000	-2.000000e+002	0.000000e+000
904687500	-1.811684e+001	-1.461718e+002	-1.397137e+001	7.296357e+001	-2.000000e+002	0.000000e+000	-2.000000e+002	0.000000e+000
904725000	-1.812267e+001	-1.464023e+002	-1.397334e+001	6.870555e+001	-2.000000e+002	0.000000e+000	-2.000000e+002	0.000000e+000
904762500	-1.811909e+001	-1.466272e+002	-1.398700e+001	6.436809e+001	-2.000000e+002	0.000000e+000	-2.000000e+002	0.000000e+000
904800000	-1.812375e+001	-1.468832e+002	-1.399798e+001	5.996907e+001	-2.000000e+002	0.000000e+000	-2.000000e+002	0.000000e+000
904837500	-1.812617e+001	-1.470313e+002	-1.400904e+001	5.551631e+001	-2.000000e+002	0.000000e+000	-2.000000e+002	0.000000e+000
904875000	-1.812999e+001	-1.472798e+002	-1.403348e+001	5.094211e+001	-2.000000e+002	0.000000e+000	-2.000000e+002	0.000000e+000
904912500	-1.813818e+001	-1.474094e+002	-1.405534e+001	4.631662e+001	-2.000000e+002	0.000000e+000	-2.000000e+002	0.000000e+000
904950000	-1.812691e+001	-1.476254e+002	-1.408800e+001	4.151477e+001	-2.000000e+002	0.000000e+000	-2.000000e+002	0.000000e+000
904987500	-1.813659e+001	-1.477959e+002	-1.412521e+001	3.662722e+001	-2.000000e+002	0.000000e+000	-2.000000e+002	0.000000e+000
905025000	-1.813892e+001	-1.479849e+002	-1.418151e+001	3.164314e+001	-2.000000e+002	0.000000e+000	-2.000000e+002	0.000000e+000
905062500	-1.814194e+001	-1.481592e+002	-1.424653e+001	2.650625e+001	-2.000000e+002	0.000000e+000	-2.000000e+002	0.000000e+000
905100000	-1.813961e+001	-1.483375e+002	-1.432436e+001	2.119221e+001	-2.000000e+002	0.000000e+000	-2.000000e+002	0.000000e+000
905137500	-1.813367e+001	-1.485172e+002	-1.442527e+001	1.580915e+001	-2.000000e+002	0.000000e+000	-2.000000e+002	0.000000e+000
905175000	-1.813453e+001	-1.486821e+002	-1.454681e+001	1.022568e+001	-2.000000e+002	0.000000e+000	-2.000000e+002	0.000000e+000
905212500	-1.813768e+001	-1.489250e+002	-1.468395e+001	4.556317e+000	-2.000000e+002	0.000000e+000	-2.000000e+002	0.000000e+000
905250000	-1.813699e+001	-1.491218e+002	-1.486000e+001	-1.290056e+000	-2.000000e+002	0.000000e+000	-2.000000e+002	0.000000e+000
905287500	-1.812604e+001	-1.492909e+002	-1.506134e+001	-7.345051e+000	-2.000000e+002	0.000000e+000	-2.000000e+002	0.000000e+000
905325000	-1.813137e+001	-1.494890e+002	-1.529938e+001	-1.339703e+001	-2.000000e+002	0.000000e+000	-2.000000e+002	0.000000e+000
905362500	-1.813538e+001	-1.496713e+002	-1.557472e+001	-1.960950e+001	-2.000000e+002	0.000000e+000	-2.000000e+002	0.000000e+000
905400000	-1.813286e+001	-1.499126e+002	-1.589439e+001	-2.602253e+001	-2.000000e+002	0.000000e+000	-2.000000e+002	0.000000e+000
905437500	-1.812483e+001	-1.501520e+002	-1.626494e+001	-3.249384e+001	-2.000000e+002	0.000000e+000	-2.000000e+002	0.000000e+000
905475000	-1.811858e+001	-1.502849e+002	-1.669071e+001	-3.902897e+001	-2.000000e+002	0.000000e+000	-2.000000e+002	0.000000e+000
905512500	-1.811707e+001	-1.505175e+002	-1.716857e+001	-4.558537e+001	-2.000000e+002	0.000000e+000	-2.000000e+002	0.000000e+000
905550000	-1.812155e+001	-1.507574e+002	-1.769854e+001	-5.218257e+001	-2.000000e+002	0.000000e+000	-2.000000e+002	0.000000e+000
905587500	-1.812253e+001	-1.509774e+002	-1.830456e+001	-5.877701e+001	-2.000000e+002	0.000000e+000	-2.000000e+002	0.000000e+000
905625000	-1.811640e+001	-1.512388e+002	-1.897456e+001	-6.521381e+001	-2.000000e+002	0.000000e+000	-2.000000e+002	0.000000e+000
905662500	-1.812274e+001	-1.513933e+002	-1.971085e+001	-7.157122e+001	-2.000000e+002	0.000000e+000	-2.000000e+002	0.000000e+000
