!Agilent Technologies,E5071C,MY46214392,A.11.36
!Date: Thu Feb 26 21:54:56 2026
!Data & Calibration Information:
!Freq	S11:NONE(--)	S21:NONE(--)	S12:NONE(--)	S22:NONE(--)
!PortZ  Port1:50+j0    Port2:50+j0
!Above PortZ is port z conversion or system Z0 setting when saving the data.
!When reading, reference impedance value at option line is always used.
# Hz S dB R 50
900000000	-1.802930e+001	-1.196879e+002	-8.501504e+001	1.955346e+001	-2.000000e+002	0.000000e+000	-2.000000e+002	0.000000e+000
900037500	-1.803554e+001	-1.199022e+002	-8.469096e+001	-5.230978e+001	-2.000000e+002	0.000000e+000	-2.000000e+002	0.000000e+000
900075000	-1.803263e+001	-1.201314e+002	-8.021436e+001	5.214352e+000	-2.000000e+002	0.000000e+000	-2.000000e+002	0.000000e+000
900112500	-1.803331e+001	-1.203016e+002	-7.641924e+001	8.091320e+001	-2.000000e+002	0.000000e+000	-2.000000e+002	0.000000e+000
900150000	-1.802490e+001	-1.205117e+002	-7.863090e+001	1.264991e+002	-2.000000e+002	0.000000e+000	-2.000000e+002	0.000000e+000
900187500	-1.802755e+001	-1.207004e+002	-8.207943e+001	1.478617e+001	-2.000000e+002	0.000000e+000	-2.000000e+002	0.000000e+000
900225000	-1.803312e+001	-1.209189e+002	-7.934075e+001	-2.106948e+001	-2.000000e+002	0.000000e+000	-2.000000e+002	0.000000e+000
900262500	-1.802333e+001	-1.211503e+002	-8.723141e+001	1.514542e+002	-2.000000e+002	0.000000e+000	-2.000000e+002	0.000000e+000
900300000	-1.803210e+001	-1.212705e+002	-1.099671e+002	1.193403e+002	-2.000000e+002	0.000000e+000	-2.000000e+002	0.000000e+000
900337500	-1.802958e+001	-1.215125e+002	-7.672418e+001	6.295222e+001	-2.000000e+002	0.000000e+000	-2.000000e+002	0.000000e+000
900375000	-1.803705e+001	-1.217172e+002	-7.636296e+001	8.481520e+001	-2.000000e+002	0.000000e+000	-2.000000e+002	0.000000e+000
900412500	-1.802961e+001	-1.218513e+002	-9.156662e+001	2.329119e+000	-2.000000e+002	0.000000e+000	-2.000000e+002	0.000000e+000
900450000	-1.802574e+001	-1.221050e+002	-8.078219e+001	6.325079e+001	-2.000000e+002	0.000000e+000	-2.000000e+002	0.000000e+000
900487500	-1.802909e+001	-1.222403e+002	-7.572754e+001	1.113322e+002	-2.000000e+002	0.000000e+000	-2.000000e+002	0.000000e+000
900525000	-1.802427e+001	-1.224612e+002	-8.681877e+001	4.956376e+001	-2.000000e+002	0.000000e+000	-2.000000e+002	0.000000e+000
900562500	-1.801935e+001	-1.226616e+002	-7.465474e+001	3.403192e+001	-2.000000e+002	0.000000e+000	-2.000000e+002	0.000000e+000
900600000	-1.801679e+001	-1.228379e+002	-8.127109e+001	2.306547e+001	-2.000000e+002	0.000000e+000	-2.000000e+002	0.000000e+000
900637500	-1.802816e+001	-1.230723e+002	-7.622997e+001	-1.216713e+001	-2.000000e+002	0.000000e+000	-2.000000e+002	0.000000e+000
900675000	-1.802840e+001	-1.233054e+002	-8.377394e+001	9.121756e+001	-2.000000e+002	0.000000e+000	-2.000000e+002	0.000000e+000
900712500	-1.802796e+001	-1.234335e+002	-7.663927e+001	-5.029901e+001	-2.000000e+002	0.000000e+000	-2.000000e+002	0.000000e+000
900750000	-1.802204e+001	-1.236271e+002	-7.799633e+001	7.697002e+001	-2.000000e+002	0.000000e+000	-2.000000e+002	0.000000e+000
900787500	-1.802272e+001	-1.238709e+002	-8.678515e+001	7.063054e+001	-2.000000e+002	0.000000e+000	-2.000000e+002	0.000000e+000
900825000	-1.802009e+001	-1.241326e+002	-7.682210e+001	5.107775e+001	-2.000000e+002	0.000000e+000	-2.000000e+002	0.000000e+000
900862500	-1.802311e+001	-1.242361e+002	-8.255479e+001	7.927764e+001	-2.000000e+002	0.000000e+000	-2.000000e+002	0.000000e+000
900900000	-1.802585e+001	-1.244611e+002	-7.594039e+001	3.669614e+001	-2.000000e+002	0.000000e+000	-2.000000e+002	0.000000e+000
900937500	-1.802107e+001	-1.247110e+002	-8.198533e+001	3.356197e+001	-2.000000e+002	0.000000e+000	-2.000000e+002	0.000000e+000
900975000	-1.802221e+001	-1.248944e+002	-8.336886e+001	8.033300e+001	-2.000000e+002	0.000000e+000	-2.000000e+002	0.000000e+000
901012500	-1.802503e+001	-1.250652e+002	-8.019304e+001	3.189410e+001	-2.000000e+002	0.000000e+000	-2.000000e+002	0.000000e+000
901050000	-1.801997e+001	-1.253007e+002	-8.942123e+001	1.204864e+002	-2.000000e+002	0.000000e+000	-2.000000e+002	0.000000e+000
901087500	-1.801464e+001	-1.254407e+002	-8.694525e+001	3.239425e+001	-2.000000e+002	0.000000e+000	-2.000000e+002	0.000000e+000
901125000	-1.802386e+001	-1.256071e+002	-7.751977e+001	8.751110e+001	-2.000000e+002	0.000000e+000	-2.000000e+002	0.000000e+000
901162500	-1.801560e+001	-1.258199e+002	-8.311927e+001	-1.607704e+002	-2.000000e+002	0.000000e+000	-2.000000e+002	0.000000e+000
901200000	-1.800680e+001	-1.260326e+002	-8.549327e+001	1.363722e+002	-2.000000e+002	0.000000e+000	-2.000000e+002	0.000000e+000
901237500	-1.801741e+001	-1.262391e+002	-8.139155e+001	4.005808e+001	-2.000000e+002	0.000000e+000	-2.000000e+002	0.000000e+000
901275000	-1.800914e+001	-1.264446e+002	-8.334488e+001	-1.507557e+002	-2.000000e+002	0.000000e+000	-2.000000e+002	0.000000e+000
901312500	-1.800661e+001	-1.266382e+002	-8.044741e+001	2.656572e+001	-2.000000e+002	0.000000e+000	-2.000000e+002	0.000000e+000
901350000	-1.800650e+001	-1.268541e+002	-8.227874e+001	2.956870e+001	-2.000000e+002	0.000000e+000	-2.000000e+002	0.000000e+000
901387500	-1.801989e+001	-1.270278e+002	-7.744594e+001	5.333920e+001	-2.000000e+002	0.000000e+000	-2.000000e+002	0.000000e+000
901425000	-1.801000e+001	-1.272512e+002	-7.764251e+001	3.390808e+001	-2.000000e+002	0.000000e+000	-2.000000e+002	0.000000e+000
901462500	-1.800492e+001	-1.274270e+002	-8.938845e+001	-8.285453e+001	-2.000000e+002	0.000000e+000	-2.000000e+002	0.000000e+000
901500000	-1.800380e+001	-1.276732e+002	-7.288539e+001	1.098821e+002	-2.000000e+002	0.000000e+000	-2.000000e+002	0.000000e+000
901537500	-1.800610e+001	-1.278511e+002	-8.061504e+001	4.232316e+001	-2.000000e+002	0.000000e+000	-2.000000e+002	0.000000e+000
901575000	-1.800763e+001	-1.280505e+002	-8.326597e+001	1.242661e+002	-2.000000e+002	0.000000e+000	-2.000000e+002	0.000000e+000
901612500	-1.800236e+001	-1.282329e+002	-7.610262e+001	5.318805e+001	-2.000000e+002	0.000000e+000	-2.000000e+002	0.000000e+000
901650000	-1.800862e+001	-1.284139e+002	-7.505728e+001	5.604205e+001	-2.000000e+002	0.000000e+000	-2.000000e+002	0.000000e+000
901687500	-1.799885e+001	-1.286598e+002	-7.651503e+001	8.232396e+001	-2.000000e+002	0.000000e+000	-2.000000e+002	0.000000e+000
901725000	-1.799678e+001	-1.289097e+002	-8.136424e+001	4.590175e+000	-2.000000e+002	0.000000e+000	-2.000000e+002	0.000000e+000
901762500	-1.799611e+001	-1.289973e+002	-7.944940e+001	2.438845e+001	-2.000000e+002	0.000000e+000	-2.000000e+002	0.000000e+000
901800000	-1.799681e+001	-1.292067e+002	-7.942636e+001	4.677807e+001	-2.000000e+002	0.000000e+000	-2.000000e+002	0.000000e+000
901837500	-1.799994e+001	-1.294496e+002	-7.651438e+001	8.076775e+000	-2.000000e+002	0.000000e+000	-2.000000e+002	0.000000e+000
901875000	-1.798347e+001	-1.296529e+002	-7.354208e+001	5.128153e+001	-2.000000e+002	0.000000e+000	-2.000000e+002	0.000000e+000
901912500	-1.799540e+001	-1.298333e+002	-7.351596e+001	1.100238e+001	-2.000000e+002	0.000000e+000	-2.000000e+002	0.000000e+000
901950000	-1.798908e+001	-1.300744e+002	-8.245227e+001	-4.536258e+000	-2.000000e+002	0.000000e+000	-2.000000e+002	0.000000e+000
901987500	-1.798636e+001	-1.302257e+002	-8.253388e+001	6.769136e+001	-2.000000e+002	0.000000e+000	-2.000000e+002	0.000000e+000
902025000	-1.798427e+001	-1.304435e+002	-7.938016e+001	5.652554e+001	-2.000000e+002	0.000000e+000	-2.000000e+002	0.000000e+000
902062500	-1.798023e+001	-1.307654e+002	-8.241132e+001	1.036216e+002	-2.000000e+002	0.000000e+000	-2.000000e+002	0.000000e+000
902100000	-1.798274e+001	-1.309107e+002	-7.502143e+001	-1.738947e+001	-2.000000e+002	0.000000e+000	-2.000000e+002	0.000000e+000
902137500	-1.797310e+001	-1.310763e+002	-7.499444e+001	2.149540e+001	-2.000000e+002	0.000000e+000	-2.000000e+002	0.000000e+000
902175000	-1.797470e+001	-1.313191e+002	-8.272010e+001	5.667869e+001	-2.000000e+002	0.000000e+000	-2.000000e+002	0.000000e+000
902212500	-1.798082e+001	-1.315562e+002	-7.979270e+001	2.869943e+001	-2.000000e+002	0.000000e+000	-2.000000e+002	0.000000e+000
902250000	-1.797089e+001	-1.317654e+002	-8.360972e+001	7.266916e+001	-2.000000e+002	0.000000e+000	-2.000000e+002	0.000000e+000
902287500	-1.796692e+001	-1.320152e+002	-7.620739e+001	6.161586e+001	-2.000000e+002	0.000000e+000	-2.000000e+002	0.000000e+000
902325000	-1.796531e+001	-1.321716e+002	-8.339595e+001	1.709832e+001	-2.000000e+002	0.000000e+000	-2.000000e+002	0.000000e+000
902362500	-1.797217e+001	-1.323812e+002	-7.887837e+001	1.751062e+001	-2.000000e+002	0.000000e+000	-2.000000e+002	0.000000e+000
902400000	-1.796113e+001	-1.326855e+002	-8.860162e+001	-8.804749e+001	-2.000000e+002	0.000000e+000	-2.000000e+002	0.000000e+000
902437500	-1.796548e+001	-1.328963e+002	-7.975568e+001	7.724099e+001	-2.000000e+002	0.000000e+000	-2.000000e+002	0.000000e+000
902475000	-1.796894e+001	-1.330988e+002	-8.272581e+001	6.092037e+001	-2.000000e+002	0.000000e+000	-2.000000e+002	0.000000e+000
902512500	-1.797944e+001	-1.333558e+002	-9.473506e+001	-1.386989e+002	-2.000000e+002	0.000000e+000	-2.000000e+002	0.000000e+000
902550000	-1.796549e+001	-1.335522e+002	-8.884289e+001	1.576834e+000	-2.000000e+002	0.000000e+000	-2.000000e+002	0.000000e+000
902587500	-1.796354e+001	-1.338697e+002	-7.534976e+001	4.046363e+001	-2.000000e+002	0.000000e+000	-2.000000e+002	0.000000e+000
902625000	-1.796625e+001	-1.340637e+002	-7.983647e+001	9.666104e+001	-2.000000e+002	0.000000e+000	-2.000000e+002	0.000000e+000
902662500	-1.797749e+001	-1.343258e+002	-7.418644e+001	1.744516e+001	-2.000000e+002	0.000000e+000	-2.000000e+002	0.000000e+000
902700000	-1.797535e+001	-1.345397e+002	-8.133035e+001	2.074395e+001	-2.000000e+002	0.000000e+000	-2.000000e+002	0.000000e+000
902737500	-1.797886e+001	-1.347574e+002	-7.655972e+001	-5.522070e+001	-2.000000e+002	0.000000e+000	-2.000000e+002	0.000000e+000
902775000	-1.798922e+001	-1.349763e+002	-7.507734e+001	-1.075643e+001	-2.000000e+002	0.000000e+000	-2.000000e+002	0.000000e+000
902812500	-1.797970e+001	-1.351590e+002	-8.456646e+001	-2.968415e+001	-2.000000e+002	0.000000e+000	-2.000000e+002	0.000000e+000
902850000	-1.799362e+001	-1.353890e+002	-7.760654e+001	-1.368552e+001	-2.000000e+002	0.000000e+000	-2.000000e+002	0.000000e+000
902887500	-1.799981e+001	-1.355714e+002	-8.084981e+001	-1.438618e+001	-2.000000e+002	0.000000e+000	-2.000000e+002	0.000000e+000
902925000	-1.800002e+001	-1.358297e+002	-8.578244e+001	6.590280e+001	-2.000000e+002	0.000000e+000	-2.000000e+002	0.000000e+000
902962500	-1.800372e+001	-1.359894e+002	-7.475424e+001	1.366911e+000	-2.000000e+002	0.000000e+000	-2.000000e+002	0.000000e+000
903000000	-1.800061e+001	-1.361502e+002	-8.227610e+001	9.141879e+000	-2.000000e+002	0.000000e+000	-2.000000e+002	0.000000e+000
903037500	-1.800908e+001	-1.363751e+002	-8.738215e+001	-9.629287e+001	-2.000000e+002	0.000000e+000	-2.000000e+002	0.000000e+000
903075000	-1.800378e+001	-1.365183e+002	-7.274507e+001	-2.243727e+001	-2.000000e+002	0.000000e+000	-2.000000e+002	0.000000e+000
903112500	-1.799989e+001	-1.367151e+002	-8.225353e+001	8.547994e+001	-2.000000e+002	0.000000e+000	-2.000000e+002	0.000000e+000
903150000	-1.800044e+001	-1.369142e+002	-8.438108e+001	4.953320e+001	-2.000000e+002	0.000000e+000	-2.000000e+002	0.000000e+000
903187500	-1.800908e+001	-1.370743e+002	-8.055283e+001	-4.033669e+001	-2.000000e+002	0.000000e+000	-2.000000e+002	0.000000e+000
903225000	-1.800401e+001	-1.374017e+002	-7.721698e+001	1.219219e+000	-2.000000e+002	0.000000e+000	-2.000000e+002	0.000000e+000
903262500	-1.800157e+001	-1.375445e+002	-8.383222e+001	-8.567186e+000	-2.000000e+002	0.000000e+000	-2.000000e+002	0.000000e+000
903300000	-1.800882e+001	-1.377225e+002	-7.574381e+001	-2.445876e+001	-2.000000e+002	0.000000e+000	-2.000000e+002	0.000000e+000
903337500	-1.799225e+001	-1.379891e+002	-8.661187e+001	4.149122e+001	-2.000000e+002	0.000000e+000	-2.000000e+002	0.000000e+000
903375000	-1.800349e+001	-1.381775e+002	-8.595002e+001	1.287705e+002	-2.000000e+002	0.000000e+000	-2.000000e+002	0.000000e+000
903412500	-1.799741e+001	-1.383543e+002	-7.479889e+001	-9.368996e+000	-2.000000e+002	0.000000e+000	-2.000000e+002	0.000000e+000
903450000	-1.800976e+001	-1.385365e+002	-7.593152e+001	-5.544476e+001	-2.000000e+002	0.000000e+000	-2.000000e+002	0.000000e+000
903487500	-1.800470e+001	-1.388022e+002	-8.100454e+001	2.770095e+001	-2.000000e+002	0.000000e+000	-2.000000e+002	0.000000e+000
903525000	-1.799580e+001	-1.390005e+002	-9.073787e+001	-3.984036e+001	-2.000000e+002	0.000000e+000	-2.000000e+002	0.000000e+000
903562500	-1.801313e+001	-1.392780e+002	-7.956019e+001	-1.613710e+002	-2.000000e+002	0.000000e+000	-2.000000e+002	0.000000e+000
903600000	-1.800842e+001	-1.394528e+002	-7.808564e+001	-6.488967e+000	-2.000000e+002	0.000000e+000	-2.000000e+002	0.000000e+000
903637500	-1.801377e+001	-1.396678e+002	-8.146137e+001	3.828029e+001	-2.000000e+002	0.000000e+000	-2.000000e+002	0.000000e+000
903675000	-1.800114e+001	-1.398839e+002	-8.338707e+001	-2.857557e+001	-2.000000e+002	0.000000e+000	-2.000000e+002	0.000000e+000
903712500	-1.800792e+001	-1.400952e+002	-7.548467e+001	1.161766e+001	-2.000000e+002	0.000000e+000	-2.000000e+002	0.000000e+000
903750000	-1.800531e+001	-1.402908e+002	-7.966619e+001	-5.589034e+001	-2.000000e+002	0.000000e+000	-2.000000e+002	0.000000e+000
903787500	-1.801406e+001	-1.405314e+002	-7.709883e+001	7.591096e+000	-2.000000e+002	0.000000e+000	-2.000000e+002	0.000000e+000
903825000	-1.801445e+001	-1.407541e+002	-7.791648e+001	5.285886e+001	-2.000000e+002	0.000000e+000	-2.000000e+002	0.000000e+000
903862500	-1.801286e+001	-1.409348e+002	-7.742139e+001	-1.532840e+001	-2.000000e+002	0.000000e+000	-2.000000e+002	0.000000e+000
903900000	-1.801417e+001	-1.411044e+002	-8.423564e+001	-1.409529e+001	-2.000000e+002	0.000000e+000	-2.000000e+002	0.000000e+000
903937500	-1.801752e+001	-1.413820e+002	-7.410967e+001	-1.348648e+001	-2.000000e+002	0.000000e+000	-2.000000e+002	0.000000e+000
903975000	-1.802500e+001	-1.415761e+002	-8.069747e+001	8.077687e+000	-2.000000e+002	0.000000e+000	-2.000000e+002	0.000000e+000
904012500	-1.802918e+001	-1.417596e+002	-7.480469e+001	2.305246e+001	-2.000000e+002	0.000000e+000	-2.000000e+002	0.000000e+000
904050000	-1.802790e+001	-1.419833e+002	-7.911101e+001	2.748605e+001	-2.000000e+002	0.000000e+000	-2.000000e+002	0.000000e+000
904087500	-1.803911e+001	-1.421370e+002	-7.691763e+001	-3.317531e+001	-2.000000e+002	0.000000e+000	-2.000000e+002	0.000000e+000
904125000	-1.803543e+001	-1.423689e+002	-8.407166e+001	-7.614459e+001	-2.000000e+002	0.000000e+000	-2.000000e+002	0.000000e+000
904162500	-1.803847e+001	-1.426056e+002	-8.298392e+001	5.651728e+001	-2.000000e+002	0.000000e+000	-2.000000e+002	0.000000e+000
904200000	-1.803578e+001	-1.427517e+002	-7.349812e+001	-7.434435e+000	-2.000000e+002	0.000000e+000	-2.000000e+002	0.000000e+000
904237500	-1.802767e+001	-1.429885e+002	-7.954621e+001	3.136650e+000	-2.000000e+002	0.000000e+000	-2.000000e+002	0.000000e+000
904275000	-1.804149e+001	-1.431489e+002	-1.123811e+002	1.225771e+002	-2.000000e+002	0.000000e+000	-2.000000e+002	0.000000e+000
904312500	-1.803846e+001	-1.433806e+002	-8.053446e+001	-9.109451e+000	-2.000000e+002	0.000000e+000	-2.000000e+002	0.000000e+000
904350000	-1.803921e+001	-1.436153e+002	-7.547613e+001	1.051975e+000	-2.000000e+002	0.000000e+000	-2.000000e+002	0.000000e+000
904387500	-1.803534e+001	-1.437663e+002	-8.374754e+001	-1.649905e+001	-2.000000e+002	0.000000e+000	-2.000000e+002	0.000000e+000
904425000	-1.804145e+001	-1.439961e+002	-8.102284e+001	-9.182081e+000	-2.000000e+002	0.000000e+000	-2.000000e+002	0.000000e+000
904462500	-1.803886e+001	-1.441546e+002	-8.472877e+001	-1.234947e+001	-2.000000e+002	0.000000e+000	-2.000000e+002	0.000000e+000
904500000	-1.805436e+001	-1.444199e+002	-7.883030e+001	-4.021341e+001	-2.000000e+002	0.000000e+000	-2.000000e+002	0.000000e+000
904537500	-1.805159e+001	-1.445653e+002	-7.580377e+001	-3.762673e+001	-2.000000e+002	0.000000e+000	-2.000000e+002	0.000000e+000
904575000	-1.804518e+001	-1.448134e+002	-8.116410e+001	1.086183e+002	-2.000000e+002	0.000000e+000	-2.000000e+002	0.000000e+000
904612500	-1.805114e+001	-1.449671e+002	-7.784691e+001	6.486862e-001	-2.000000e+002	0.000000e+000	-2.000000e+002	0.000000e+000
904650000	-1.804877e+001	-1.452239e+002	-7.274048e+001	-1.228354e+001	-2.000000e+002	0.000000e+000	-2.000000e+002	0.000000e+000
904687500	-1.805362e+001	-1.454692e+002	-7.590210e+001	-4.760931e+001	-2.000000e+002	0.000000e+000	-2.000000e+002	0.000000e+000
904725000	-1.805712e+001	-1.456446e+002	-7.660271e+001	5.501740e+001	-2.000000e+002	0.000000e+000	-2.000000e+002	0.000000e+000
904762500	-1.804927e+001	-1.457899e+002	-7.996358e+001	-4.660874e+001	-2.000000e+002	0.000000e+000	-2.000000e+002	0.000000e+000
904800000	-1.806282e+001	-1.460496e+002	-7.790793e+001	4.540840e+001	-2.000000e+002	0.000000e+000	-2.000000e+002	0.000000e+000
904837500	-1.806181e+001	-1.462523e+002	-8.311607e+001	-1.483651e+001	-2.000000e+002	0.000000e+000	-2.000000e+002	0.000000e+000
904875000	-1.806601e+001	-1.464503e+002	-7.585803e+001	-6.785090e+001	-2.000000e+002	0.000000e+000	-2.000000e+002	0.000000e+000
904912500	-1.805601e+001	-1.466161e+002	-8.132202e+001	5.167293e+001	-2.000000e+002	0.000000e+000	-2.000000e+002	0.000000e+000
904950000	-1.806067e+001	-1.468349e+002	-8.158921e+001	-2.707678e+001	-2.000000e+002	0.000000e+000	-2.000000e+002	0.000000e+000
904987500	-1.806667e+001	-1.470351e+002	-8.000418e+001	7.419629e+000	-2.000000e+002	0.000000e+000	-2.000000e+002	0.000000e+000
905025000	-1.806987e+001	-1.472589e+002	-7.765833e+001	-1.374622e+001	-2.000000e+002	0.000000e+000	-2.000000e+002	0.000000e+000
905062500	-1.806843e+001	-1.474035e+002	-7.617831e+001	-2.016983e+001	-2.000000e+002	0.000000e+000	-2.000000e+002	0.000000e+000
905100000	-1.807088e+001	-1.476149e+002	-8.647664e+001	1.678975e+002	-2.000000e+002	0.000000e+000	-2.000000e+002	0.000000e+000
905137500	-1.807416e+001	-1.477972e+002	-7.927708e+001	-5.621945e+001	-2.000000e+002	0.000000e+000	-2.000000e+002	0.000000e+000
905175000	-1.808097e+001	-1.479816e+002	-7.992667e+001	3.914075e+000	-2.000000e+002	0.000000e+000	-2.000000e+002	0.000000e+000
905212500	-1.807596e+001	-1.481295e+002	-7.651834e+001	1.346241e+002	-2.000000e+002	0.000000e+000	-2.000000e+002	0.000000e+000
905250000	-1.807221e+001	-1.483269e+002	-7.609470e+001	5.507609e+000	-2.000000e+002	0.000000e+000	-2.000000e+002	0.000000e+000
905287500	-1.807244e+001	-1.484995e+002	-8.129170e+001	-8.366530e+000	-2.000000e+002	0.000000e+000	-2.000000e+002	0.000000e+000
905325000	-1.806762e+001	-1.487716e+002	-7.827754e+001	1.059697e+000	-2.000000e+002	0.000000e+000	-2.000000e+002	0.000000e+000
905362500	-1.807382e+001	-1.489343e+002	-8.372769e+001	2.968703e+001	-2.000000e+002	0.000000e+000	-2.000000e+002	0.000000e+000
905400000	-1.806666e+001	-1.491701e+002	-8.089513e+001	1.728988e+001	-2.000000e+002	0.000000e+000	-2.000000e+002	0.000000e+000
905437500	-1.807005e+001	-1.493933e+002	-7.766362e+001	6.875841e+001	-2.000000e+002	0.000000e+000	-2.000000e+002	0.000000e+000
905475000	-1.805988e+001	-1.496014e+002	-7.889392e+001	-6.770173e+001	-2.000000e+002	0.000000e+000	-2.000000e+002	0.000000e+000
905512500	-1.806551e+001	-1.497506e+002	-7.804954e+001	-5.004196e+001	-2.000000e+002	0.000000e+000	-2.000000e+002	0.000000e+000
905550000	-1.806182e+001	-1.499794e+002	-8.130583e+001	1.409597e+001	-2.000000e+002	0.000000e+000	-2.000000e+002	0.000000e+000
905587500	-1.805805e+001	-1.501315e+002	-7.394365e+001	-6.356099e+000	-2.000000e+002	0.000000e+000	-2.000000e+002	0.000000e+000
905625000	-1.807466e+001	-1.504515e+002	-9.012054e+001	-1.248170e+000	-2.000000e+002	0.000000e+000	-2.000000e+002	0.000000e+000
905662500	-1.806105e+001	-1.506457e+002	-7.264454e+001	-1.683486e+001	-2.000000e+002	0.000000e+000	-2.000000e+002	0.000000e+000
