!Agilent Technologies,E5071C,MY46214392,A.11.36
!Date: Thu Feb 26 21:56:24 2026
!Data & Calibration Information:
!Freq	S11:NONE(--)	S21:NONE(--)	S12:NONE(--)	S22:NONE(--)
!PortZ  Port1:50+j0    Port2:50+j0
!Above PortZ is port z conversion or system Z0 setting when saving the data.
!When reading, reference impedance value at option line is always used.
# Hz S dB R 50
900000000	-1.802517e+001	-1.197073e+002	-7.721082e+001	2.203547e+001	-2.000000e+002	0.000000e+000	-2.000000e+002	0.000000e+000
900037500	-1.801585e+001	-1.199140e+002	-7.617098e+001	-5.988656e+000	-2.000000e+002	0.000000e+000	-2.000000e+002	0.000000e+000
900075000	-1.801936e+001	-1.201092e+002	-8.612194e+001	-2.662407e+000	-2.000000e+002	0.000000e+000	-2.000000e+002	0.000000e+000
900112500	-1.802844e+001	-1.202839e+002	-7.245939e+001	1.768943e+001	-2.000000e+002	0.000000e+000	-2.000000e+002	0.000000e+000
900150000	-1.802239e+001	-1.205088e+002	-7.885238e+001	-3.978102e+001	-2.000000e+002	0.000000e+000	-2.000000e+002	0.000000e+000
900187500	-1.802229e+001	-1.206848e+002	-7.890492e+001	2.827569e+001	-2.000000e+002	0.000000e+000	-2.000000e+002	0.000000e+000
900225000	-1.802515e+001	-1.208673e+002	-7.686482e+001	-1.715159e+001	-2.000000e+002	0.000000e+000	-2.000000e+002	0.000000e+000
900262500	-1.802431e+001	-1.210506e+002	-7.389527e+001	6.321513e+001	-2.000000e+002	0.000000e+000	-2.000000e+002	0.000000e+000
900300000	-1.802132e+001	-1.212484e+002	-7.463620e+001	2.279861e+001	-2.000000e+002	0.000000e+000	-2.000000e+002	0.000000e+000
900337500	-1.802260e+001	-1.214713e+002	-8.602154e+001	1.339069e+002	-2.000000e+002	0.000000e+000	-2.000000e+002	0.000000e+000
900375000	-1.801899e+001	-1.216698e+002	-7.938330e+001	9.798818e+001	-2.000000e+002	0.000000e+000	-2.000000e+002	0.000000e+000
900412500	-1.802133e+001	-1.218363e+002	-7.669982e+001	-6.162627e+000	-2.000000e+002	0.000000e+000	-2.000000e+002	0.000000e+000
900450000	-1.802232e+001	-1.220778e+002	-7.627448e+001	4.738117e+000	-2.000000e+002	0.000000e+000	-2.000000e+002	0.000000e+000
900487500	-1.802206e+001	-1.222040e+002	-7.767583e+001	5.816846e+000	-2.000000e+002	0.000000e+000	-2.000000e+002	0.000000e+000
900525000	-1.801503e+001	-1.224599e+002	-7.679737e+001	3.017202e+001	-2.000000e+002	0.000000e+000	-2.000000e+002	0.000000e+000
900562500	-1.801543e+001	-1.226302e+002	-7.977677e+001	2.466322e+001	-2.000000e+002	0.000000e+000	-2.000000e+002	0.000000e+000
900600000	-1.801218e+001	-1.228502e+002	-8.399033e+001	-1.166773e+002	-2.000000e+002	0.000000e+000	-2.000000e+002	0.000000e+000
900637500	-1.802199e+001	-1.230324e+002	-7.460876e+001	3.221867e+001	-2.000000e+002	0.000000e+000	-2.000000e+002	0.000000e+000
900675000	-1.802135e+001	-1.232286e+002	-7.790288e+001	9.868344e+000	-2.000000e+002	0.000000e+000	-2.000000e+002	0.000000e+000
900712500	-1.801570e+001	-1.234149e+002	-9.385169e+001	1.565039e+002	-2.000000e+002	0.000000e+000	-2.000000e+002	0.000000e+000
900750000	-1.801742e+001	-1.236239e+002	-8.505234e+001	4.745081e+001	-2.000000e+002	0.000000e+000	-2.000000e+002	0.000000e+000
900787500	-1.801476e+001	-1.238574e+002	-8.089083e+001	7.370554e+001	-2.000000e+002	0.000000e+000	-2.000000e+002	0.000000e+000
900825000	-1.801324e+001	-1.240220e+002	-7.265569e+001	2.458098e+001	-2.000000e+002	0.000000e+000	-2.000000e+002	0.000000e+000
900862500	-1.801049e+001	-1.242212e+002	-7.805972e+001	-1.269066e+002	-2.000000e+002	0.000000e+000	-2.000000e+002	0.000000e+000
900900000	-1.800351e+001	-1.244180e+002	-8.249484e+001	1.179787e+002	-2.000000e+002	0.000000e+000	-2.000000e+002	0.000000e+000
900937500	-1.800251e+001	-1.246009e+002	-8.169750e+001	3.081424e+001	-2.000000e+002	0.000000e+000	-2.000000e+002	0.000000e+000
900975000	-1.801028e+001	-1.248771e+002	-7.420242e+001	-2.299411e+000	-2.000000e+002	0.000000e+000	-2.000000e+002	0.000000e+000
901012500	-1.800791e+001	-1.250599e+002	-7.823378e+001	-1.690057e+001	-2.000000e+002	0.000000e+000	-2.000000e+002	0.000000e+000
901050000	-1.800651e+001	-1.252226e+002	-7.842992e+001	1.196355e+001	-2.000000e+002	0.000000e+000	-2.000000e+002	0.000000e+000
901087500	-1.801062e+001	-1.254635e+002	-7.568001e+001	9.925123e+001	-2.000000e+002	0.000000e+000	-2.000000e+002	0.000000e+000
901125000	-1.801154e+001	-1.256107e+002	-7.597124e+001	5.937217e-002	-2.000000e+002	0.000000e+000	-2.000000e+002	0.000000e+000
901162500	-1.801906e+001	-1.258561e+002	-7.791680e+001	5.500947e+001	-2.000000e+002	0.000000e+000	-2.000000e+002	0.000000e+000
901200000	-1.799804e+001	-1.260306e+002	-8.029799e+001	-1.565361e+000	-2.000000e+002	0.000000e+000	-2.000000e+002	0.000000e+000
901237500	-1.800896e+001	-1.262272e+002	-7.771606e+001	2.244144e+001	-2.000000e+002	0.000000e+000	-2.000000e+002	0.000000e+000
901275000	-1.799979e+001	-1.263790e+002	-7.525045e+001	6.355117e+001	-2.000000e+002	0.000000e+000	-2.000000e+002	0.000000e+000
901312500	-1.799940e+001	-1.266314e+002	-8.948153e+001	7.357375e+001	-2.000000e+002	0.000000e+000	-2.000000e+002	0.000000e+000
901350000	-1.800170e+001	-1.268685e+002	-7.483281e+001	1.848636e+001	-2.000000e+002	0.000000e+000	-2.000000e+002	0.000000e+000
901387500	-1.799858e+001	-1.270112e+002	-8.418615e+001	-1.461053e+002	-2.000000e+002	0.000000e+000	-2.000000e+002	0.000000e+000
901425000	-1.800583e+001	-1.271681e+002	-7.445970e+001	3.769755e+001	-2.000000e+002	0.000000e+000	-2.000000e+002	0.000000e+000
901462500	-1.799680e+001	-1.274070e+002	-8.141181e+001	2.024286e+001	-2.000000e+002	0.000000e+000	-2.000000e+002	0.000000e+000
901500000	-1.800151e+001	-1.275801e+002	-7.422320e+001	-1.408938e+001	-2.000000e+002	0.000000e+000	-2.000000e+002	0.000000e+000
901537500	-1.798992e+001	-1.277629e+002	-7.516546e+001	1.465375e+001	-2.000000e+002	0.000000e+000	-2.000000e+002	0.000000e+000
901575000	-1.798691e+001	-1.280289e+002	-7.470629e+001	-1.722900e+001	-2.000000e+002	0.000000e+000	-2.000000e+002	0.000000e+000
901612500	-1.799519e+001	-1.282160e+002	-8.470161e+001	-3.815994e+001	-2.000000e+002	0.000000e+000	-2.000000e+002	0.000000e+000
901650000	-1.799115e+001	-1.283864e+002	-8.097841e+001	2.700155e+001	-2.000000e+002	0.000000e+000	-2.000000e+002	0.000000e+000
901687500	-1.799270e+001	-1.286168e+002	-7.759126e+001	-3.382103e+001	-2.000000e+002	0.000000e+000	-2.000000e+002	0.000000e+000
901725000	-1.798681e+001	-1.287822e+002	-8.178082e+001	-6.152188e+001	-2.000000e+002	0.000000e+000	-2.000000e+002	0.000000e+000
901762500	-1.799002e+001	-1.290451e+002	-9.615545e+001	-3.389163e+001	-2.000000e+002	0.000000e+000	-2.000000e+002	0.000000e+000
901800000	-1.798933e+001	-1.292723e+002	-8.086085e+001	-6.731135e+001	-2.000000e+002	0.000000e+000	-2.000000e+002	0.000000e+000
901837500	-1.799090e+001	-1.294482e+002	-8.295971e+001	6.371331e+001	-2.000000e+002	0.000000e+000	-2.000000e+002	0.000000e+000
901875000	-1.798133e+001	-1.297180e+002	-7.552053e+001	3.830737e+001	-2.000000e+002	0.000000e+000	-2.000000e+002	0.000000e+000
901912500	-1.798636e+001	-1.298722e+002	-7.521076e+001	3.180221e+001	-2.000000e+002	0.000000e+000	-2.000000e+002	0.000000e+000
901950000	-1.798640e+001	-1.300510e+002	-8.089122e+001	8.700963e+001	-2.000000e+002	0.000000e+000	-2.000000e+002	0.000000e+000
901987500	-1.797985e+001	-1.302894e+002	-7.956882e+001	9.646095e+000	-2.000000e+002	0.000000e+000	-2.000000e+002	0.000000e+000
902025000	-1.797124e+001	-1.305050e+002	-7.622178e+001	2.939892e+001	-2.000000e+002	0.000000e+000	-2.000000e+002	0.000000e+000
902062500	-1.797042e+001	-1.306638e+002	-7.500895e+001	4.813319e+001	-2.000000e+002	0.000000e+000	-2.000000e+002	0.000000e+000
902100000	-1.796994e+001	-1.309006e+002	-8.435613e+001	-1.604429e+002	-2.000000e+002	0.000000e+000	-2.000000e+002	0.000000e+000
902137500	-1.797247e+001	-1.311156e+002	-8.144715e+001	-1.378801e+002	-2.000000e+002	0.000000e+000	-2.000000e+002	0.000000e+000
902175000	-1.796292e+001	-1.313449e+002	-8.650779e+001	3.486618e+001	-2.000000e+002	0.000000e+000	-2.000000e+002	0.000000e+000
902212500	-1.796250e+001	-1.315196e+002	-7.308398e+001	-8.360300e+000	-2.000000e+002	0.000000e+000	-2.000000e+002	0.000000e+000
902250000	-1.796309e+001	-1.317344e+002	-8.676180e+001	-4.502906e+001	-2.000000e+002	0.000000e+000	-2.000000e+002	0.000000e+000
902287500	-1.795838e+001	-1.319630e+002	-7.788949e+001	5.999168e+001	-2.000000e+002	0.000000e+000	-2.000000e+002	0.000000e+000
902325000	-1.796327e+001	-1.321969e+002	-8.371302e+001	-1.893788e+001	-2.000000e+002	0.000000e+000	-2.000000e+002	0.000000e+000
902362500	-1.795180e+001	-1.323752e+002	-8.029677e+001	2.096413e+001	-2.000000e+002	0.000000e+000	-2.000000e+002	0.000000e+000
902400000	-1.796507e+001	-1.326284e+002	-8.963051e+001	2.103679e+001	-2.000000e+002	0.000000e+000	-2.000000e+002	0.000000e+000
902437500	-1.795721e+001	-1.328554e+002	-8.427344e+001	-1.036539e+002	-2.000000e+002	0.000000e+000	-2.000000e+002	0.000000e+000
902475000	-1.795225e+001	-1.331003e+002	-7.528851e+001	-2.368867e+001	-2.000000e+002	0.000000e+000	-2.000000e+002	0.000000e+000
902512500	-1.795514e+001	-1.333118e+002	-7.368009e+001	2.228371e+001	-2.000000e+002	0.000000e+000	-2.000000e+002	0.000000e+000
902550000	-1.795345e+001	-1.335708e+002	-7.558261e+001	-2.337405e+001	-2.000000e+002	0.000000e+000	-2.000000e+002	0.000000e+000
902587500	-1.796333e+001	-1.338145e+002	-9.158756e+001	-8.859668e+001	-2.000000e+002	0.000000e+000	-2.000000e+002	0.000000e+000
902625000	-1.795902e+001	-1.339929e+002	-7.805620e+001	-3.416221e+001	-2.000000e+002	0.000000e+000	-2.000000e+002	0.000000e+000
902662500	-1.796139e+001	-1.343243e+002	-7.571139e+001	-1.557270e+001	-2.000000e+002	0.000000e+000	-2.000000e+002	0.000000e+000
902700000	-1.796476e+001	-1.344754e+002	-7.635957e+001	2.647572e+001	-2.000000e+002	0.000000e+000	-2.000000e+002	0.000000e+000
902737500	-1.796686e+001	-1.347639e+002	-8.031868e+001	-6.111999e+001	-2.000000e+002	0.000000e+000	-2.000000e+002	0.000000e+000
902775000	-1.797806e+001	-1.349015e+002	-7.749673e+001	-3.958843e+001	-2.000000e+002	0.000000e+000	-2.000000e+002	0.000000e+000
902812500	-1.797806e+001	-1.351252e+002	-7.620238e+001	1.177399e+001	-2.000000e+002	0.000000e+000	-2.000000e+002	0.000000e+000
902850000	-1.799118e+001	-1.353360e+002	-7.574331e+001	1.006072e+000	-2.000000e+002	0.000000e+000	-2.000000e+002	0.000000e+000
902887500	-1.798993e+001	-1.355515e+002	-7.954939e+001	-1.691604e+001	-2.000000e+002	0.000000e+000	-2.000000e+002	0.000000e+000
902925000	-1.799024e+001	-1.357575e+002	-9.201373e+001	-1.352534e+002	-2.000000e+002	0.000000e+000	-2.000000e+002	0.000000e+000
902962500	-1.799688e+001	-1.359630e+002	-7.672196e+001	-4.534753e+001	-2.000000e+002	0.000000e+000	-2.000000e+002	0.000000e+000
903000000	-1.798982e+001	-1.361228e+002	-8.103182e+001	1.049917e+002	-2.000000e+002	0.000000e+000	-2.000000e+002	0.000000e+000
903037500	-1.798890e+001	-1.362948e+002	-7.711360e+001	-1.780360e+000	-2.000000e+002	0.000000e+000	-2.000000e+002	0.000000e+000
903075000	-1.799663e+001	-1.365195e+002	-7.909878e+001	1.702726e+001	-2.000000e+002	0.000000e+000	-2.000000e+002	0.000000e+000
903112500	-1.799262e+001	-1.366492e+002	-7.501779e+001	-1.077576e+001	-2.000000e+002	0.000000e+000	-2.000000e+002	0.000000e+000
903150000	-1.799865e+001	-1.368955e+002	-7.626273e+001	-1.123334e+001	-2.000000e+002	0.000000e+000	-2.000000e+002	0.000000e+000
903187500	-1.798669e+001	-1.370942e+002	-8.023390e+001	-3.548963e+001	-2.000000e+002	0.000000e+000	-2.000000e+002	0.000000e+000
903225000	-1.799556e+001	-1.373434e+002	-8.345804e+001	-1.422390e+002	-2.000000e+002	0.000000e+000	-2.000000e+002	0.000000e+000
903262500	-1.798913e+001	-1.375225e+002	-7.766325e+001	2.634899e+000	-2.000000e+002	0.000000e+000	-2.000000e+002	0.000000e+000
903300000	-1.799495e+001	-1.377192e+002	-8.439799e+001	3.355899e+001	-2.000000e+002	0.000000e+000	-2.000000e+002	0.000000e+000
903337500	-1.799601e+001	-1.379123e+002	-7.735303e+001	1.913772e+001	-2.000000e+002	0.000000e+000	-2.000000e+002	0.000000e+000
903375000	-1.799068e+001	-1.381100e+002	-8.111819e+001	2.797218e+001	-2.000000e+002	0.000000e+000	-2.000000e+002	0.000000e+000
903412500	-1.798760e+001	-1.383682e+002	-7.938849e+001	3.367303e+001	-2.000000e+002	0.000000e+000	-2.000000e+002	0.000000e+000
903450000	-1.798542e+001	-1.385615e+002	-7.736271e+001	3.502743e+001	-2.000000e+002	0.000000e+000	-2.000000e+002	0.000000e+000
903487500	-1.799428e+001	-1.387859e+002	-8.314932e+001	-1.640893e+001	-2.000000e+002	0.000000e+000	-2.000000e+002	0.000000e+000
903525000	-1.799612e+001	-1.390458e+002	-7.638051e+001	-6.155804e+000	-2.000000e+002	0.000000e+000	-2.000000e+002	0.000000e+000
903562500	-1.799710e+001	-1.392379e+002	-7.729186e+001	1.304786e+001	-2.000000e+002	0.000000e+000	-2.000000e+002	0.000000e+000
903600000	-1.799482e+001	-1.394490e+002	-8.337705e+001	8.703153e+000	-2.000000e+002	0.000000e+000	-2.000000e+002	0.000000e+000
903637500	-1.799815e+001	-1.396197e+002	-7.559617e+001	-1.464394e+000	-2.000000e+002	0.000000e+000	-2.000000e+002	0.000000e+000
903675000	-1.799313e+001	-1.399202e+002	-7.920361e+001	4.322179e+001	-2.000000e+002	0.000000e+000	-2.000000e+002	0.000000e+000
903712500	-1.799794e+001	-1.400809e+002	-7.835688e+001	-1.845722e-001	-2.000000e+002	0.000000e+000	-2.000000e+002	0.000000e+000
903750000	-1.800224e+001	-1.402576e+002	-8.026984e+001	-2.504530e+001	-2.000000e+002	0.000000e+000	-2.000000e+002	0.000000e+000
903787500	-1.800411e+001	-1.404968e+002	-8.302136e+001	2.395405e+001	-2.000000e+002	0.000000e+000	-2.000000e+002	0.000000e+000
903825000	-1.800398e+001	-1.406969e+002	-7.799605e+001	-3.851034e+001	-2.000000e+002	0.000000e+000	-2.000000e+002	0.000000e+000
903862500	-1.801085e+001	-1.409241e+002	-8.111394e+001	-2.793119e+001	-2.000000e+002	0.000000e+000	-2.000000e+002	0.000000e+000
903900000	-1.802209e+001	-1.411107e+002	-7.297248e+001	-9.302198e+000	-2.000000e+002	0.000000e+000	-2.000000e+002	0.000000e+000
903937500	-1.800437e+001	-1.413147e+002	-8.121674e+001	-3.765362e+001	-2.000000e+002	0.000000e+000	-2.000000e+002	0.000000e+000
903975000	-1.801057e+001	-1.415360e+002	-7.902309e+001	-1.326864e+001	-2.000000e+002	0.000000e+000	-2.000000e+002	0.000000e+000
904012500	-1.801550e+001	-1.416780e+002	-7.663948e+001	-5.387185e+001	-2.000000e+002	0.000000e+000	-2.000000e+002	0.000000e+000
904050000	-1.801448e+001	-1.419474e+002	-8.226242e+001	-6.502966e+001	-2.000000e+002	0.000000e+000	-2.000000e+002	0.000000e+000
904087500	-1.802532e+001	-1.421594e+002	-7.667423e+001	-8.690845e+000	-2.000000e+002	0.000000e+000	-2.000000e+002	0.000000e+000
904125000	-1.803160e+001	-1.423220e+002	-8.153513e+001	-1.069269e+002	-2.000000e+002	0.000000e+000	-2.000000e+002	0.000000e+000
904162500	-1.802436e+001	-1.425271e+002	-7.518738e+001	1.472089e+001	-2.000000e+002	0.000000e+000	-2.000000e+002	0.000000e+000
904200000	-1.801659e+001	-1.427745e+002	-8.001414e+001	2.614623e+001	-2.000000e+002	0.000000e+000	-2.000000e+002	0.000000e+000
904237500	-1.803131e+001	-1.430013e+002	-7.446326e+001	-3.830249e+001	-2.000000e+002	0.000000e+000	-2.000000e+002	0.000000e+000
904275000	-1.803220e+001	-1.431473e+002	-8.144922e+001	-4.510597e+001	-2.000000e+002	0.000000e+000	-2.000000e+002	0.000000e+000
904312500	-1.802414e+001	-1.433536e+002	-7.557279e+001	-6.865751e+001	-2.000000e+002	0.000000e+000	-2.000000e+002	0.000000e+000
904350000	-1.803366e+001	-1.435674e+002	-8.274296e+001	4.207420e+001	-2.000000e+002	0.000000e+000	-2.000000e+002	0.000000e+000
904387500	-1.803186e+001	-1.437136e+002	-7.953619e+001	3.055255e+001	-2.000000e+002	0.000000e+000	-2.000000e+002	0.000000e+000
904425000	-1.803574e+001	-1.439446e+002	-8.228176e+001	-1.457235e+001	-2.000000e+002	0.000000e+000	-2.000000e+002	0.000000e+000
904462500	-1.803483e+001	-1.441643e+002	-7.686316e+001	-9.286258e+000	-2.000000e+002	0.000000e+000	-2.000000e+002	0.000000e+000
904500000	-1.804099e+001	-1.443621e+002	-7.966244e+001	-3.971153e+001	-2.000000e+002	0.000000e+000	-2.000000e+002	0.000000e+000
904537500	-1.804610e+001	-1.445823e+002	-7.552399e+001	-3.496075e+001	-2.000000e+002	0.000000e+000	-2.000000e+002	0.000000e+000
904575000	-1.803254e+001	-1.447228e+002	-8.135254e+001	-2.412546e+001	-2.000000e+002	0.000000e+000	-2.000000e+002	0.000000e+000
904612500	-1.804005e+001	-1.449921e+002	-7.191125e+001	-3.020259e+001	-2.000000e+002	0.000000e+000	-2.000000e+002	0.000000e+000
904650000	-1.803852e+001	-1.451298e+002	-7.926922e+001	-3.894867e+001	-2.000000e+002	0.000000e+000	-2.000000e+002	0.000000e+000
904687500	-1.804105e+001	-1.454096e+002	-7.540088e+001	-2.181040e+001	-2.000000e+002	0.000000e+000	-2.000000e+002	0.000000e+000
904725000	-1.804766e+001	-1.455939e+002	-7.677416e+001	-5.993704e+001	-2.000000e+002	0.000000e+000	-2.000000e+002	0.000000e+000
904762500	-1.805209e+001	-1.457997e+002	-7.600720e+001	-1.077289e+000	-2.000000e+002	0.000000e+000	-2.000000e+002	0.000000e+000
904800000	-1.804657e+001	-1.459959e+002	-7.560818e+001	7.104125e+000	-2.000000e+002	0.000000e+000	-2.000000e+002	0.000000e+000
904837500	-1.804974e+001	-1.461955e+002	-7.760480e+001	1.065673e+001	-2.000000e+002	0.000000e+000	-2.000000e+002	0.000000e+000
904875000	-1.805672e+001	-1.463776e+002	-7.750205e+001	-2.449345e+001	-2.000000e+002	0.000000e+000	-2.000000e+002	0.000000e+000
904912500	-1.804876e+001	-1.465885e+002	-8.100722e+001	-3.103850e+001	-2.000000e+002	0.000000e+000	-2.000000e+002	0.000000e+000
904950000	-1.805839e+001	-1.468117e+002	-7.577517e+001	-9.496245e+000	-2.000000e+002	0.000000e+000	-2.000000e+002	0.000000e+000
904987500	-1.805863e+001	-1.470143e+002	-7.325536e+001	-1.306050e+001	-2.000000e+002	0.000000e+000	-2.000000e+002	0.000000e+000
905025000	-1.806466e+001	-1.472434e+002	-7.678260e+001	-4.575015e+001	-2.000000e+002	0.000000e+000	-2.000000e+002	0.000000e+000
905062500	-1.805973e+001	-1.473766e+002	-8.093608e+001	-2.465987e+001	-2.000000e+002	0.000000e+000	-2.000000e+002	0.000000e+000
905100000	-1.805663e+001	-1.475903e+002	-8.670332e+001	-5.262734e+001	-2.000000e+002	0.000000e+000	-2.000000e+002	0.000000e+000
905137500	-1.805705e+001	-1.477284e+002	-7.682409e+001	-5.336469e+001	-2.000000e+002	0.000000e+000	-2.000000e+002	0.000000e+000
905175000	-1.806061e+001	-1.479385e+002	-7.909604e+001	-5.841551e+000	-2.000000e+002	0.000000e+000	-2.000000e+002	0.000000e+000
905212500	-1.806287e+001	-1.481293e+002	-7.424738e+001	-6.111452e+001	-2.000000e+002	0.000000e+000	-2.000000e+002	0.000000e+000
905250000	-1.806072e+001	-1.483469e+002	-7.707725e+001	-3.539155e+001	-2.000000e+002	0.000000e+000	-2.000000e+002	0.000000e+000
905287500	-1.806373e+001	-1.485376e+002	-8.649971e+001	2.326800e+001	-2.000000e+002	0.000000e+000	-2.000000e+002	0.000000e+000
905325000	-1.806423e+001	-1.486896e+002	-7.873900e+001	-4.188767e+001	-2.000000e+002	0.000000e+000	-2.000000e+002	0.000000e+000
905362500	-1.806133e+001	-1.489470e+002	-7.699759e+001	-4.334981e+001	-2.000000e+002	0.000000e+000	-2.000000e+002	0.000000e+000
905400000	-1.805850e+001	-1.491207e+002	-7.808921e+001	-7.183708e+001	-2.000000e+002	0.000000e+000	-2.000000e+002	0.000000e+000
905437500	-1.805507e+001	-1.492957e+002	-8.188759e+001	-1.792017e+001	-2.000000e+002	0.000000e+000	-2.000000e+002	0.000000e+000
905475000	-1.805804e+001	-1.494959e+002	-8.189107e+001	-4.967364e+001	-2.000000e+002	0.000000e+000	-2.000000e+002	0.000000e+000
905512500	-1.806252e+001	-1.497374e+002	-7.602374e+001	-3.266816e+001	-2.000000e+002	0.000000e+000	-2.000000e+002	0.000000e+000
905550000	-1.805493e+001	-1.500125e+002	-7.655331e+001	-2.832335e+001	-2.000000e+002	0.000000e+000	-2.000000e+002	0.000000e+000
905587500	-1.804974e+001	-1.501494e+002	-8.953115e+001	-4.950482e+001	-2.000000e+002	0.000000e+000	-2.000000e+002	0.000000e+000
905625000	-1.805393e+001	-1.503653e+002	-8.459212e+001	1.661274e+001	-2.000000e+002	0.000000e+000	-2.000000e+002	0.000000e+000
905662500	-1.805296e+001	-1.505887e+002	-8.139612e+001	-1.173160e+002	-2.000000e+002	0.000000e+000	-2.000000e+002	0.000000e+000
