!Agilent Technologies,E5071C,MY46214392,A.11.36
!Date: Thu Feb 26 21:44:04 2026
!Data & Calibration Information:
!Freq	S11:NONE(--)	S21:NONE(--)	S12:NONE(--)	S22:NONE(--)
!PortZ  Port1:50+j0    Port2:50+j0
!Above PortZ is port z conversion or system Z0 setting when saving the data.
!When reading, reference impedance value at option line is always used.
# Hz S dB R 50
900000000	-1.803501e+001	-1.198536e+002	-7.673358e+001	-6.375531e+001	-2.000000e+002	0.000000e+000	-2.000000e+002	0.000000e+000
900037500	-1.802987e+001	-1.200824e+002	-7.448416e+001	-3.210785e+001	-2.000000e+002	0.000000e+000	-2.000000e+002	0.000000e+000
900075000	-1.802698e+001	-1.202781e+002	-7.371243e+001	-5.833071e+001	-2.000000e+002	0.000000e+000	-2.000000e+002	0.000000e+000
900112500	-1.802790e+001	-1.204992e+002	-6.981409e+001	-6.819596e+001	-2.000000e+002	0.000000e+000	-2.000000e+002	0.000000e+000
900150000	-1.803751e+001	-1.205939e+002	-7.393798e+001	-2.133838e+001	-2.000000e+002	0.000000e+000	-2.000000e+002	0.000000e+000
900187500	-1.803526e+001	-1.208089e+002	-7.728500e+001	-7.040055e+001	-2.000000e+002	0.000000e+000	-2.000000e+002	0.000000e+000
900225000	-1.803227e+001	-1.210243e+002	-7.517828e+001	-7.220924e+001	-2.000000e+002	0.000000e+000	-2.000000e+002	0.000000e+000
900262500	-1.803665e+001	-1.212886e+002	-7.235667e+001	-5.590522e+001	-2.000000e+002	0.000000e+000	-2.000000e+002	0.000000e+000
900300000	-1.802598e+001	-1.213710e+002	-7.259872e+001	-6.811166e+001	-2.000000e+002	0.000000e+000	-2.000000e+002	0.000000e+000
900337500	-1.804007e+001	-1.216798e+002	-7.396119e+001	-5.573962e+001	-2.000000e+002	0.000000e+000	-2.000000e+002	0.000000e+000
900375000	-1.803312e+001	-1.218013e+002	-7.546616e+001	-5.688155e+001	-2.000000e+002	0.000000e+000	-2.000000e+002	0.000000e+000
900412500	-1.803082e+001	-1.220218e+002	-7.012582e+001	-2.829497e+001	-2.000000e+002	0.000000e+000	-2.000000e+002	0.000000e+000
900450000	-1.802866e+001	-1.221826e+002	-7.389924e+001	-4.904067e+001	-2.000000e+002	0.000000e+000	-2.000000e+002	0.000000e+000
900487500	-1.802853e+001	-1.223966e+002	-7.369828e+001	-5.812415e+001	-2.000000e+002	0.000000e+000	-2.000000e+002	0.000000e+000
900525000	-1.803349e+001	-1.225822e+002	-7.428525e+001	-2.904368e+001	-2.000000e+002	0.000000e+000	-2.000000e+002	0.000000e+000
900562500	-1.803059e+001	-1.228434e+002	-7.576841e+001	-5.669324e+001	-2.000000e+002	0.000000e+000	-2.000000e+002	0.000000e+000
900600000	-1.802897e+001	-1.229285e+002	-7.486249e+001	-5.225471e+001	-2.000000e+002	0.000000e+000	-2.000000e+002	0.000000e+000
900637500	-1.802661e+001	-1.232107e+002	-7.500823e+001	-5.954035e+001	-2.000000e+002	0.000000e+000	-2.000000e+002	0.000000e+000
900675000	-1.803133e+001	-1.234258e+002	-7.678828e+001	-6.520113e+001	-2.000000e+002	0.000000e+000	-2.000000e+002	0.000000e+000
900712500	-1.802445e+001	-1.235721e+002	-7.187300e+001	-4.151913e+001	-2.000000e+002	0.000000e+000	-2.000000e+002	0.000000e+000
900750000	-1.803437e+001	-1.238005e+002	-7.284384e+001	-5.830285e+001	-2.000000e+002	0.000000e+000	-2.000000e+002	0.000000e+000
900787500	-1.803128e+001	-1.240068e+002	-7.413250e+001	-8.485234e+001	-2.000000e+002	0.000000e+000	-2.000000e+002	0.000000e+000
900825000	-1.803222e+001	-1.241786e+002	-7.257023e+001	-4.007749e+001	-2.000000e+002	0.000000e+000	-2.000000e+002	0.000000e+000
900862500	-1.802756e+001	-1.243526e+002	-7.376064e+001	-7.426735e+001	-2.000000e+002	0.000000e+000	-2.000000e+002	0.000000e+000
900900000	-1.802267e+001	-1.245990e+002	-7.518649e+001	-5.601751e+001	-2.000000e+002	0.000000e+000	-2.000000e+002	0.000000e+000
900937500	-1.802207e+001	-1.247829e+002	-7.374618e+001	-5.767289e+001	-2.000000e+002	0.000000e+000	-2.000000e+002	0.000000e+000
900975000	-1.802173e+001	-1.249441e+002	-7.190579e+001	-5.875584e+001	-2.000000e+002	0.000000e+000	-2.000000e+002	0.000000e+000
901012500	-1.802728e+001	-1.251679e+002	-7.666248e+001	-4.657527e+001	-2.000000e+002	0.000000e+000	-2.000000e+002	0.000000e+000
901050000	-1.802458e+001	-1.253765e+002	-7.258285e+001	-5.242912e+001	-2.000000e+002	0.000000e+000	-2.000000e+002	0.000000e+000
901087500	-1.803185e+001	-1.256166e+002	-7.228015e+001	-5.812292e+001	-2.000000e+002	0.000000e+000	-2.000000e+002	0.000000e+000
901125000	-1.802215e+001	-1.257479e+002	-7.071326e+001	-3.390179e+001	-2.000000e+002	0.000000e+000	-2.000000e+002	0.000000e+000
901162500	-1.802322e+001	-1.259640e+002	-7.979043e+001	-3.636266e+001	-2.000000e+002	0.000000e+000	-2.000000e+002	0.000000e+000
901200000	-1.801986e+001	-1.261695e+002	-8.297312e+001	-1.016247e+002	-2.000000e+002	0.000000e+000	-2.000000e+002	0.000000e+000
901237500	-1.801676e+001	-1.263623e+002	-7.822818e+001	-3.028914e+001	-2.000000e+002	0.000000e+000	-2.000000e+002	0.000000e+000
901275000	-1.802090e+001	-1.265447e+002	-7.215070e+001	-6.717149e+001	-2.000000e+002	0.000000e+000	-2.000000e+002	0.000000e+000
901312500	-1.801407e+001	-1.267338e+002	-7.604388e+001	-5.001022e+001	-2.000000e+002	0.000000e+000	-2.000000e+002	0.000000e+000
901350000	-1.801077e+001	-1.270332e+002	-7.902035e+001	-9.722492e+001	-2.000000e+002	0.000000e+000	-2.000000e+002	0.000000e+000
901387500	-1.801424e+001	-1.272037e+002	-7.505248e+001	-8.086007e+001	-2.000000e+002	0.000000e+000	-2.000000e+002	0.000000e+000
901425000	-1.801994e+001	-1.273624e+002	-7.598214e+001	-7.195153e+001	-2.000000e+002	0.000000e+000	-2.000000e+002	0.000000e+000
901462500	-1.800657e+001	-1.275590e+002	-7.280030e+001	-8.375812e+001	-2.000000e+002	0.000000e+000	-2.000000e+002	0.000000e+000
901500000	-1.801500e+001	-1.278092e+002	-7.313251e+001	-6.267948e+001	-2.000000e+002	0.000000e+000	-2.000000e+002	0.000000e+000
901537500	-1.800808e+001	-1.279896e+002	-7.681130e+001	-5.348435e+001	-2.000000e+002	0.000000e+000	-2.000000e+002	0.000000e+000
901575000	-1.800956e+001	-1.281939e+002	-7.825379e+001	-3.003807e+001	-2.000000e+002	0.000000e+000	-2.000000e+002	0.000000e+000
901612500	-1.801368e+001	-1.283834e+002	-7.396652e+001	-1.007963e+002	-2.000000e+002	0.000000e+000	-2.000000e+002	0.000000e+000
901650000	-1.801301e+001	-1.285793e+002	-7.421279e+001	-6.994672e+001	-2.000000e+002	0.000000e+000	-2.000000e+002	0.000000e+000
901687500	-1.800563e+001	-1.287971e+002	-7.373596e+001	-6.996025e+001	-2.000000e+002	0.000000e+000	-2.000000e+002	0.000000e+000
901725000	-1.801054e+001	-1.290047e+002	-7.504269e+001	-6.799770e+001	-2.000000e+002	0.000000e+000	-2.000000e+002	0.000000e+000
901762500	-1.799704e+001	-1.291700e+002	-7.380159e+001	-6.520002e+001	-2.000000e+002	0.000000e+000	-2.000000e+002	0.000000e+000
901800000	-1.800467e+001	-1.294070e+002	-7.599899e+001	-8.929227e+001	-2.000000e+002	0.000000e+000	-2.000000e+002	0.000000e+000
901837500	-1.799427e+001	-1.295736e+002	-7.520244e+001	-6.341515e+001	-2.000000e+002	0.000000e+000	-2.000000e+002	0.000000e+000
901875000	-1.800120e+001	-1.298066e+002	-7.246975e+001	-7.200082e+001	-2.000000e+002	0.000000e+000	-2.000000e+002	0.000000e+000
901912500	-1.799620e+001	-1.299903e+002	-7.448686e+001	-6.114444e+001	-2.000000e+002	0.000000e+000	-2.000000e+002	0.000000e+000
901950000	-1.798938e+001	-1.302058e+002	-7.489833e+001	-8.040238e+001	-2.000000e+002	0.000000e+000	-2.000000e+002	0.000000e+000
901987500	-1.799459e+001	-1.303939e+002	-7.314534e+001	-6.226144e+001	-2.000000e+002	0.000000e+000	-2.000000e+002	0.000000e+000
902025000	-1.799442e+001	-1.306278e+002	-7.572810e+001	-5.839500e+001	-2.000000e+002	0.000000e+000	-2.000000e+002	0.000000e+000
902062500	-1.798643e+001	-1.308805e+002	-7.198857e+001	-5.121350e+001	-2.000000e+002	0.000000e+000	-2.000000e+002	0.000000e+000
902100000	-1.798405e+001	-1.310417e+002	-7.482083e+001	-3.902185e+001	-2.000000e+002	0.000000e+000	-2.000000e+002	0.000000e+000
902137500	-1.798095e+001	-1.312642e+002	-7.153211e+001	-7.714656e+001	-2.000000e+002	0.000000e+000	-2.000000e+002	0.000000e+000
902175000	-1.798125e+001	-1.314656e+002	-7.214131e+001	-8.972823e+001	-2.000000e+002	0.000000e+000	-2.000000e+002	0.000000e+000
902212500	-1.798039e+001	-1.317139e+002	-7.208407e+001	-7.526923e+001	-2.000000e+002	0.000000e+000	-2.000000e+002	0.000000e+000
902250000	-1.797414e+001	-1.318451e+002	-7.415304e+001	-9.053372e+001	-2.000000e+002	0.000000e+000	-2.000000e+002	0.000000e+000
902287500	-1.797295e+001	-1.321242e+002	-7.009610e+001	-7.183996e+001	-2.000000e+002	0.000000e+000	-2.000000e+002	0.000000e+000
902325000	-1.796903e+001	-1.322836e+002	-7.728462e+001	-5.185310e+001	-2.000000e+002	0.000000e+000	-2.000000e+002	0.000000e+000
902362500	-1.797252e+001	-1.325959e+002	-7.254908e+001	-6.795747e+001	-2.000000e+002	0.000000e+000	-2.000000e+002	0.000000e+000
902400000	-1.796184e+001	-1.327243e+002	-7.010121e+001	-4.072149e+001	-2.000000e+002	0.000000e+000	-2.000000e+002	0.000000e+000
902437500	-1.796638e+001	-1.330210e+002	-7.476728e+001	-8.851148e+001	-2.000000e+002	0.000000e+000	-2.000000e+002	0.000000e+000
902475000	-1.796525e+001	-1.332573e+002	-7.472681e+001	-6.468682e+001	-2.000000e+002	0.000000e+000	-2.000000e+002	0.000000e+000
902512500	-1.796018e+001	-1.334653e+002	-8.034314e+001	-3.739241e+001	-2.000000e+002	0.000000e+000	-2.000000e+002	0.000000e+000
902550000	-1.796985e+001	-1.337687e+002	-7.192175e+001	-6.836021e+001	-2.000000e+002	0.000000e+000	-2.000000e+002	0.000000e+000
902587500	-1.797000e+001	-1.339838e+002	-7.373354e+001	-6.036775e+001	-2.000000e+002	0.000000e+000	-2.000000e+002	0.000000e+000
902625000	-1.796800e+001	-1.341833e+002	-7.196937e+001	-9.638889e+001	-2.000000e+002	0.000000e+000	-2.000000e+002	0.000000e+000
902662500	-1.797066e+001	-1.344231e+002	-7.348391e+001	-9.049402e+001	-2.000000e+002	0.000000e+000	-2.000000e+002	0.000000e+000
902700000	-1.798109e+001	-1.346203e+002	-7.444473e+001	-6.991947e+001	-2.000000e+002	0.000000e+000	-2.000000e+002	0.000000e+000
902737500	-1.797450e+001	-1.348618e+002	-7.784357e+001	-1.122887e+002	-2.000000e+002	0.000000e+000	-2.000000e+002	0.000000e+000
902775000	-1.799804e+001	-1.351252e+002	-7.928632e+001	-1.197078e+002	-2.000000e+002	0.000000e+000	-2.000000e+002	0.000000e+000
902812500	-1.798710e+001	-1.353256e+002	-7.558162e+001	-8.420284e+001	-2.000000e+002	0.000000e+000	-2.000000e+002	0.000000e+000
902850000	-1.799923e+001	-1.355026e+002	-7.737880e+001	-9.126055e+001	-2.000000e+002	0.000000e+000	-2.000000e+002	0.000000e+000
902887500	-1.800590e+001	-1.356830e+002	-7.591466e+001	-8.288889e+001	-2.000000e+002	0.000000e+000	-2.000000e+002	0.000000e+000
902925000	-1.800686e+001	-1.358663e+002	-7.508450e+001	-5.905569e+001	-2.000000e+002	0.000000e+000	-2.000000e+002	0.000000e+000
902962500	-1.800881e+001	-1.360898e+002	-7.462165e+001	-1.052727e+002	-2.000000e+002	0.000000e+000	-2.000000e+002	0.000000e+000
903000000	-1.800630e+001	-1.362619e+002	-7.276275e+001	-9.657625e+001	-2.000000e+002	0.000000e+000	-2.000000e+002	0.000000e+000
903037500	-1.800778e+001	-1.364800e+002	-7.597804e+001	-8.942807e+001	-2.000000e+002	0.000000e+000	-2.000000e+002	0.000000e+000
903075000	-1.801311e+001	-1.367009e+002	-7.869182e+001	-6.777215e+001	-2.000000e+002	0.000000e+000	-2.000000e+002	0.000000e+000
903112500	-1.800672e+001	-1.368748e+002	-7.907328e+001	-5.674983e+001	-2.000000e+002	0.000000e+000	-2.000000e+002	0.000000e+000
903150000	-1.800846e+001	-1.370963e+002	-7.469460e+001	-7.704140e+001	-2.000000e+002	0.000000e+000	-2.000000e+002	0.000000e+000
903187500	-1.800305e+001	-1.372758e+002	-8.116527e+001	-9.886747e+001	-2.000000e+002	0.000000e+000	-2.000000e+002	0.000000e+000
903225000	-1.800145e+001	-1.375190e+002	-7.609247e+001	-1.377818e+002	-2.000000e+002	0.000000e+000	-2.000000e+002	0.000000e+000
903262500	-1.800870e+001	-1.376894e+002	-7.508919e+001	-6.136422e+001	-2.000000e+002	0.000000e+000	-2.000000e+002	0.000000e+000
903300000	-1.800045e+001	-1.378919e+002	-7.423948e+001	-9.101386e+001	-2.000000e+002	0.000000e+000	-2.000000e+002	0.000000e+000
903337500	-1.800177e+001	-1.380966e+002	-7.378983e+001	-9.192101e+001	-2.000000e+002	0.000000e+000	-2.000000e+002	0.000000e+000
903375000	-1.800678e+001	-1.383258e+002	-7.263563e+001	-1.278717e+002	-2.000000e+002	0.000000e+000	-2.000000e+002	0.000000e+000
903412500	-1.800348e+001	-1.385525e+002	-7.267310e+001	-8.319674e+001	-2.000000e+002	0.000000e+000	-2.000000e+002	0.000000e+000
903450000	-1.800850e+001	-1.387659e+002	-7.334165e+001	-8.277072e+001	-2.000000e+002	0.000000e+000	-2.000000e+002	0.000000e+000
903487500	-1.800666e+001	-1.389093e+002	-7.316033e+001	-6.982451e+001	-2.000000e+002	0.000000e+000	-2.000000e+002	0.000000e+000
903525000	-1.800379e+001	-1.391626e+002	-7.561573e+001	-7.441403e+001	-2.000000e+002	0.000000e+000	-2.000000e+002	0.000000e+000
903562500	-1.801130e+001	-1.394309e+002	-7.718688e+001	-9.130413e+001	-2.000000e+002	0.000000e+000	-2.000000e+002	0.000000e+000
903600000	-1.800770e+001	-1.395718e+002	-7.928022e+001	-1.271057e+002	-2.000000e+002	0.000000e+000	-2.000000e+002	0.000000e+000
903637500	-1.801244e+001	-1.398335e+002	-7.317662e+001	-1.156379e+002	-2.000000e+002	0.000000e+000	-2.000000e+002	0.000000e+000
903675000	-1.801703e+001	-1.399971e+002	-7.401279e+001	-9.438431e+001	-2.000000e+002	0.000000e+000	-2.000000e+002	0.000000e+000
903712500	-1.802147e+001	-1.401845e+002	-7.276808e+001	-8.849028e+001	-2.000000e+002	0.000000e+000	-2.000000e+002	0.000000e+000
903750000	-1.801780e+001	-1.404697e+002	-7.212705e+001	-8.330873e+001	-2.000000e+002	0.000000e+000	-2.000000e+002	0.000000e+000
903787500	-1.801855e+001	-1.406400e+002	-7.417587e+001	-9.293559e+001	-2.000000e+002	0.000000e+000	-2.000000e+002	0.000000e+000
903825000	-1.802463e+001	-1.408665e+002	-7.239822e+001	-9.183864e+001	-2.000000e+002	0.000000e+000	-2.000000e+002	0.000000e+000
903862500	-1.802323e+001	-1.410676e+002	-7.342211e+001	-1.209596e+002	-2.000000e+002	0.000000e+000	-2.000000e+002	0.000000e+000
903900000	-1.801996e+001	-1.412692e+002	-7.194331e+001	-9.285924e+001	-2.000000e+002	0.000000e+000	-2.000000e+002	0.000000e+000
903937500	-1.802259e+001	-1.415166e+002	-7.257412e+001	-1.083018e+002	-2.000000e+002	0.000000e+000	-2.000000e+002	0.000000e+000
903975000	-1.802540e+001	-1.416610e+002	-7.530250e+001	-8.641011e+001	-2.000000e+002	0.000000e+000	-2.000000e+002	0.000000e+000
904012500	-1.802505e+001	-1.419728e+002	-7.474119e+001	-9.828135e+001	-2.000000e+002	0.000000e+000	-2.000000e+002	0.000000e+000
904050000	-1.802838e+001	-1.421440e+002	-7.265478e+001	-9.571995e+001	-2.000000e+002	0.000000e+000	-2.000000e+002	0.000000e+000
904087500	-1.804060e+001	-1.423707e+002	-7.373725e+001	-1.079907e+002	-2.000000e+002	0.000000e+000	-2.000000e+002	0.000000e+000
904125000	-1.803592e+001	-1.424858e+002	-7.266166e+001	-1.305496e+002	-2.000000e+002	0.000000e+000	-2.000000e+002	0.000000e+000
904162500	-1.803787e+001	-1.426812e+002	-7.265787e+001	-1.034028e+002	-2.000000e+002	0.000000e+000	-2.000000e+002	0.000000e+000
904200000	-1.803565e+001	-1.429483e+002	-7.137816e+001	-1.120297e+002	-2.000000e+002	0.000000e+000	-2.000000e+002	0.000000e+000
904237500	-1.804041e+001	-1.431554e+002	-6.906503e+001	-1.005511e+002	-2.000000e+002	0.000000e+000	-2.000000e+002	0.000000e+000
904275000	-1.804135e+001	-1.433201e+002	-7.358933e+001	-7.033456e+001	-2.000000e+002	0.000000e+000	-2.000000e+002	0.000000e+000
904312500	-1.803669e+001	-1.435386e+002	-7.283526e+001	-8.918631e+001	-2.000000e+002	0.000000e+000	-2.000000e+002	0.000000e+000
904350000	-1.804763e+001	-1.437580e+002	-6.824845e+001	-1.036305e+002	-2.000000e+002	0.000000e+000	-2.000000e+002	0.000000e+000
904387500	-1.804017e+001	-1.439511e+002	-7.215439e+001	-7.051086e+001	-2.000000e+002	0.000000e+000	-2.000000e+002	0.000000e+000
904425000	-1.804965e+001	-1.441256e+002	-7.421756e+001	-1.081030e+002	-2.000000e+002	0.000000e+000	-2.000000e+002	0.000000e+000
904462500	-1.804592e+001	-1.443570e+002	-7.124063e+001	-1.021907e+002	-2.000000e+002	0.000000e+000	-2.000000e+002	0.000000e+000
904500000	-1.804828e+001	-1.445020e+002	-7.339262e+001	-1.371548e+002	-2.000000e+002	0.000000e+000	-2.000000e+002	0.000000e+000
904537500	-1.805007e+001	-1.447561e+002	-7.511876e+001	-1.103785e+002	-2.000000e+002	0.000000e+000	-2.000000e+002	0.000000e+000
904575000	-1.804956e+001	-1.449168e+002	-7.573815e+001	-1.116518e+002	-2.000000e+002	0.000000e+000	-2.000000e+002	0.000000e+000
904612500	-1.806159e+001	-1.451112e+002	-7.008209e+001	-1.125767e+002	-2.000000e+002	0.000000e+000	-2.000000e+002	0.000000e+000
904650000	-1.805587e+001	-1.453923e+002	-7.342290e+001	-1.274893e+002	-2.000000e+002	0.000000e+000	-2.000000e+002	0.000000e+000
904687500	-1.805384e+001	-1.455511e+002	-7.534467e+001	-9.047993e+001	-2.000000e+002	0.000000e+000	-2.000000e+002	0.000000e+000
904725000	-1.805275e+001	-1.457357e+002	-7.580045e+001	-1.112369e+002	-2.000000e+002	0.000000e+000	-2.000000e+002	0.000000e+000
904762500	-1.806589e+001	-1.459773e+002	-7.368972e+001	-9.563585e+001	-2.000000e+002	0.000000e+000	-2.000000e+002	0.000000e+000
904800000	-1.806617e+001	-1.462308e+002	-7.062907e+001	-1.228314e+002	-2.000000e+002	0.000000e+000	-2.000000e+002	0.000000e+000
904837500	-1.806737e+001	-1.463313e+002	-7.503970e+001	-7.501692e+001	-2.000000e+002	0.000000e+000	-2.000000e+002	0.000000e+000
904875000	-1.806111e+001	-1.465938e+002	-8.013225e+001	-1.182321e+002	-2.000000e+002	0.000000e+000	-2.000000e+002	0.000000e+000
904912500	-1.806807e+001	-1.467764e+002	-7.018586e+001	-9.333793e+001	-2.000000e+002	0.000000e+000	-2.000000e+002	0.000000e+000
904950000	-1.807542e+001	-1.469561e+002	-6.996680e+001	-9.036596e+001	-2.000000e+002	0.000000e+000	-2.000000e+002	0.000000e+000
904987500	-1.806735e+001	-1.471853e+002	-6.816046e+001	-1.225376e+002	-2.000000e+002	0.000000e+000	-2.000000e+002	0.000000e+000
905025000	-1.807234e+001	-1.473866e+002	-7.272544e+001	-1.008325e+002	-2.000000e+002	0.000000e+000	-2.000000e+002	0.000000e+000
905062500	-1.807884e+001	-1.475546e+002	-7.035738e+001	-1.041401e+002	-2.000000e+002	0.000000e+000	-2.000000e+002	0.000000e+000
905100000	-1.807446e+001	-1.477680e+002	-7.363666e+001	-9.856776e+001	-2.000000e+002	0.000000e+000	-2.000000e+002	0.000000e+000
905137500	-1.807650e+001	-1.479584e+002	-7.261651e+001	-1.140633e+002	-2.000000e+002	0.000000e+000	-2.000000e+002	0.000000e+000
905175000	-1.807396e+001	-1.481252e+002	-7.447649e+001	-1.245396e+002	-2.000000e+002	0.000000e+000	-2.000000e+002	0.000000e+000
905212500	-1.807429e+001	-1.483199e+002	-7.425458e+001	-1.113590e+002	-2.000000e+002	0.000000e+000	-2.000000e+002	0.000000e+000
905250000	-1.806774e+001	-1.485053e+002	-7.761190e+001	-1.152035e+002	-2.000000e+002	0.000000e+000	-2.000000e+002	0.000000e+000
905287500	-1.807481e+001	-1.486728e+002	-7.408099e+001	-1.032495e+002	-2.000000e+002	0.000000e+000	-2.000000e+002	0.000000e+000
905325000	-1.807992e+001	-1.489207e+002	-7.247946e+001	-1.139939e+002	-2.000000e+002	0.000000e+000	-2.000000e+002	0.000000e+000
905362500	-1.807049e+001	-1.490859e+002	-6.961488e+001	-1.030998e+002	-2.000000e+002	0.000000e+000	-2.000000e+002	0.000000e+000
905400000	-1.807205e+001	-1.493038e+002	-6.946424e+001	-1.106990e+002	-2.000000e+002	0.000000e+000	-2.000000e+002	0.000000e+000
905437500	-1.806653e+001	-1.495250e+002	-7.467887e+001	-1.085549e+002	-2.000000e+002	0.000000e+000	-2.000000e+002	0.000000e+000
905475000	-1.806519e+001	-1.497235e+002	-7.351565e+001	-1.238101e+002	-2.000000e+002	0.000000e+000	-2.000000e+002	0.000000e+000
905512500	-1.806107e+001	-1.499460e+002	-7.417407e+001	-1.003045e+002	-2.000000e+002	0.000000e+000	-2.000000e+002	0.000000e+000
905550000	-1.806767e+001	-1.501311e+002	-7.218624e+001	-9.748093e+001	-2.000000e+002	0.000000e+000	-2.000000e+002	0.000000e+000
905587500	-1.806560e+001	-1.503735e+002	-7.422272e+001	-1.428222e+002	-2.000000e+002	0.000000e+000	-2.000000e+002	0.000000e+000
905625000	-1.806410e+001	-1.505664e+002	-7.288392e+001	-1.179769e+002	-2.000000e+002	0.000000e+000	-2.000000e+002	0.000000e+000
905662500	-1.807308e+001	-1.508369e+002	-7.164553e+001	-1.036449e+002	-2.000000e+002	0.000000e+000	-2.000000e+002	0.000000e+000
