!File created by NanoVNA-F V2
# Hz S RI R 50
 900000000 -0.017068 -0.020393 -0.000155 -0.000052 0 0 0 0
 900300000 -0.017010 -0.019996 -0.000220 -0.000086 0 0 0 0
 900600000 -0.018167 -0.020144 -0.000165  0.000017 0 0 0 0
 900900000 -0.018485 -0.019602 -0.000226 -0.000025 0 0 0 0
 901200000 -0.019545 -0.019447 -0.000197 -0.000054 0 0 0 0
 901500000 -0.020497 -0.019096 -0.000171 -0.000005 0 0 0 0
 901800000 -0.021326 -0.018628 -0.000258  0.000045 0 0 0 0
 902100000 -0.022430 -0.018389 -0.000250  0.000032 0 0 0 0
 902400000 -0.022560 -0.018672 -0.000217 -0.000043 0 0 0 0
 902700000 -0.023976 -0.018137 -0.000258 -0.000049 0 0 0 0
 903000000 -0.024298 -0.017413 -0.000244 -0.000054 0 0 0 0
 903300000 -0.025489 -0.017424 -0.000230 -0.000037 0 0 0 0
 903600000 -0.026439 -0.016441 -0.000237 -0.000014 0 0 0 0
 903900000 -0.026339 -0.016250 -0.000247 -0.000007 0 0 0 0
 904200000 -0.027032 -0.016547 -0.000265  0.000042 0 0 0 0
 904500000 -0.027632 -0.015496 -0.000313  0.000065 0 0 0 0
 904800000 -0.028751 -0.015450 -0.000219 -0.000009 0 0 0 0
 905100000 -0.030021 -0.014597 -0.000242  0.000116 0 0 0 0
 905400000 -0.029861 -0.014470 -0.000312  0.000033 0 0 0 0
 905700000 -0.031235 -0.013643 -0.000285  0.000033 0 0 0 0
 906000000 -0.032030 -0.013297 -0.000301  0.000024 0 0 0 0
 906300000 -0.032596 -0.011848 -0.000343 -0.000050 0 0 0 0
 906600000 -0.033281 -0.011149 -0.000296  0.000056 0 0 0 0
 906900000 -0.033164 -0.010858 -0.000297  0.000046 0 0 0 0
 907200000 -0.034873 -0.011082 -0.000376  0.000076 0 0 0 0
 907500000 -0.035017 -0.010946 -0.000300  0.000083 0 0 0 0
 907800000 -0.035459 -0.010320 -0.000383  0.000126 0 0 0 0
 908100000 -0.035867 -0.009177 -0.000277  0.000060 0 0 0 0
 908400000 -0.036138 -0.008269 -0.000299  0.000087 0 0 0 0
 908700000 -0.037386 -0.008058 -0.000304  0.000032 0 0 0 0
 909000000 -0.037691 -0.006684 -0.000361  0.000039 0 0 0 0
 909300000 -0.038486 -0.006241 -0.000309  0.000088 0 0 0 0
 909600000 -0.038681 -0.005126 -0.000287  0.000002 0 0 0 0
 909900000 -0.039549 -0.004149 -0.000362  0.000022 0 0 0 0
 910200000 -0.039578 -0.004211 -0.000338  0.000091 0 0 0 0
 910500000 -0.041287 -0.003226 -0.000328  0.000119 0 0 0 0
 910800000 -0.041281 -0.002728 -0.000309  0.000115 0 0 0 0
 911100000 -0.042138 -0.001704 -0.000363 -0.000004 0 0 0 0
 911400000 -0.041874 -0.001345 -0.000332  0.000138 0 0 0 0
 911700000 -0.042852 -0.001524 -0.000371  0.000093 0 0 0 0
 912000000 -0.043304 -0.000459 -0.000298  0.000128 0 0 0 0
 912300000 -0.042570  0.001336 -0.000418  0.000241 0 0 0 0
 912600000 -0.043106  0.002238 -0.000341  0.000244 0 0 0 0
 912900000 -0.043222  0.002581 -0.000370  0.000224 0 0 0 0
 913200000 -0.042844  0.003698 -0.000402  0.000131 0 0 0 0
 913500000 -0.044485  0.004235 -0.000440  0.000242 0 0 0 0
 913800000 -0.044959  0.004800 -0.000439  0.000233 0 0 0 0
 914100000 -0.045945  0.006137 -0.000340  0.000333 0 0 0 0
 914400000 -0.045919  0.006942 -0.000313  0.000336 0 0 0 0
 914700000 -0.046304  0.008036 -0.000347  0.000357 0 0 0 0
 915000000 -0.045882  0.008628 -0.000264  0.000312 0 0 0 0
 915300000 -0.046180  0.008719 -0.000283  0.000382 0 0 0 0
 915600000 -0.046863  0.009947 -0.000370  0.000325 0 0 0 0
 915900000 -0.046549  0.010594 -0.000329  0.000418 0 0 0 0
 916200000 -0.046899  0.011746 -0.000319  0.000463 0 0 0 0
 916500000 -0.046954  0.012324 -0.000361  0.000461 0 0 0 0
 916800000 -0.046946  0.013564 -0.000364  0.000573 0 0 0 0
 917100000 -0.047815  0.014382 -0.000333  0.000561 0 0 0 0
 917400000 -0.047794  0.015283 -0.000354  0.000664 0 0 0 0
 917700000 -0.047850  0.015868 -0.000338  0.000654 0 0 0 0
 918000000 -0.048229  0.017666 -0.000344  0.000749 0 0 0 0
 918300000 -0.048429  0.018040 -0.000328  0.000756 0 0 0 0
 918600000 -0.047645  0.019062 -0.000324  0.000760 0 0 0 0
 918900000 -0.047482  0.019906 -0.000352  0.000812 0 0 0 0
 919200000 -0.047866  0.020259 -0.000312  0.000917 0 0 0 0
 919500000 -0.047597  0.022374 -0.000228  0.001000 0 0 0 0
 919800000 -0.047059  0.022774 -0.000284  0.001075 0 0 0 0
 920100000 -0.047918  0.023641 -0.000216  0.001090 0 0 0 0
 920400000 -0.046557  0.025495 -0.000048  0.001197 0 0 0 0
 920700000 -0.047209  0.025526 -0.000074  0.001228 0 0 0 0
 921000000 -0.048013  0.026575 -0.000098  0.001357 0 0 0 0
 921300000 -0.047450  0.027026 -0.000041  0.001480 0 0 0 0
 921600000 -0.047160  0.028135 -0.000007  0.001566 0 0 0 0
 921900000 -0.047020  0.029173  0.000074  0.001724 0 0 0 0
 922200000 -0.046671  0.029552  0.000191  0.001828 0 0 0 0
 922500000 -0.047015  0.029904  0.000318  0.001948 0 0 0 0
 922800000 -0.046238  0.030722  0.000319  0.002121 0 0 0 0
 923100000 -0.045595  0.032215  0.000659  0.002263 0 0 0 0
 923400000 -0.045197  0.033340  0.000970  0.002261 0 0 0 0
 923700000 -0.044882  0.033835  0.001039  0.002475 0 0 0 0
 924000000 -0.044991  0.034542  0.001395  0.002504 0 0 0 0
 924300000 -0.044842  0.035275  0.001724  0.002432 0 0 0 0
 924600000 -0.043620  0.036644  0.001927  0.002532 0 0 0 0
 924900000 -0.044056  0.036896  0.002281  0.002438 0 0 0 0
 925200000 -0.043591  0.037886  0.002636  0.002367 0 0 0 0
 925500000 -0.043922  0.038670  0.002841  0.002391 0 0 0 0
 925800000 -0.042116  0.039971  0.003022  0.002134 0 0 0 0
 926100000 -0.042484  0.039840  0.003198  0.002202 0 0 0 0
 926400000 -0.042787  0.040504  0.003580  0.001971 0 0 0 0
 926700000 -0.041246  0.041812  0.003513  0.001452 0 0 0 0
 927000000 -0.040474  0.042345  0.002955  0.000863 0 0 0 0
 927300000 -0.038512  0.042934  0.001299  0.000696 0 0 0 0
 927600000 -0.038656  0.044109 -0.001961  0.001818 0 0 0 0
 927900000 -0.039516  0.044184 -0.007216  0.007229 0 0 0 0
 928200000 -0.038847  0.045267 -0.011803  0.024132 0 0 0 0
 928500000 -0.038126  0.046063  0.010279  0.058025 0 0 0 0
 928800000 -0.038337  0.046382  0.075208  0.044123 0 0 0 0
 929100000 -0.037197  0.048052  0.093973 -0.011502 0 0 0 0
 929400000 -0.037024  0.048261  0.077687 -0.060554 0 0 0 0
 929700000 -0.037260  0.048332  0.041676 -0.092126 0 0 0 0
 930000000 -0.035404  0.048920 -0.004539 -0.103196 0 0 0 0
 930300000 -0.035198  0.050005 -0.051145 -0.091981 0 0 0 0
 930600000 -0.033012  0.050319 -0.092392 -0.053175 0 0 0 0
 930900000 -0.031596  0.051133 -0.105475  0.008958 0 0 0 0
 931200000 -0.031163  0.051572 -0.060481  0.068212 0 0 0 0
 931500000 -0.030920  0.052236  0.004645  0.053532 0 0 0 0
 931800000 -0.031842  0.053136  0.014552  0.018778 0 0 0 0
 932100000 -0.030653  0.053153  0.007094  0.004857 0 0 0 0
 932400000 -0.030632  0.053718  0.001166  0.001122 0 0 0 0
 932700000 -0.029806  0.054622 -0.002048  0.000994 0 0 0 0
 933000000 -0.028546  0.055176 -0.003424  0.001562 0 0 0 0
 933300000 -0.027562  0.055630 -0.003729  0.002303 0 0 0 0
 933600000 -0.026683  0.056500 -0.003467  0.002876 0 0 0 0
 933900000 -0.027356  0.055884 -0.003194  0.003043 0 0 0 0
 934200000 -0.025063  0.056780 -0.002629  0.003313 0 0 0 0
 934500000 -0.023003  0.057339 -0.002154  0.003350 0 0 0 0
 934800000 -0.023966  0.057759 -0.001888  0.003165 0 0 0 0
 935100000 -0.021321  0.057531 -0.001479  0.003062 0 0 0 0
 935400000 -0.022662  0.058001 -0.001181  0.002910 0 0 0 0
 935700000 -0.022127  0.058991 -0.000950  0.002809 0 0 0 0
 936000000 -0.021404  0.059552 -0.000623  0.002656 0 0 0 0
 936300000 -0.020134  0.059736 -0.000551  0.002466 0 0 0 0
 936600000 -0.019588  0.059873 -0.000386  0.002366 0 0 0 0
 936900000 -0.018451  0.059550 -0.000187  0.002227 0 0 0 0
 937200000 -0.018501  0.060281 -0.000138  0.002080 0 0 0 0
 937500000 -0.017985  0.061139 -0.000073  0.002026 0 0 0 0
 937800000 -0.015857  0.060825  0.000084  0.001858 0 0 0 0
 938100000 -0.015423  0.061154  0.000174  0.001706 0 0 0 0
 938400000 -0.012801  0.060764  0.000285  0.001577 0 0 0 0
 938700000 -0.012457  0.061520  0.000313  0.001518 0 0 0 0
 939000000 -0.012999  0.061775  0.000329  0.001451 0 0 0 0
 939300000 -0.011749  0.062440  0.000379  0.001328 0 0 0 0
 939600000 -0.012163  0.062702  0.000383  0.001239 0 0 0 0
 939900000 -0.010905  0.062641  0.000382  0.001199 0 0 0 0
 940200000 -0.009471  0.062972  0.000379  0.001052 0 0 0 0
 940500000 -0.008643  0.062831  0.000433  0.001027 0 0 0 0
 940800000 -0.009053  0.063753  0.000490  0.000948 0 0 0 0
 941100000 -0.006337  0.063183  0.000424  0.000895 0 0 0 0
 941400000 -0.007621  0.063054  0.000393  0.000814 0 0 0 0
 941700000 -0.005275  0.062708  0.000447  0.000752 0 0 0 0
 942000000 -0.002627  0.062593  0.000481  0.000680 0 0 0 0
 942300000 -0.003805  0.063776  0.000396  0.000713 0 0 0 0
 942600000 -0.002687  0.062837  0.000442  0.000588 0 0 0 0
 942900000 -0.001523  0.063185  0.000429  0.000559 0 0 0 0
 943200000 -0.000342  0.063388  0.000464  0.000547 0 0 0 0
 943500000 -0.000462  0.063639  0.000392  0.000510 0 0 0 0
 943800000  0.000826  0.063427  0.000496  0.000459 0 0 0 0
 944100000  0.001324  0.063041  0.000415  0.000459 0 0 0 0
 944400000  0.001532  0.063546  0.000414  0.000455 0 0 0 0
 944700000  0.003243  0.062868  0.000384  0.000392 0 0 0 0
 945000000  0.003555  0.063594  0.000383  0.000371 0 0 0 0
 945300000  0.005447  0.062976  0.000354  0.000284 0 0 0 0
 945600000  0.005928  0.063012  0.000363  0.000329 0 0 0 0
 945900000  0.006374  0.062661  0.000444  0.000292 0 0 0 0
 946200000  0.007838  0.062471  0.000379  0.000217 0 0 0 0
 946500000  0.007929  0.062803  0.000354  0.000286 0 0 0 0
 946800000  0.009413  0.061904  0.000332  0.000292 0 0 0 0
 947100000  0.011305  0.061458  0.000424  0.000262 0 0 0 0
 947400000  0.013045  0.060354  0.000420  0.000116 0 0 0 0
 947700000  0.014423  0.059882  0.000358  0.000121 0 0 0 0
 948000000  0.013108  0.060867  0.000329  0.000112 0 0 0 0
 948300000  0.014242  0.060232  0.000306  0.000149 0 0 0 0
 948600000  0.015003  0.059451  0.000307  0.000146 0 0 0 0
 948900000  0.015492  0.059431  0.000327  0.000088 0 0 0 0
 949200000  0.017927  0.058888  0.000374  0.000074 0 0 0 0
 949500000  0.016986  0.058349  0.000330  0.000084 0 0 0 0
 949800000  0.018161  0.058254  0.000331  0.000100 0 0 0 0
 950100000  0.019681  0.058162  0.000322  0.000060 0 0 0 0
 950400000  0.020164  0.057452  0.000304 -0.000014 0 0 0 0
 950700000  0.019874  0.057359  0.000224  0.000039 0 0 0 0
 951000000  0.021152  0.056677  0.000328  0.000030 0 0 0 0
 951300000  0.022361  0.055381  0.000241  0.000037 0 0 0 0
 951600000  0.025104  0.053786  0.000297  0.000037 0 0 0 0
 951900000  0.024030  0.054495  0.000328  0.000051 0 0 0 0
 952200000  0.024141  0.053608  0.000232 -0.000060 0 0 0 0
 952500000  0.025506  0.053691  0.000231 -0.000073 0 0 0 0
 952800000  0.025674  0.052258  0.000206 -0.000053 0 0 0 0
 953100000  0.026140  0.052481  0.000279 -0.000067 0 0 0 0
 953400000  0.027653  0.051625  0.000230 -0.000016 0 0 0 0
 953700000  0.026997  0.051941  0.000227 -0.000045 0 0 0 0
 954000000  0.028689  0.050640  0.000226  0.000026 0 0 0 0
 954300000  0.028258  0.050182  0.000226 -0.000080 0 0 0 0
 954600000  0.031027  0.049053  0.000193 -0.000063 0 0 0 0
 954900000  0.032385  0.047705  0.000243 -0.000057 0 0 0 0
 955200000  0.031918  0.047306  0.000192 -0.000123 0 0 0 0
 955500000  0.032230  0.046348  0.000255 -0.000090 0 0 0 0
 955800000  0.032795  0.045826  0.000226 -0.000023 0 0 0 0
 956100000  0.032989  0.045739  0.000228 -0.000020 0 0 0 0
 956400000  0.033160  0.044794  0.000189  0.000040 0 0 0 0
 956700000  0.034544  0.044524  0.000128 -0.000046 0 0 0 0
 957000000  0.035014  0.042524  0.000233 -0.000097 0 0 0 0
 957300000  0.034724  0.043796  0.000183 -0.000035 0 0 0 0
 957600000  0.035693  0.042553  0.000133 -0.000057 0 0 0 0
 957900000  0.036260  0.040899  0.000110 -0.000098 0 0 0 0
 958200000  0.036601  0.040427  0.000195 -0.000038 0 0 0 0
 958500000  0.036932  0.039364  0.000140 -0.000008 0 0 0 0
 958800000  0.038637  0.037124  0.000158 -0.000071 0 0 0 0
 959100000  0.039962  0.036792  0.000098 -0.000009 0 0 0 0
 959400000  0.038596  0.037111  0.000165 -0.000069 0 0 0 0
 959700000  0.038853  0.035716  0.000167 -0.000007 0 0 0 0
 960000000  0.039302  0.034708  0.000148 -0.000070 0 0 0 0
