!File created by NanoVNA-F V2
# Hz S RI R 50
 900000000 -0.017920 -0.021015  0.000080  0.000130 0 0 0 0
 900300000 -0.017319 -0.020480  0.000146  0.000142 0 0 0 0
 900600000 -0.018689 -0.020926  0.000093  0.000106 0 0 0 0
 900900000 -0.019090 -0.020082  0.000058  0.000121 0 0 0 0
 901200000 -0.020074 -0.019874  0.000022  0.000076 0 0 0 0
 901500000 -0.020422 -0.019662  0.000077  0.000082 0 0 0 0
 901800000 -0.021235 -0.018033  0.000085  0.000091 0 0 0 0
 902100000 -0.023610 -0.018889  0.000085  0.000033 0 0 0 0
 902400000 -0.023485 -0.018089  0.000085  0.000114 0 0 0 0
 902700000 -0.024286 -0.017991  0.000110  0.000064 0 0 0 0
 903000000 -0.024503 -0.017761  0.000147  0.000071 0 0 0 0
 903300000 -0.026191 -0.017935  0.000152  0.000127 0 0 0 0
 903600000 -0.025571 -0.016974  0.000111  0.000106 0 0 0 0
 903900000 -0.026845 -0.017742  0.000209  0.000072 0 0 0 0
 904200000 -0.027509 -0.015780  0.000122  0.000119 0 0 0 0
 904500000 -0.029005 -0.016287  0.000105  0.000085 0 0 0 0
 904800000 -0.029570 -0.015499  0.000115  0.000048 0 0 0 0
 905100000 -0.030416 -0.014495  0.000196  0.000073 0 0 0 0
 905400000 -0.030478 -0.013919  0.000145  0.000050 0 0 0 0
 905700000 -0.031362 -0.013346  0.000175  0.000013 0 0 0 0
 906000000 -0.033024 -0.013559  0.000145  0.000050 0 0 0 0
 906300000 -0.033104 -0.012290  0.000220  0.000051 0 0 0 0
 906600000 -0.034090 -0.011660  0.000215 -0.000026 0 0 0 0
 906900000 -0.034529 -0.011041  0.000216  0.000017 0 0 0 0
 907200000 -0.034585 -0.010934  0.000213 -0.000005 0 0 0 0
 907500000 -0.035315 -0.010836  0.000244  0.000040 0 0 0 0
 907800000 -0.036500 -0.009832  0.000216  0.000047 0 0 0 0
 908100000 -0.036780 -0.008879  0.000278 -0.000029 0 0 0 0
 908400000 -0.036538 -0.008522  0.000294 -0.000111 0 0 0 0
 908700000 -0.036789 -0.007405  0.000302 -0.000033 0 0 0 0
 909000000 -0.038146 -0.006526  0.000329 -0.000030 0 0 0 0
 909300000 -0.038444 -0.006269  0.000331 -0.000117 0 0 0 0
 909600000 -0.039219 -0.005334  0.000348 -0.000091 0 0 0 0
 909900000 -0.040313 -0.004265  0.000376 -0.000120 0 0 0 0
 910200000 -0.040360 -0.003945  0.000400 -0.000113 0 0 0 0
 910500000 -0.041412 -0.003054  0.000436 -0.000184 0 0 0 0
 910800000 -0.041996 -0.003082  0.000425 -0.000135 0 0 0 0
 911100000 -0.041970 -0.003153  0.000428 -0.000184 0 0 0 0
 911400000 -0.042797 -0.001659  0.000475 -0.000145 0 0 0 0
 911700000 -0.042539 -0.000869  0.000461 -0.000191 0 0 0 0
 912000000 -0.042489  0.000415  0.000475 -0.000232 0 0 0 0
 912300000 -0.043612  0.001339  0.000499 -0.000263 0 0 0 0
 912600000 -0.043274  0.001516  0.000591 -0.000321 0 0 0 0
 912900000 -0.042923  0.002704  0.000543 -0.000331 0 0 0 0
 913200000 -0.044617  0.002711  0.000604 -0.000315 0 0 0 0
 913500000 -0.044783  0.003784  0.000582 -0.000432 0 0 0 0
 913800000 -0.045387  0.005109  0.000687 -0.000379 0 0 0 0
 914100000 -0.045965  0.005771  0.000632 -0.000430 0 0 0 0
 914400000 -0.046517  0.006248  0.000697 -0.000463 0 0 0 0
 914700000 -0.046045  0.007303  0.000717 -0.000556 0 0 0 0
 915000000 -0.045841  0.007373  0.000785 -0.000599 0 0 0 0
 915300000 -0.047087  0.008945  0.000778 -0.000631 0 0 0 0
 915600000 -0.046481  0.009124  0.000834 -0.000678 0 0 0 0
 915900000 -0.045782  0.010751  0.000857 -0.000783 0 0 0 0
 916200000 -0.046471  0.011234  0.000934 -0.000765 0 0 0 0
 916500000 -0.047122  0.012025  0.000950 -0.000924 0 0 0 0
 916800000 -0.047539  0.012422  0.001012 -0.000978 0 0 0 0
 917100000 -0.048009  0.013407  0.000996 -0.001075 0 0 0 0
 917400000 -0.047404  0.015354  0.001042 -0.001197 0 0 0 0
 917700000 -0.048413  0.015315  0.001159 -0.001319 0 0 0 0
 918000000 -0.048543  0.016349  0.001066 -0.001440 0 0 0 0
 918300000 -0.047489  0.017749  0.001154 -0.001630 0 0 0 0
 918600000 -0.048946  0.018770  0.001209 -0.001807 0 0 0 0
 918900000 -0.048004  0.019359  0.001274 -0.002011 0 0 0 0
 919200000 -0.048351  0.020472  0.001264 -0.002273 0 0 0 0
 919500000 -0.047261  0.021336  0.001167 -0.002595 0 0 0 0
 919800000 -0.047903  0.022473  0.001249 -0.002809 0 0 0 0
 920100000 -0.046869  0.024334  0.001213 -0.003161 0 0 0 0
 920400000 -0.048120  0.024007  0.000949 -0.003572 0 0 0 0
 920700000 -0.047935  0.024759  0.000824 -0.003980 0 0 0 0
 921000000 -0.047833  0.026219  0.000425 -0.004283 0 0 0 0
 921300000 -0.047607  0.026701  0.000122 -0.004503 0 0 0 0
 921600000 -0.047903  0.027711 -0.000423 -0.004496 0 0 0 0
 921900000 -0.046735  0.028524 -0.000730 -0.003846 0 0 0 0
 922200000 -0.047317  0.028536 -0.000340 -0.002332 0 0 0 0
 922500000 -0.047081  0.029734  0.002220  0.000442 0 0 0 0
 922800000 -0.044715  0.030771  0.011765  0.003576 0 0 0 0
 923100000 -0.045681  0.031568  0.037228 -0.005899 0 0 0 0
 923400000 -0.045832  0.032723  0.044070 -0.069159 0 0 0 0
 923700000 -0.045512  0.033108 -0.029516 -0.104745 0 0 0 0
 924000000 -0.045405  0.034105 -0.096215 -0.063968 0 0 0 0
 924300000 -0.045370  0.035626 -0.117913  0.000004 0 0 0 0
 924600000 -0.045532  0.035037 -0.105474  0.055273 0 0 0 0
 924900000 -0.044044  0.036560 -0.063169  0.099182 0 0 0 0
 925200000 -0.043608  0.037354 -0.003791  0.115506 0 0 0 0
 925500000 -0.043955  0.037621  0.050598  0.099872 0 0 0 0
 925800000 -0.043801  0.038399  0.097322  0.038365 0 0 0 0
 926100000 -0.041946  0.039080  0.065583 -0.038947 0 0 0 0
 926400000 -0.040926  0.041282  0.008332 -0.032795 0 0 0 0
 926700000 -0.040120  0.040930 -0.001791 -0.010441 0 0 0 0
 927000000 -0.039811  0.042042  0.000456 -0.001444 0 0 0 0
 927300000 -0.041096  0.042897  0.003048  0.001040 0 0 0 0
 927600000 -0.040137  0.043753  0.004487  0.001206 0 0 0 0
 927900000 -0.040553  0.043861  0.004967  0.000606 0 0 0 0
 928200000 -0.039254  0.044870  0.004977  0.000132 0 0 0 0
 928500000 -0.038655  0.045300  0.004546 -0.000336 0 0 0 0
 928800000 -0.037956  0.045788  0.004139 -0.000641 0 0 0 0
 929100000 -0.037895  0.046753  0.003846 -0.000710 0 0 0 0
 929400000 -0.037298  0.047066  0.003590 -0.000992 0 0 0 0
 929700000 -0.035637  0.047689  0.003080 -0.001285 0 0 0 0
 930000000 -0.034022  0.048308  0.002791 -0.001362 0 0 0 0
 930300000 -0.033559  0.049132  0.002568 -0.001343 0 0 0 0
 930600000 -0.032650  0.050132  0.002180 -0.001368 0 0 0 0
 930900000 -0.033920  0.050127  0.001952 -0.001402 0 0 0 0
 931200000 -0.033178  0.050827  0.001725 -0.001360 0 0 0 0
 931500000 -0.032342  0.051690  0.001577 -0.001353 0 0 0 0
 931800000 -0.031825  0.052177  0.001334 -0.001273 0 0 0 0
 932100000 -0.031012  0.052646  0.001206 -0.001316 0 0 0 0
 932400000 -0.029890  0.053388  0.001035 -0.001175 0 0 0 0
 932700000 -0.030087  0.053939  0.000989 -0.001169 0 0 0 0
 933000000 -0.029754  0.054310  0.000840 -0.001069 0 0 0 0
 933300000 -0.027786  0.055381  0.000807 -0.001013 0 0 0 0
 933600000 -0.025859  0.055214  0.000628 -0.001026 0 0 0 0
 933900000 -0.025013  0.055795  0.000683 -0.000940 0 0 0 0
 934200000 -0.024339  0.055890  0.000577 -0.000882 0 0 0 0
 934500000 -0.025944  0.056398  0.000535 -0.000928 0 0 0 0
 934800000 -0.023930  0.056814  0.000472 -0.000788 0 0 0 0
 935100000 -0.023550  0.057469  0.000344 -0.000805 0 0 0 0
 935400000 -0.023258  0.057601  0.000365 -0.000748 0 0 0 0
 935700000 -0.023034  0.057779  0.000329 -0.000676 0 0 0 0
 936000000 -0.021578  0.058089  0.000315 -0.000697 0 0 0 0
 936300000 -0.020863  0.058534  0.000292 -0.000663 0 0 0 0
 936600000 -0.019482  0.059336  0.000272 -0.000601 0 0 0 0
 936900000 -0.019522  0.059258  0.000178 -0.000689 0 0 0 0
 937200000 -0.016571  0.059310  0.000204 -0.000595 0 0 0 0
 937500000 -0.016097  0.059124  0.000137 -0.000496 0 0 0 0
 937800000 -0.015899  0.060262  0.000125 -0.000550 0 0 0 0
 938100000 -0.016234  0.061174  0.000151 -0.000487 0 0 0 0
 938400000 -0.015162  0.060700  0.000128 -0.000504 0 0 0 0
 938700000 -0.014037  0.060743  0.000003 -0.000479 0 0 0 0
 939000000 -0.014274  0.061426  0.000107 -0.000464 0 0 0 0
 939300000 -0.012825  0.062162  0.000100 -0.000400 0 0 0 0
 939600000 -0.011543  0.062134  0.000056 -0.000495 0 0 0 0
 939900000 -0.012765  0.062435  0.000010 -0.000436 0 0 0 0
 940200000 -0.011518  0.062748  0.000047 -0.000411 0 0 0 0
 940500000 -0.010750  0.062361 -0.000000 -0.000436 0 0 0 0
 940800000 -0.009290  0.061914 -0.000018 -0.000394 0 0 0 0
 941100000 -0.007941  0.062323 -0.000001 -0.000333 0 0 0 0
 941400000 -0.005318  0.062390  0.000042 -0.000431 0 0 0 0
 941700000 -0.006020  0.062547  0.000020 -0.000275 0 0 0 0
 942000000 -0.005730  0.062325 -0.000006 -0.000315 0 0 0 0
 942300000 -0.004319  0.062858 -0.000020 -0.000333 0 0 0 0
 942600000 -0.004433  0.062905 -0.000092 -0.000327 0 0 0 0
 942900000 -0.003302  0.062699 -0.000084 -0.000351 0 0 0 0
 943200000 -0.001451  0.062723 -0.000102 -0.000316 0 0 0 0
 943500000 -0.000704  0.062460 -0.000072 -0.000287 0 0 0 0
 943800000 -0.001065  0.063422 -0.000082 -0.000297 0 0 0 0
 944100000  0.001220  0.063063 -0.000055 -0.000312 0 0 0 0
 944400000  0.002250  0.062071 -0.000140 -0.000279 0 0 0 0
 944700000  0.004202  0.062225 -0.000072 -0.000249 0 0 0 0
 945000000  0.005403  0.061740 -0.000087 -0.000221 0 0 0 0
 945300000  0.006555  0.061356 -0.000098 -0.000302 0 0 0 0
 945600000  0.005344  0.061694 -0.000049 -0.000220 0 0 0 0
 945900000  0.006429  0.062232 -0.000069 -0.000205 0 0 0 0
 946200000  0.006761  0.061769 -0.000090 -0.000260 0 0 0 0
 946500000  0.007123  0.061632 -0.000033 -0.000255 0 0 0 0
 946800000  0.007816  0.061534 -0.000108 -0.000152 0 0 0 0
 947100000  0.008678  0.061574 -0.000094 -0.000265 0 0 0 0
 947400000  0.009903  0.061089 -0.000162 -0.000197 0 0 0 0
 947700000  0.011559  0.059882 -0.000119 -0.000208 0 0 0 0
 948000000  0.012227  0.059995 -0.000078 -0.000172 0 0 0 0
 948300000  0.015109  0.059405 -0.000121 -0.000151 0 0 0 0
 948600000  0.014363  0.060243 -0.000131 -0.000249 0 0 0 0
 948900000  0.015395  0.058620 -0.000055 -0.000110 0 0 0 0
 949200000  0.014694  0.058979 -0.000140 -0.000221 0 0 0 0
 949500000  0.016254  0.057903 -0.000113 -0.000213 0 0 0 0
 949800000  0.016459  0.057552 -0.000110 -0.000243 0 0 0 0
 950100000  0.018492  0.057007 -0.000142 -0.000169 0 0 0 0
 950400000  0.019376  0.056886 -0.000123 -0.000196 0 0 0 0
 950700000  0.019942  0.056095 -0.000084 -0.000203 0 0 0 0
 951000000  0.020662  0.056174 -0.000094 -0.000129 0 0 0 0
 951300000  0.020594  0.056431 -0.000099 -0.000130 0 0 0 0
 951600000  0.021677  0.054410 -0.000124 -0.000120 0 0 0 0
 951900000  0.022429  0.054070 -0.000117 -0.000184 0 0 0 0
 952200000  0.023076  0.053924 -0.000105 -0.000172 0 0 0 0
 952500000  0.023499  0.052820 -0.000102 -0.000129 0 0 0 0
 952800000  0.024768  0.052732 -0.000091 -0.000169 0 0 0 0
 953100000  0.025099  0.052509 -0.000140 -0.000070 0 0 0 0
 953400000  0.025772  0.050843 -0.000044 -0.000068 0 0 0 0
 953700000  0.027101  0.050301 -0.000074 -0.000042 0 0 0 0
 954000000  0.026823  0.049656 -0.000040 -0.000111 0 0 0 0
 954300000  0.027989  0.049173 -0.000075 -0.000143 0 0 0 0
 954600000  0.028750  0.049016 -0.000103 -0.000068 0 0 0 0
 954900000  0.029431  0.048168 -0.000076 -0.000102 0 0 0 0
 955200000  0.029697  0.047560 -0.000085 -0.000111 0 0 0 0
 955500000  0.031570  0.045857 -0.000107 -0.000081 0 0 0 0
 955800000  0.032418  0.044819 -0.000139  0.000032 0 0 0 0
 956100000  0.033063  0.044762 -0.000061 -0.000106 0 0 0 0
 956400000  0.032201  0.044824 -0.000020 -0.000077 0 0 0 0
 956700000  0.032923  0.044463 -0.000058 -0.000017 0 0 0 0
 957000000  0.033267  0.043084 -0.000078 -0.000025 0 0 0 0
 957300000  0.033229  0.042766 -0.000137 -0.000002 0 0 0 0
 957600000  0.035125  0.042020 -0.000055 -0.000076 0 0 0 0
 957900000  0.035695  0.040719 -0.000077 -0.000021 0 0 0 0
 958200000  0.035207  0.041861 -0.000062 -0.000036 0 0 0 0
 958500000  0.036318  0.039810 -0.000144 -0.000023 0 0 0 0
 958800000  0.035547  0.039333 -0.000109 -0.000017 0 0 0 0
 959100000  0.037290  0.037279 -0.000026 -0.000018 0 0 0 0
 959400000  0.037751  0.037077 -0.000085 -0.000014 0 0 0 0
 959700000  0.038528  0.035003 -0.000069  0.000027 0 0 0 0
 960000000  0.038205  0.034832 -0.000166  0.000020 0 0 0 0
