!File created by NanoVNA-F V2
# Hz S RI R 50
 900000000 -0.016045 -0.021636 -0.000215 -0.000012 0 0 0 0
 900300000 -0.017552 -0.020640 -0.000267 -0.000020 0 0 0 0
 900600000 -0.017672 -0.021453 -0.000326  0.000005 0 0 0 0
 900900000 -0.018235 -0.021107 -0.000384 -0.000027 0 0 0 0
 901200000 -0.019611 -0.020830 -0.000294  0.000005 0 0 0 0
 901500000 -0.019990 -0.020131 -0.000330  0.000025 0 0 0 0
 901800000 -0.021845 -0.020378 -0.000374  0.000039 0 0 0 0
 902100000 -0.022460 -0.019956 -0.000406 -0.000065 0 0 0 0
 902400000 -0.023267 -0.019958 -0.000401  0.000015 0 0 0 0
 902700000 -0.022702 -0.019276 -0.000377 -0.000048 0 0 0 0
 903000000 -0.024623 -0.019513 -0.000344  0.000042 0 0 0 0
 903300000 -0.024652 -0.018970 -0.000384  0.000083 0 0 0 0
 903600000 -0.025822 -0.018908 -0.000432 -0.000007 0 0 0 0
 903900000 -0.027155 -0.018549 -0.000427  0.000032 0 0 0 0
 904200000 -0.028069 -0.017839 -0.000427  0.000103 0 0 0 0
 904500000 -0.028091 -0.017354 -0.000532  0.000082 0 0 0 0
 904800000 -0.029096 -0.017252 -0.000453  0.000085 0 0 0 0
 905100000 -0.029202 -0.015331 -0.000508  0.000162 0 0 0 0
 905400000 -0.030275 -0.015649 -0.000549  0.000064 0 0 0 0
 905700000 -0.030443 -0.015865 -0.000464  0.000078 0 0 0 0
 906000000 -0.032205 -0.013960 -0.000504  0.000084 0 0 0 0
 906300000 -0.032896 -0.013549 -0.000445  0.000107 0 0 0 0
 906600000 -0.033597 -0.013489 -0.000483  0.000110 0 0 0 0
 906900000 -0.033069 -0.012730 -0.000513  0.000139 0 0 0 0
 907200000 -0.033703 -0.012783 -0.000510  0.000201 0 0 0 0
 907500000 -0.034917 -0.012718 -0.000481  0.000172 0 0 0 0
 907800000 -0.036338 -0.011551 -0.000522  0.000155 0 0 0 0
 908100000 -0.036580 -0.010549 -0.000563  0.000248 0 0 0 0
 908400000 -0.037163 -0.010671 -0.000467  0.000253 0 0 0 0
 908700000 -0.036897 -0.009686 -0.000530  0.000203 0 0 0 0
 909000000 -0.037705 -0.009021 -0.000576  0.000266 0 0 0 0
 909300000 -0.038725 -0.008732 -0.000574  0.000359 0 0 0 0
 909600000 -0.039383 -0.007266 -0.000559  0.000367 0 0 0 0
 909900000 -0.040033 -0.006731 -0.000618  0.000446 0 0 0 0
 910200000 -0.040412 -0.005830 -0.000629  0.000403 0 0 0 0
 910500000 -0.039966 -0.005621 -0.000696  0.000386 0 0 0 0
 910800000 -0.041172 -0.005354 -0.000634  0.000473 0 0 0 0
 911100000 -0.042370 -0.004313 -0.000580  0.000481 0 0 0 0
 911400000 -0.042438 -0.003657 -0.000603  0.000561 0 0 0 0
 911700000 -0.042356 -0.002797 -0.000669  0.000634 0 0 0 0
 912000000 -0.042406 -0.001468 -0.000655  0.000625 0 0 0 0
 912300000 -0.043286 -0.000860 -0.000731  0.000684 0 0 0 0
 912600000 -0.043818 -0.000426 -0.000716  0.000822 0 0 0 0
 912900000 -0.044385  0.000764 -0.000715  0.000894 0 0 0 0
 913200000 -0.043789  0.001952 -0.000707  0.000946 0 0 0 0
 913500000 -0.044843  0.002395 -0.000683  0.001033 0 0 0 0
 913800000 -0.045206  0.002636 -0.000672  0.001146 0 0 0 0
 914100000 -0.044588  0.003510 -0.000698  0.001144 0 0 0 0
 914400000 -0.046121  0.004564 -0.000742  0.001274 0 0 0 0
 914700000 -0.046193  0.004302 -0.000702  0.001463 0 0 0 0
 915000000 -0.046632  0.006386 -0.000672  0.001539 0 0 0 0
 915300000 -0.046521  0.006464 -0.000590  0.001727 0 0 0 0
 915600000 -0.046268  0.008293 -0.000551  0.001847 0 0 0 0
 915900000 -0.045982  0.008946 -0.000535  0.001989 0 0 0 0
 916200000 -0.047168  0.009619 -0.000382  0.002161 0 0 0 0
 916500000 -0.047714  0.009941 -0.000369  0.002411 0 0 0 0
 916800000 -0.048267  0.010947 -0.000238  0.002585 0 0 0 0
 917100000 -0.048290  0.012212 -0.000124  0.002798 0 0 0 0
 917400000 -0.047829  0.012576  0.000005  0.003137 0 0 0 0
 917700000 -0.047942  0.014421  0.000303  0.003282 0 0 0 0
 918000000 -0.049304  0.014541  0.000564  0.003506 0 0 0 0
 918300000 -0.049080  0.014941  0.000781  0.003870 0 0 0 0
 918600000 -0.048752  0.016164  0.001272  0.003953 0 0 0 0
 918900000 -0.048423  0.018081  0.001555  0.003988 0 0 0 0
 919200000 -0.048641  0.018637  0.002158  0.003536 0 0 0 0
 919500000 -0.047889  0.019970  0.002011  0.002694 0 0 0 0
 919800000 -0.047926  0.021206  0.000425  0.001484 0 0 0 0
 920100000 -0.047705  0.021740 -0.004592  0.000170 0 0 0 0
 920400000 -0.048700  0.022290 -0.017890  0.005163 0 0 0 0
 920700000 -0.048425  0.023647 -0.030178  0.040659 0 0 0 0
 921000000 -0.048947  0.023996  0.026266  0.078404 0 0 0 0
 921300000 -0.048791  0.025533  0.078183  0.045678 0 0 0 0
 921600000 -0.048439  0.026848  0.090869 -0.004409 0 0 0 0
 921900000 -0.047869  0.026612  0.078491 -0.047153 0 0 0 0
 922200000 -0.048275  0.027793  0.051426 -0.076744 0 0 0 0
 922500000 -0.047225  0.028834  0.009865 -0.092565 0 0 0 0
 922800000 -0.047346  0.029179 -0.033629 -0.088178 0 0 0 0
 923100000 -0.045956  0.030133 -0.079898 -0.053585 0 0 0 0
 923400000 -0.045543  0.031441 -0.084457  0.021756 0 0 0 0
 923700000 -0.046570  0.031064 -0.021294  0.044228 0 0 0 0
 924000000 -0.046304  0.032207  0.003449  0.016816 0 0 0 0
 924300000 -0.045841  0.033503  0.000965  0.003036 0 0 0 0
 924600000 -0.045756  0.034840 -0.002937 -0.000509 0 0 0 0
 924900000 -0.046017  0.035349 -0.004892 -0.000530 0 0 0 0
 925200000 -0.045860  0.036769 -0.005523  0.000143 0 0 0 0
 925500000 -0.044369  0.036851 -0.005533  0.000505 0 0 0 0
 925800000 -0.044281  0.037148 -0.005112  0.001085 0 0 0 0
 926100000 -0.043130  0.038034 -0.004691  0.001344 0 0 0 0
 926400000 -0.043881  0.038413 -0.004557  0.001601 0 0 0 0
 926700000 -0.042738  0.039158 -0.004050  0.002216 0 0 0 0
 927000000 -0.040679  0.040128 -0.003429  0.002460 0 0 0 0
 927300000 -0.041067  0.041086 -0.002986  0.002358 0 0 0 0
 927600000 -0.041630  0.041575 -0.002530  0.002348 0 0 0 0
 927900000 -0.040581  0.042888 -0.002121  0.002373 0 0 0 0
 928200000 -0.039802  0.043475 -0.001779  0.002225 0 0 0 0
 928500000 -0.039924  0.043959 -0.001417  0.002186 0 0 0 0
 928800000 -0.039150  0.044437 -0.001193  0.001993 0 0 0 0
 929100000 -0.038404  0.045720 -0.001080  0.001854 0 0 0 0
 929400000 -0.038896  0.045701 -0.001006  0.001858 0 0 0 0
 929700000 -0.037942  0.046915 -0.000834  0.001731 0 0 0 0
 930000000 -0.037336  0.047211 -0.000605  0.001645 0 0 0 0
 930300000 -0.036161  0.048610 -0.000495  0.001570 0 0 0 0
 930600000 -0.034097  0.048588 -0.000384  0.001520 0 0 0 0
 930900000 -0.033676  0.049309 -0.000365  0.001473 0 0 0 0
 931200000 -0.032863  0.049622 -0.000311  0.001317 0 0 0 0
 931500000 -0.033772  0.050560 -0.000138  0.001158 0 0 0 0
 931800000 -0.032758  0.051119 -0.000113  0.001158 0 0 0 0
 932100000 -0.032557  0.051871 -0.000071  0.001113 0 0 0 0
 932400000 -0.031991  0.052479 -0.000062  0.000999 0 0 0 0
 932700000 -0.031620  0.053007  0.000024  0.000982 0 0 0 0
 933000000 -0.030666  0.053336 -0.000019  0.000749 0 0 0 0
 933300000 -0.029095  0.054362  0.000073  0.000800 0 0 0 0
 933600000 -0.028453  0.054825  0.000105  0.000789 0 0 0 0
 933900000 -0.027458  0.054808  0.000025  0.000739 0 0 0 0
 934200000 -0.025334  0.054477  0.000189  0.000674 0 0 0 0
 934500000 -0.024725  0.055103  0.000159  0.000640 0 0 0 0
 934800000 -0.025629  0.056055  0.000048  0.000635 0 0 0 0
 935100000 -0.024729  0.056670  0.000108  0.000622 0 0 0 0
 935400000 -0.024191  0.056913  0.000159  0.000590 0 0 0 0
 935700000 -0.024292  0.057578  0.000112  0.000586 0 0 0 0
 936000000 -0.023185  0.058011  0.000143  0.000563 0 0 0 0
 936300000 -0.021306  0.058402  0.000130  0.000520 0 0 0 0
 936600000 -0.021175  0.058958  0.000142  0.000435 0 0 0 0
 936900000 -0.021516  0.058800  0.000166  0.000447 0 0 0 0
 937200000 -0.019435  0.059235  0.000150  0.000448 0 0 0 0
 937500000 -0.018838  0.059542  0.000210  0.000442 0 0 0 0
 937800000 -0.018039  0.059731  0.000263  0.000388 0 0 0 0
 938100000 -0.015058  0.059836  0.000234  0.000383 0 0 0 0
 938400000 -0.015226  0.059237  0.000241  0.000337 0 0 0 0
 938700000 -0.015553  0.060386  0.000152  0.000294 0 0 0 0
 939000000 -0.015086  0.061246  0.000158  0.000359 0 0 0 0
 939300000 -0.013935  0.061094  0.000178  0.000379 0 0 0 0
 939600000 -0.013573  0.061412  0.000205  0.000339 0 0 0 0
 939900000 -0.012747  0.061523  0.000235  0.000263 0 0 0 0
 940200000 -0.011115  0.061842  0.000136  0.000258 0 0 0 0
 940500000 -0.011524  0.061721  0.000174  0.000256 0 0 0 0
 940800000 -0.008225  0.061214  0.000178  0.000236 0 0 0 0
 941100000 -0.007537  0.061550  0.000094  0.000231 0 0 0 0
 941400000 -0.006167  0.061846  0.000176  0.000183 0 0 0 0
 941700000 -0.007398  0.062553  0.000134  0.000242 0 0 0 0
 942000000 -0.005867  0.061888  0.000196  0.000150 0 0 0 0
 942300000 -0.006680  0.062339  0.000205  0.000185 0 0 0 0
 942600000 -0.004750  0.062023  0.000223  0.000186 0 0 0 0
 942900000 -0.004012  0.062826  0.000186  0.000108 0 0 0 0
 943200000 -0.003122  0.062761  0.000199  0.000185 0 0 0 0
 943500000 -0.001605  0.062081  0.000159  0.000114 0 0 0 0
 943800000 -0.001059  0.063103  0.000173  0.000116 0 0 0 0
 944100000 -0.000438  0.062763  0.000153  0.000133 0 0 0 0
 944400000  0.000811  0.062657  0.000203  0.000087 0 0 0 0
 944700000  0.003209  0.061179  0.000197  0.000089 0 0 0 0
 945000000  0.002845  0.062404  0.000194  0.000144 0 0 0 0
 945300000  0.003499  0.062028  0.000106  0.000071 0 0 0 0
 945600000  0.004535  0.061746  0.000105  0.000068 0 0 0 0
 945900000  0.005587  0.061358  0.000138  0.000116 0 0 0 0
 946200000  0.005877  0.062149  0.000148  0.000017 0 0 0 0
 946500000  0.007152  0.061120  0.000095  0.000038 0 0 0 0
 946800000  0.008150  0.061232  0.000108  0.000095 0 0 0 0
 947100000  0.009393  0.060460  0.000137  0.000032 0 0 0 0
 947400000  0.008470  0.060633  0.000075 -0.000000 0 0 0 0
 947700000  0.009468  0.061136  0.000054  0.000028 0 0 0 0
 948000000  0.011503  0.060065  0.000109  0.000031 0 0 0 0
 948300000  0.014050  0.058508  0.000096 -0.000066 0 0 0 0
 948600000  0.013530  0.059549  0.000152 -0.000012 0 0 0 0
 948900000  0.016237  0.057953  0.000107  0.000064 0 0 0 0
 949200000  0.014906  0.058534  0.000134 -0.000002 0 0 0 0
 949500000  0.015699  0.057693  0.000123 -0.000001 0 0 0 0
 949800000  0.015776  0.057720  0.000114  0.000018 0 0 0 0
 950100000  0.016511  0.057837  0.000076 -0.000038 0 0 0 0
 950400000  0.017740  0.056946  0.000047 -0.000103 0 0 0 0
 950700000  0.018018  0.056717  0.000099 -0.000117 0 0 0 0
 951000000  0.019031  0.056831  0.000067 -0.000115 0 0 0 0
 951300000  0.020573  0.055469  0.000046  0.000001 0 0 0 0
 951600000  0.021763  0.054019  0.000137 -0.000012 0 0 0 0
 951900000  0.024029  0.053019  0.000166 -0.000025 0 0 0 0
 952200000  0.023182  0.052814  0.000089 -0.000083 0 0 0 0
 952500000  0.023323  0.053260  0.000168 -0.000019 0 0 0 0
 952800000  0.024652  0.051416  0.000145 -0.000074 0 0 0 0
 953100000  0.024558  0.051943  0.000106 -0.000044 0 0 0 0
 953400000  0.025418  0.051550  0.000037 -0.000027 0 0 0 0
 953700000  0.025830  0.050427  0.000010 -0.000128 0 0 0 0
 954000000  0.025624  0.048898  0.000089 -0.000015 0 0 0 0
 954300000  0.027093  0.049728  0.000134 -0.000015 0 0 0 0
 954600000  0.027443  0.049572  0.000067 -0.000069 0 0 0 0
 954900000  0.028379  0.048513  0.000113 -0.000099 0 0 0 0
 955200000  0.029212  0.046859  0.000074 -0.000082 0 0 0 0
 955500000  0.031672  0.045423  0.000020 -0.000012 0 0 0 0
 955800000  0.030525  0.046275  0.000053 -0.000028 0 0 0 0
 956100000  0.031062  0.044916  0.000058 -0.000084 0 0 0 0
 956400000  0.031728  0.044647  0.000154 -0.000027 0 0 0 0
 956700000  0.032233  0.043858  0.000074 -0.000049 0 0 0 0
 957000000  0.033243  0.043648  0.000034 -0.000061 0 0 0 0
 957300000  0.033006  0.042114  0.000050 -0.000041 0 0 0 0
 957600000  0.033209  0.041251  0.000100  0.000028 0 0 0 0
 957900000  0.035014  0.040996  0.000004 -0.000035 0 0 0 0
 958200000  0.035197  0.040090  0.000051 -0.000069 0 0 0 0
 958500000  0.035265  0.038847  0.000090 -0.000021 0 0 0 0
 958800000  0.035047  0.039282  0.000078 -0.000034 0 0 0 0
 959100000  0.036210  0.037117 -0.000004 -0.000049 0 0 0 0
 959400000  0.037063  0.035999  0.000035  0.000012 0 0 0 0
 959700000  0.038786  0.033930  0.000060  0.000004 0 0 0 0
 960000000  0.037192  0.034347  0.000079 -0.000047 0 0 0 0
