!File created by NanoVNA-F V2
# Hz S RI R 50
 900000000 -0.016052 -0.025176 -0.000082  0.000017 0 0 0 0
 900300000 -0.017100 -0.025137 -0.000064  0.000037 0 0 0 0
 900600000 -0.017483 -0.025175 -0.000041  0.000023 0 0 0 0
 900900000 -0.018859 -0.025051 -0.000064 -0.000005 0 0 0 0
 901200000 -0.019123 -0.024674 -0.000039  0.000012 0 0 0 0
 901500000 -0.020375 -0.023899 -0.000062  0.000048 0 0 0 0
 901800000 -0.021342 -0.024195 -0.000094  0.000043 0 0 0 0
 902100000 -0.022247 -0.023796 -0.000045  0.000043 0 0 0 0
 902400000 -0.023148 -0.023652 -0.000079 -0.000014 0 0 0 0
 902700000 -0.023731 -0.022969 -0.000080  0.000030 0 0 0 0
 903000000 -0.024946 -0.022938 -0.000091  0.000008 0 0 0 0
 903300000 -0.026394 -0.021152 -0.000103 -0.000007 0 0 0 0
 903600000 -0.027187 -0.021770 -0.000044  0.000069 0 0 0 0
 903900000 -0.027746 -0.021775 -0.000124 -0.000001 0 0 0 0
 904200000 -0.027859 -0.020777 -0.000133 -0.000021 0 0 0 0
 904500000 -0.029276 -0.020029 -0.000162 -0.000054 0 0 0 0
 904800000 -0.030964 -0.019887 -0.000098 -0.000023 0 0 0 0
 905100000 -0.031228 -0.019784 -0.000021  0.000002 0 0 0 0
 905400000 -0.031110 -0.018396 -0.000100  0.000001 0 0 0 0
 905700000 -0.032348 -0.018231 -0.000072  0.000054 0 0 0 0
 906000000 -0.033264 -0.017780 -0.000108 -0.000052 0 0 0 0
 906300000 -0.033877 -0.016821 -0.000103  0.000050 0 0 0 0
 906600000 -0.033558 -0.016508 -0.000101 -0.000003 0 0 0 0
 906900000 -0.035247 -0.015483 -0.000053 -0.000024 0 0 0 0
 907200000 -0.036180 -0.015462 -0.000117  0.000019 0 0 0 0
 907500000 -0.037161 -0.015293 -0.000105  0.000061 0 0 0 0
 907800000 -0.037798 -0.014795 -0.000088 -0.000016 0 0 0 0
 908100000 -0.037758 -0.014729 -0.000137  0.000005 0 0 0 0
 908400000 -0.037911 -0.013436 -0.000103  0.000012 0 0 0 0
 908700000 -0.039552 -0.011940 -0.000052 -0.000049 0 0 0 0
 909000000 -0.040181 -0.011026 -0.000086 -0.000036 0 0 0 0
 909300000 -0.040158 -0.011109 -0.000085  0.000041 0 0 0 0
 909600000 -0.041299 -0.009713 -0.000123 -0.000071 0 0 0 0
 909900000 -0.041801 -0.009915 -0.000128 -0.000035 0 0 0 0
 910200000 -0.042629 -0.008611 -0.000082 -0.000049 0 0 0 0
 910500000 -0.041664 -0.007479 -0.000085 -0.000088 0 0 0 0
 910800000 -0.042833 -0.007413 -0.000086  0.000007 0 0 0 0
 911100000 -0.044455 -0.006237 -0.000045 -0.000032 0 0 0 0
 911400000 -0.044613 -0.006404 -0.000100 -0.000033 0 0 0 0
 911700000 -0.045046 -0.005046 -0.000057  0.000049 0 0 0 0
 912000000 -0.045754 -0.004322 -0.000049  0.000067 0 0 0 0
 912300000 -0.045404 -0.003098 -0.000110 -0.000008 0 0 0 0
 912600000 -0.045515 -0.002210 -0.000097  0.000009 0 0 0 0
 912900000 -0.046026 -0.000775 -0.000000 -0.000055 0 0 0 0
 913200000 -0.046091 -0.000131 -0.000050 -0.000042 0 0 0 0
 913500000 -0.047527  0.000330 -0.000043  0.000053 0 0 0 0
 913800000 -0.046843  0.000604 -0.000103 -0.000005 0 0 0 0
 914100000 -0.048173  0.002536 -0.000047 -0.000003 0 0 0 0
 914400000 -0.048149  0.002735 -0.000062  0.000043 0 0 0 0
 914700000 -0.049309  0.003469  0.000019 -0.000015 0 0 0 0
 915000000 -0.048224  0.004284 -0.000033  0.000028 0 0 0 0
 915300000 -0.049363  0.004632 -0.000012  0.000013 0 0 0 0
 915600000 -0.048752  0.005707 -0.000085  0.000002 0 0 0 0
 915900000 -0.049176  0.007128 -0.000103 -0.000012 0 0 0 0
 916200000 -0.050131  0.007480 -0.000018  0.000001 0 0 0 0
 916500000 -0.049220  0.009357 -0.000044  0.000010 0 0 0 0
 916800000 -0.050123  0.009969 -0.000031  0.000038 0 0 0 0
 917100000 -0.050957  0.010881 -0.000085 -0.000013 0 0 0 0
 917400000 -0.050712  0.011940 -0.000020  0.000034 0 0 0 0
 917700000 -0.051016  0.012784 -0.000004  0.000056 0 0 0 0
 918000000 -0.051267  0.014115  0.000016 -0.000004 0 0 0 0
 918300000 -0.051359  0.014824 -0.000036 -0.000018 0 0 0 0
 918600000 -0.051182  0.016201 -0.000005  0.000094 0 0 0 0
 918900000 -0.051687  0.016080 -0.000024  0.000029 0 0 0 0
 919200000 -0.052207  0.016812 -0.000039  0.000063 0 0 0 0
 919500000 -0.050354  0.018156 -0.000068  0.000040 0 0 0 0
 919800000 -0.050904  0.019709  0.000056  0.000005 0 0 0 0
 920100000 -0.050064  0.021470  0.000006  0.000056 0 0 0 0
 920400000 -0.049302  0.021790  0.000002  0.000116 0 0 0 0
 920700000 -0.051008  0.022576  0.000055  0.000068 0 0 0 0
 921000000 -0.051382  0.022791  0.000055  0.000081 0 0 0 0
 921300000 -0.051693  0.024970 -0.000013  0.000089 0 0 0 0
 921600000 -0.050832  0.025292 -0.000009  0.000025 0 0 0 0
 921900000 -0.051660  0.026499  0.000046  0.000111 0 0 0 0
 922200000 -0.050693  0.027706  0.000066  0.000026 0 0 0 0
 922500000 -0.050085  0.028394  0.000038  0.000076 0 0 0 0
 922800000 -0.049167  0.029075  0.000043  0.000086 0 0 0 0
 923100000 -0.049816  0.029006  0.000030  0.000049 0 0 0 0
 923400000 -0.049428  0.029917  0.000045  0.000050 0 0 0 0
 923700000 -0.047893  0.031209  0.000044  0.000106 0 0 0 0
 924000000 -0.047506  0.032643  0.000064  0.000047 0 0 0 0
 924300000 -0.048577  0.033276  0.000057  0.000023 0 0 0 0
 924600000 -0.048244  0.033713  0.000095  0.000139 0 0 0 0
 924900000 -0.047481  0.034456  0.000062  0.000093 0 0 0 0
 925200000 -0.048198  0.035830  0.000101  0.000098 0 0 0 0
 925500000 -0.046254  0.036149  0.000119  0.000105 0 0 0 0
 925800000 -0.046708  0.037235  0.000135  0.000108 0 0 0 0
 926100000 -0.046118  0.037870  0.000118  0.000134 0 0 0 0
 926400000 -0.046346  0.038084  0.000070  0.000062 0 0 0 0
 926700000 -0.046496  0.039428  0.000146  0.000150 0 0 0 0
 927000000 -0.044861  0.040374  0.000181  0.000124 0 0 0 0
 927300000 -0.044313  0.041639  0.000100  0.000137 0 0 0 0
 927600000 -0.043924  0.042098  0.000118  0.000156 0 0 0 0
 927900000 -0.042082  0.042926  0.000080  0.000179 0 0 0 0
 928200000 -0.042929  0.043084  0.000110  0.000093 0 0 0 0
 928500000 -0.042196  0.044114  0.000155  0.000198 0 0 0 0
 928800000 -0.041610  0.044727  0.000199  0.000081 0 0 0 0
 929100000 -0.041438  0.046378  0.000166  0.000146 0 0 0 0
 929400000 -0.041258  0.046255  0.000194  0.000081 0 0 0 0
 929700000 -0.041091  0.046843  0.000147  0.000207 0 0 0 0
 930000000 -0.039937  0.047326  0.000267  0.000197 0 0 0 0
 930300000 -0.040417  0.048043  0.000173  0.000234 0 0 0 0
 930600000 -0.038226  0.048967  0.000160  0.000159 0 0 0 0
 930900000 -0.037592  0.050332  0.000246  0.000172 0 0 0 0
 931200000 -0.035071  0.049887  0.000231  0.000196 0 0 0 0
 931500000 -0.034888  0.051057  0.000245  0.000088 0 0 0 0
 931800000 -0.035945  0.051383  0.000272  0.000090 0 0 0 0
 932100000 -0.035033  0.052227  0.000250  0.000200 0 0 0 0
 932400000 -0.034753  0.052794  0.000260  0.000206 0 0 0 0
 932700000 -0.034381  0.053528  0.000298  0.000139 0 0 0 0
 933000000 -0.032712  0.053818  0.000293  0.000199 0 0 0 0
 933300000 -0.031580  0.054774  0.000315  0.000249 0 0 0 0
 933600000 -0.032644  0.055019  0.000329  0.000206 0 0 0 0
 933900000 -0.031687  0.055455  0.000333  0.000192 0 0 0 0
 934200000 -0.029178  0.056284  0.000376  0.000271 0 0 0 0
 934500000 -0.027662  0.056672  0.000407  0.000196 0 0 0 0
 934800000 -0.027045  0.057258  0.000366  0.000143 0 0 0 0
 935100000 -0.026000  0.057804  0.000416  0.000122 0 0 0 0
 935400000 -0.026815  0.058061  0.000461  0.000196 0 0 0 0
 935700000 -0.026251  0.057974  0.000460  0.000256 0 0 0 0
 936000000 -0.026191  0.059136  0.000476  0.000252 0 0 0 0
 936300000 -0.024335  0.059396  0.000527  0.000279 0 0 0 0
 936600000 -0.025023  0.059643  0.000517  0.000210 0 0 0 0
 936900000 -0.022377  0.060164  0.000579  0.000218 0 0 0 0
 937200000 -0.022492  0.060757  0.000598  0.000135 0 0 0 0
 937500000 -0.021425  0.060093  0.000648  0.000184 0 0 0 0
 937800000 -0.020680  0.060942  0.000689  0.000176 0 0 0 0
 938100000 -0.018549  0.060754  0.000634  0.000226 0 0 0 0
 938400000 -0.018867  0.061465  0.000712  0.000247 0 0 0 0
 938700000 -0.017414  0.061805  0.000797  0.000219 0 0 0 0
 939000000 -0.017845  0.062197  0.000836  0.000198 0 0 0 0
 939300000 -0.016817  0.062072  0.000819  0.000181 0 0 0 0
 939600000 -0.016499  0.063097  0.000868  0.000176 0 0 0 0
 939900000 -0.015373  0.062585  0.001001  0.000210 0 0 0 0
 940200000 -0.014350  0.062745  0.000995  0.000234 0 0 0 0
 940500000 -0.013028  0.063221  0.001046  0.000179 0 0 0 0
 940800000 -0.013346  0.063696  0.001096  0.000146 0 0 0 0
 941100000 -0.012333  0.063127  0.001223  0.000181 0 0 0 0
 941400000 -0.011403  0.063689  0.001374  0.000117 0 0 0 0
 941700000 -0.009928  0.063335  0.001322  0.000060 0 0 0 0
 942000000 -0.006872  0.063152  0.001482  0.000022 0 0 0 0
 942300000 -0.006704  0.064000  0.001578 -0.000050 0 0 0 0
 942600000 -0.007165  0.064433  0.001609 -0.000077 0 0 0 0
 942900000 -0.005854  0.064426  0.001719 -0.000007 0 0 0 0
 943200000 -0.005270  0.064291  0.001870 -0.000156 0 0 0 0
 943500000 -0.004106  0.064470  0.001921 -0.000292 0 0 0 0
 943800000 -0.003655  0.064661  0.002192 -0.000373 0 0 0 0
 944100000 -0.003149  0.064095  0.002317 -0.000570 0 0 0 0
 944400000 -0.003108  0.064706  0.002471 -0.000587 0 0 0 0
 944700000 -0.002036  0.064826  0.002718 -0.000738 0 0 0 0
 945000000 -0.000948  0.064008  0.002894 -0.001099 0 0 0 0
 945300000  0.001239  0.064181  0.003049 -0.001533 0 0 0 0
 945600000  0.002956  0.063201  0.003326 -0.001732 0 0 0 0
 945900000  0.005152  0.063363  0.003463 -0.002001 0 0 0 0
 946200000  0.005728  0.062295  0.003676 -0.002583 0 0 0 0
 946500000  0.004786  0.063070  0.003753 -0.003099 0 0 0 0
 946800000  0.006125  0.063395  0.003952 -0.003679 0 0 0 0
 947100000  0.006345  0.062665  0.003724 -0.004379 0 0 0 0
 947400000  0.006839  0.062671  0.003542 -0.005016 0 0 0 0
 947700000  0.008093  0.062055  0.002949 -0.005464 0 0 0 0
 948000000  0.008760  0.062425  0.002046 -0.005374 0 0 0 0
 948300000  0.010525  0.061464  0.001254 -0.003734 0 0 0 0
 948600000  0.009774  0.061586  0.002202  0.000972 0 0 0 0
 948900000  0.011385  0.060680  0.011687  0.009053 0 0 0 0
 949200000  0.014747  0.059802  0.042696  0.005426 0 0 0 0
 949500000  0.013678  0.060040  0.064744 -0.051379 0 0 0 0
 949800000  0.014096  0.059992  0.008756 -0.104052 0 0 0 0
 950100000  0.015043  0.059271 -0.055696 -0.096045 0 0 0 0
 950400000  0.015702  0.059253 -0.098757 -0.054136 0 0 0 0
 950700000  0.015963  0.058114 -0.112659 -0.001081 0 0 0 0
 951000000  0.017066  0.057910 -0.098565  0.051233 0 0 0 0
 951300000  0.018734  0.058151 -0.061227  0.089019 0 0 0 0
 951600000  0.019150  0.057766 -0.007084  0.104275 0 0 0 0
 951900000  0.020584  0.056705  0.057895  0.082682 0 0 0 0
 952200000  0.019873  0.056782  0.072674  0.002619 0 0 0 0
 952500000  0.021041  0.055730  0.020154 -0.020171 0 0 0 0
 952800000  0.023102  0.054000  0.003240 -0.007240 0 0 0 0
 953100000  0.022552  0.054685  0.001239  0.000112 0 0 0 0
 953400000  0.024465  0.052959  0.001828  0.002804 0 0 0 0
 953700000  0.024295  0.053539  0.002518  0.003579 0 0 0 0
 954000000  0.025228  0.052840  0.002931  0.003612 0 0 0 0
 954300000  0.024994  0.052660  0.003244  0.003275 0 0 0 0
 954600000  0.026608  0.051341  0.003320  0.002831 0 0 0 0
 954900000  0.027374  0.050493  0.003199  0.002484 0 0 0 0
 955200000  0.027684  0.050477  0.003192  0.002052 0 0 0 0
 955500000  0.027496  0.049109  0.003040  0.001730 0 0 0 0
 955800000  0.028918  0.048598  0.002825  0.001459 0 0 0 0
 956100000  0.029050  0.048913  0.002694  0.001134 0 0 0 0
 956400000  0.031435  0.046317  0.002567  0.000865 0 0 0 0
 956700000  0.032164  0.045920  0.002454  0.000732 0 0 0 0
 957000000  0.032764  0.044949  0.002233  0.000645 0 0 0 0
 957300000  0.031681  0.045138  0.002147  0.000537 0 0 0 0
 957600000  0.032272  0.044090  0.002042  0.000402 0 0 0 0
 957900000  0.031997  0.043955  0.001970  0.000287 0 0 0 0
 958200000  0.033242  0.042917  0.001766  0.000181 0 0 0 0
 958500000  0.033783  0.041829  0.001673  0.000177 0 0 0 0
 958800000  0.035231  0.040961  0.001627  0.000081 0 0 0 0
 959100000  0.034503  0.041444  0.001489  0.000082 0 0 0 0
 959400000  0.035250  0.039570  0.001421  0.000022 0 0 0 0
 959700000  0.034999  0.040264  0.001311 -0.000047 0 0 0 0
 960000000  0.036262  0.038110  0.001219 -0.000079 0 0 0 0
