!File created by NanoVNA-F V2
# Hz S RI R 50
 900000000 -0.016366 -0.025954 -0.000043  0.000115 0 0 0 0
 900300000 -0.017251 -0.026277 -0.000020  0.000093 0 0 0 0
 900600000 -0.017543 -0.026362 -0.000027  0.000093 0 0 0 0
 900900000 -0.019065 -0.025689 -0.000111  0.000081 0 0 0 0
 901200000 -0.019902 -0.025091  0.000006  0.000068 0 0 0 0
 901500000 -0.019799 -0.025327  0.000020  0.000125 0 0 0 0
 901800000 -0.021231 -0.024526  0.000007  0.000089 0 0 0 0
 902100000 -0.022559 -0.023845 -0.000027  0.000095 0 0 0 0
 902400000 -0.022603 -0.023978 -0.000029  0.000073 0 0 0 0
 902700000 -0.023865 -0.024774  0.000010  0.000031 0 0 0 0
 903000000 -0.023721 -0.023973 -0.000019  0.000096 0 0 0 0
 903300000 -0.025565 -0.023156 -0.000004  0.000042 0 0 0 0
 903600000 -0.026193 -0.022647 -0.000009  0.000072 0 0 0 0
 903900000 -0.028179 -0.022710 -0.000012  0.000028 0 0 0 0
 904200000 -0.027590 -0.022442  0.000019  0.000024 0 0 0 0
 904500000 -0.029504 -0.021877  0.000053  0.000051 0 0 0 0
 904800000 -0.029910 -0.020601 -0.000023  0.000073 0 0 0 0
 905100000 -0.029421 -0.021092 -0.000026  0.000006 0 0 0 0
 905400000 -0.030814 -0.020057  0.000055 -0.000022 0 0 0 0
 905700000 -0.031818 -0.020530 -0.000002  0.000110 0 0 0 0
 906000000 -0.032151 -0.019133  0.000006  0.000079 0 0 0 0
 906300000 -0.033691 -0.018799  0.000012  0.000051 0 0 0 0
 906600000 -0.033741 -0.018054  0.000108  0.000063 0 0 0 0
 906900000 -0.034361 -0.017552 -0.000059 -0.000001 0 0 0 0
 907200000 -0.035212 -0.017069 -0.000066  0.000009 0 0 0 0
 907500000 -0.036266 -0.016577 -0.000025  0.000090 0 0 0 0
 907800000 -0.037651 -0.015812  0.000039  0.000000 0 0 0 0
 908100000 -0.037832 -0.015024  0.000050  0.000079 0 0 0 0
 908400000 -0.038124 -0.015548  0.000067  0.000033 0 0 0 0
 908700000 -0.038769 -0.014917  0.000065  0.000025 0 0 0 0
 909000000 -0.039278 -0.013500  0.000080 -0.000030 0 0 0 0
 909300000 -0.039553 -0.013491  0.000064 -0.000087 0 0 0 0
 909600000 -0.040854 -0.012204  0.000079  0.000015 0 0 0 0
 909900000 -0.041491 -0.010769  0.000008 -0.000012 0 0 0 0
 910200000 -0.041638 -0.010509  0.000038 -0.000025 0 0 0 0
 910500000 -0.041701 -0.010197  0.000111 -0.000022 0 0 0 0
 910800000 -0.043144 -0.009424  0.000071 -0.000014 0 0 0 0
 911100000 -0.043779 -0.008305  0.000113 -0.000016 0 0 0 0
 911400000 -0.044416 -0.007675  0.000054 -0.000025 0 0 0 0
 911700000 -0.044450 -0.006871  0.000044 -0.000032 0 0 0 0
 912000000 -0.044715 -0.006038  0.000114 -0.000050 0 0 0 0
 912300000 -0.044676 -0.005676  0.000128 -0.000097 0 0 0 0
 912600000 -0.045299 -0.005691  0.000060 -0.000051 0 0 0 0
 912900000 -0.045695 -0.005155  0.000105 -0.000046 0 0 0 0
 913200000 -0.046318 -0.003631  0.000153 -0.000033 0 0 0 0
 913500000 -0.046478 -0.002894  0.000191 -0.000084 0 0 0 0
 913800000 -0.046767 -0.001124  0.000158 -0.000065 0 0 0 0
 914100000 -0.046700 -0.000251  0.000138 -0.000042 0 0 0 0
 914400000 -0.048280 -0.000342  0.000122 -0.000098 0 0 0 0
 914700000 -0.048725  0.000885  0.000195 -0.000006 0 0 0 0
 915000000 -0.049047  0.001221  0.000140 -0.000071 0 0 0 0
 915300000 -0.049878  0.002703  0.000188 -0.000005 0 0 0 0
 915600000 -0.049507  0.003918  0.000173 -0.000074 0 0 0 0
 915900000 -0.050327  0.003817  0.000174 -0.000095 0 0 0 0
 916200000 -0.049434  0.004729  0.000211 -0.000098 0 0 0 0
 916500000 -0.050767  0.005481  0.000194 -0.000044 0 0 0 0
 916800000 -0.050258  0.006727  0.000231 -0.000143 0 0 0 0
 917100000 -0.050955  0.008256  0.000137 -0.000062 0 0 0 0
 917400000 -0.050202  0.009347  0.000202 -0.000105 0 0 0 0
 917700000 -0.050606  0.009571  0.000242 -0.000167 0 0 0 0
 918000000 -0.050314  0.010775  0.000220 -0.000145 0 0 0 0
 918300000 -0.051341  0.011975  0.000178 -0.000161 0 0 0 0
 918600000 -0.050711  0.012754  0.000180 -0.000120 0 0 0 0
 918900000 -0.051187  0.013310  0.000223 -0.000199 0 0 0 0
 919200000 -0.051160  0.014720  0.000286 -0.000162 0 0 0 0
 919500000 -0.052510  0.015172  0.000247 -0.000163 0 0 0 0
 919800000 -0.052033  0.015785  0.000241 -0.000117 0 0 0 0
 920100000 -0.051141  0.017019  0.000258 -0.000170 0 0 0 0
 920400000 -0.051409  0.017864  0.000244 -0.000206 0 0 0 0
 920700000 -0.051447  0.018512  0.000258 -0.000232 0 0 0 0
 921000000 -0.051289  0.019390  0.000310 -0.000179 0 0 0 0
 921300000 -0.050365  0.020733  0.000281 -0.000204 0 0 0 0
 921600000 -0.050189  0.022823  0.000332 -0.000242 0 0 0 0
 921900000 -0.051481  0.022189  0.000259 -0.000222 0 0 0 0
 922200000 -0.050841  0.023289  0.000282 -0.000259 0 0 0 0
 922500000 -0.050573  0.024632  0.000286 -0.000278 0 0 0 0
 922800000 -0.051166  0.025637  0.000313 -0.000260 0 0 0 0
 923100000 -0.050563  0.025832  0.000343 -0.000300 0 0 0 0
 923400000 -0.050746  0.027306  0.000282 -0.000361 0 0 0 0
 923700000 -0.049818  0.027556  0.000351 -0.000299 0 0 0 0
 924000000 -0.050977  0.028144  0.000357 -0.000314 0 0 0 0
 924300000 -0.050146  0.029557  0.000334 -0.000378 0 0 0 0
 924600000 -0.048280  0.030728  0.000388 -0.000438 0 0 0 0
 924900000 -0.047931  0.031418  0.000419 -0.000443 0 0 0 0
 925200000 -0.048860  0.031875  0.000432 -0.000404 0 0 0 0
 925500000 -0.048198  0.032521  0.000424 -0.000481 0 0 0 0
 925800000 -0.048351  0.033753  0.000374 -0.000510 0 0 0 0
 926100000 -0.047352  0.034351  0.000370 -0.000551 0 0 0 0
 926400000 -0.048044  0.035429  0.000372 -0.000516 0 0 0 0
 926700000 -0.047223  0.035791  0.000400 -0.000602 0 0 0 0
 927000000 -0.046373  0.036661  0.000446 -0.000587 0 0 0 0
 927300000 -0.046542  0.037341  0.000494 -0.000681 0 0 0 0
 927600000 -0.046178  0.037484  0.000423 -0.000696 0 0 0 0
 927900000 -0.045873  0.038960  0.000407 -0.000736 0 0 0 0
 928200000 -0.043225  0.040560  0.000346 -0.000729 0 0 0 0
 928500000 -0.042988  0.041290  0.000380 -0.000805 0 0 0 0
 928800000 -0.043715  0.041696  0.000399 -0.000854 0 0 0 0
 929100000 -0.043550  0.042358  0.000411 -0.000859 0 0 0 0
 929400000 -0.043188  0.043575  0.000433 -0.000996 0 0 0 0
 929700000 -0.042418  0.044087  0.000336 -0.001079 0 0 0 0
 930000000 -0.041113  0.044770  0.000413 -0.001034 0 0 0 0
 930300000 -0.041284  0.044993  0.000340 -0.001168 0 0 0 0
 930600000 -0.040977  0.045697  0.000348 -0.001244 0 0 0 0
 930900000 -0.039912  0.045439  0.000404 -0.001281 0 0 0 0
 931200000 -0.038942  0.047049  0.000255 -0.001447 0 0 0 0
 931500000 -0.037020  0.047170  0.000240 -0.001475 0 0 0 0
 931800000 -0.036728  0.048172  0.000258 -0.001570 0 0 0 0
 932100000 -0.037008  0.049701  0.000203 -0.001770 0 0 0 0
 932400000 -0.036371  0.049814  0.000056 -0.001809 0 0 0 0
 932700000 -0.035791  0.050515  0.000074 -0.001976 0 0 0 0
 933000000 -0.035149  0.051064  0.000023 -0.002159 0 0 0 0
 933300000 -0.034467  0.051417 -0.000105 -0.002257 0 0 0 0
 933600000 -0.033922  0.051611 -0.000265 -0.002532 0 0 0 0
 933900000 -0.032843  0.052842 -0.000329 -0.002634 0 0 0 0
 934200000 -0.032901  0.053123 -0.000474 -0.002805 0 0 0 0
 934500000 -0.032746  0.053251 -0.000787 -0.003017 0 0 0 0
 934800000 -0.030904  0.053955 -0.000905 -0.003355 0 0 0 0
 935100000 -0.030792  0.054443 -0.001272 -0.003449 0 0 0 0
 935400000 -0.029063  0.054530 -0.001663 -0.003633 0 0 0 0
 935700000 -0.026619  0.055625 -0.002080 -0.003900 0 0 0 0
 936000000 -0.028153  0.055896 -0.002645 -0.004051 0 0 0 0
 936300000 -0.027728  0.056231 -0.003236 -0.004197 0 0 0 0
 936600000 -0.026908  0.056766 -0.003786 -0.004130 0 0 0 0
 936900000 -0.025181  0.056564 -0.004458 -0.003862 0 0 0 0
 937200000 -0.025987  0.057834 -0.005112 -0.003246 0 0 0 0
 937500000 -0.024899  0.058158 -0.005072 -0.002696 0 0 0 0
 937800000 -0.024085  0.057985 -0.004039 -0.001537 0 0 0 0
 938100000 -0.022346  0.058708 -0.000669 -0.001460 0 0 0 0
 938400000 -0.021865  0.058632  0.005966 -0.005987 0 0 0 0
 938700000 -0.019459  0.058632  0.009952 -0.023945 0 0 0 0
 939000000 -0.020097  0.059617 -0.012519 -0.053955 0 0 0 0
 939300000 -0.017079  0.060026 -0.068828 -0.050135 0 0 0 0
 939600000 -0.018181  0.059810 -0.099875  0.008217 0 0 0 0
 939900000 -0.017425  0.060748 -0.080938  0.065471 0 0 0 0
 940200000 -0.016593  0.060367 -0.041451  0.094768 0 0 0 0
 940500000 -0.016506  0.061023  0.006610  0.100558 0 0 0 0
 940800000 -0.015526  0.060516  0.048707  0.086559 0 0 0 0
 941100000 -0.013663  0.061476  0.080809  0.059287 0 0 0 0
 941400000 -0.014394  0.061916  0.105596  0.005631 0 0 0 0
 941700000 -0.013641  0.061404  0.063484 -0.071561 0 0 0 0
 942000000 -0.011659  0.061431 -0.010619 -0.048042 0 0 0 0
 942300000 -0.009096  0.061751 -0.012140 -0.012804 0 0 0 0
 942600000 -0.010212  0.061841 -0.003545 -0.002716 0 0 0 0
 942900000 -0.007013  0.061702  0.001438 -0.001005 0 0 0 0
 943200000 -0.007552  0.062286  0.003470 -0.001195 0 0 0 0
 943500000 -0.006731  0.062105  0.004117 -0.001846 0 0 0 0
 943800000 -0.006816  0.061857  0.004314 -0.002218 0 0 0 0
 944100000 -0.004961  0.062277  0.004029 -0.002534 0 0 0 0
 944400000 -0.005327  0.061968  0.003726 -0.002752 0 0 0 0
 944700000 -0.003531  0.061868  0.003448 -0.003056 0 0 0 0
 945000000 -0.002791  0.062469  0.002963 -0.003193 0 0 0 0
 945300000 -0.002586  0.062475  0.002338 -0.003324 0 0 0 0
 945600000 -0.001899  0.062050  0.001927 -0.003107 0 0 0 0
 945900000  0.002212  0.061626  0.001465 -0.002979 0 0 0 0
 946200000  0.002707  0.061055  0.001147 -0.002788 0 0 0 0
 946500000  0.003756  0.060610  0.000947 -0.002653 0 0 0 0
 946800000  0.003390  0.061424  0.000728 -0.002404 0 0 0 0
 947100000  0.003577  0.061165  0.000635 -0.002289 0 0 0 0
 947400000  0.003885  0.060608  0.000527 -0.002229 0 0 0 0
 947700000  0.004626  0.060805  0.000358 -0.002058 0 0 0 0
 948000000  0.005877  0.060113  0.000283 -0.001994 0 0 0 0
 948300000  0.007247  0.060407  0.000181 -0.001865 0 0 0 0
 948600000  0.008153  0.060299  0.000075 -0.001709 0 0 0 0
 948900000  0.008233  0.060556 -0.000067 -0.001642 0 0 0 0
 949200000  0.009648  0.059602 -0.000023 -0.001517 0 0 0 0
 949500000  0.010928  0.059102 -0.000159 -0.001394 0 0 0 0
 949800000  0.013218  0.057662 -0.000215 -0.001318 0 0 0 0
 950100000  0.012352  0.058060 -0.000107 -0.001167 0 0 0 0
 950400000  0.013942  0.057533 -0.000198 -0.001128 0 0 0 0
 950700000  0.014325  0.056873 -0.000128 -0.001092 0 0 0 0
 951000000  0.015344  0.056571 -0.000270 -0.000996 0 0 0 0
 951300000  0.015739  0.056371 -0.000201 -0.000926 0 0 0 0
 951600000  0.015850  0.055349 -0.000270 -0.000889 0 0 0 0
 951900000  0.017124  0.054776 -0.000308 -0.000903 0 0 0 0
 952200000  0.017246  0.055054 -0.000264 -0.000826 0 0 0 0
 952500000  0.018122  0.054366 -0.000165 -0.000796 0 0 0 0
 952800000  0.018659  0.054158 -0.000250 -0.000744 0 0 0 0
 953100000  0.019428  0.052935 -0.000230 -0.000696 0 0 0 0
 953400000  0.020742  0.052947 -0.000315 -0.000710 0 0 0 0
 953700000  0.020979  0.051904 -0.000264 -0.000605 0 0 0 0
 954000000  0.023052  0.051492 -0.000281 -0.000619 0 0 0 0
 954300000  0.022954  0.050798 -0.000321 -0.000527 0 0 0 0
 954600000  0.023526  0.050609 -0.000264 -0.000433 0 0 0 0
 954900000  0.024496  0.049591 -0.000302 -0.000465 0 0 0 0
 955200000  0.024764  0.048827 -0.000257 -0.000479 0 0 0 0
 955500000  0.025388  0.048205 -0.000331 -0.000419 0 0 0 0
 955800000  0.026201  0.047952 -0.000277 -0.000443 0 0 0 0
 956100000  0.027039  0.046516 -0.000318 -0.000505 0 0 0 0
 956400000  0.028175  0.045800 -0.000252 -0.000326 0 0 0 0
 956700000  0.028422  0.045363 -0.000298 -0.000310 0 0 0 0
 957000000  0.030136  0.043425 -0.000317 -0.000318 0 0 0 0
 957300000  0.029267  0.044583 -0.000314 -0.000276 0 0 0 0
 957600000  0.030094  0.043634 -0.000242 -0.000292 0 0 0 0
 957900000  0.030843  0.041899 -0.000223 -0.000325 0 0 0 0
 958200000  0.031176  0.041949 -0.000310 -0.000274 0 0 0 0
 958500000  0.032124  0.040819 -0.000255 -0.000219 0 0 0 0
 958800000  0.031547  0.039541 -0.000301 -0.000198 0 0 0 0
 959100000  0.033206  0.038896 -0.000201 -0.000232 0 0 0 0
 959400000  0.032785  0.038900 -0.000270 -0.000190 0 0 0 0
 959700000  0.033168  0.038677 -0.000236 -0.000107 0 0 0 0
 960000000  0.033962  0.037965 -0.000308 -0.000071 0 0 0 0
