!File created by NanoVNA-F V2
# Hz S RI R 50
 900000000 -0.014033 -0.024804 -0.000187 -0.000219 0 0 0 0
 900300000 -0.015648 -0.024715 -0.000172 -0.000319 0 0 0 0
 900600000 -0.016808 -0.024314 -0.000168 -0.000266 0 0 0 0
 900900000 -0.017831 -0.024623 -0.000202 -0.000264 0 0 0 0
 901200000 -0.018883 -0.024360 -0.000252 -0.000310 0 0 0 0
 901500000 -0.019664 -0.023296 -0.000183 -0.000308 0 0 0 0
 901800000 -0.020995 -0.023607 -0.000261 -0.000332 0 0 0 0
 902100000 -0.021885 -0.023589 -0.000290 -0.000368 0 0 0 0
 902400000 -0.021975 -0.023588 -0.000256 -0.000341 0 0 0 0
 902700000 -0.023163 -0.023204 -0.000229 -0.000408 0 0 0 0
 903000000 -0.023944 -0.022391 -0.000298 -0.000307 0 0 0 0
 903300000 -0.024279 -0.022298 -0.000313 -0.000375 0 0 0 0
 903600000 -0.024216 -0.022236 -0.000329 -0.000398 0 0 0 0
 903900000 -0.026451 -0.021073 -0.000377 -0.000375 0 0 0 0
 904200000 -0.026993 -0.020859 -0.000365 -0.000436 0 0 0 0
 904500000 -0.027387 -0.019866 -0.000425 -0.000383 0 0 0 0
 904800000 -0.029034 -0.019398 -0.000426 -0.000470 0 0 0 0
 905100000 -0.029261 -0.019329 -0.000492 -0.000448 0 0 0 0
 905400000 -0.030399 -0.019229 -0.000492 -0.000464 0 0 0 0
 905700000 -0.031291 -0.018308 -0.000529 -0.000539 0 0 0 0
 906000000 -0.032146 -0.018313 -0.000541 -0.000466 0 0 0 0
 906300000 -0.032645 -0.016672 -0.000613 -0.000472 0 0 0 0
 906600000 -0.033323 -0.016467 -0.000668 -0.000553 0 0 0 0
 906900000 -0.033861 -0.016917 -0.000706 -0.000585 0 0 0 0
 907200000 -0.034023 -0.016730 -0.000804 -0.000535 0 0 0 0
 907500000 -0.035593 -0.015888 -0.000796 -0.000531 0 0 0 0
 907800000 -0.036500 -0.014810 -0.000910 -0.000551 0 0 0 0
 908100000 -0.036817 -0.014596 -0.000958 -0.000595 0 0 0 0
 908400000 -0.036962 -0.013234 -0.001060 -0.000586 0 0 0 0
 908700000 -0.037378 -0.013090 -0.001125 -0.000623 0 0 0 0
 909000000 -0.038559 -0.012481 -0.001248 -0.000593 0 0 0 0
 909300000 -0.039648 -0.011412 -0.001255 -0.000638 0 0 0 0
 909600000 -0.039627 -0.011026 -0.001445 -0.000683 0 0 0 0
 909900000 -0.041383 -0.010340 -0.001566 -0.000684 0 0 0 0
 910200000 -0.040911 -0.010290 -0.001711 -0.000671 0 0 0 0
 910500000 -0.040881 -0.009649 -0.001853 -0.000660 0 0 0 0
 910800000 -0.041773 -0.008213 -0.002023 -0.000608 0 0 0 0
 911100000 -0.041502 -0.008300 -0.002165 -0.000654 0 0 0 0
 911400000 -0.043049 -0.006820 -0.002437 -0.000551 0 0 0 0
 911700000 -0.042811 -0.005992 -0.002697 -0.000300 0 0 0 0
 912000000 -0.043329 -0.004684 -0.002925 -0.000362 0 0 0 0
 912300000 -0.043963 -0.004780 -0.003207 -0.000058 0 0 0 0
 912600000 -0.044376 -0.004419 -0.003532  0.000059 0 0 0 0
 912900000 -0.045270 -0.002975 -0.003736  0.000309 0 0 0 0
 913200000 -0.047558 -0.002675 -0.003871  0.000921 0 0 0 0
 913500000 -0.046466 -0.001440 -0.004065  0.001142 0 0 0 0
 913800000 -0.046454 -0.000539 -0.003773  0.001647 0 0 0 0
 914100000 -0.046831 -0.000923 -0.003217  0.001655 0 0 0 0
 914400000 -0.047541  0.000779 -0.002074  0.000982 0 0 0 0
 914700000 -0.047687  0.001927 -0.000370 -0.001998 0 0 0 0
 915000000 -0.048250  0.002151 -0.000321 -0.010758 0 0 0 0
 915300000 -0.048011  0.003279 -0.014346 -0.028124 0 0 0 0
 915600000 -0.047522  0.004815 -0.065945 -0.025124 0 0 0 0
 915900000 -0.048647  0.005312 -0.088063  0.049337 0 0 0 0
 916200000 -0.048724  0.005997 -0.036261  0.101743 0 0 0 0
 916500000 -0.049706  0.007070  0.022185  0.107414 0 0 0 0
 916800000 -0.050991  0.008196  0.074809  0.082227 0 0 0 0
 917100000 -0.051049  0.009069  0.104356  0.039728 0 0 0 0
 917400000 -0.050993  0.010510  0.111198 -0.016886 0 0 0 0
 917700000 -0.050643  0.010258  0.084826 -0.073852 0 0 0 0
 918000000 -0.051631  0.011176  0.022123 -0.108109 0 0 0 0
 918300000 -0.051106  0.012837 -0.054520 -0.057716 0 0 0 0
 918600000 -0.050925  0.013861 -0.038543 -0.003625 0 0 0 0
 918900000 -0.049654  0.015914 -0.013232  0.006289 0 0 0 0
 919200000 -0.051111  0.015750 -0.002903  0.001911 0 0 0 0
 919500000 -0.049439  0.016421 -0.000435 -0.001931 0 0 0 0
 919800000 -0.051255  0.017314 -0.000519 -0.003533 0 0 0 0
 920100000 -0.051409  0.018329 -0.000715 -0.003839 0 0 0 0
 920400000 -0.050728  0.019326 -0.000740 -0.004063 0 0 0 0
 920700000 -0.050883  0.020677 -0.001237 -0.004219 0 0 0 0
 921000000 -0.050787  0.021703 -0.001877 -0.003703 0 0 0 0
 921300000 -0.050965  0.022292 -0.002059 -0.003184 0 0 0 0
 921600000 -0.051133  0.022573 -0.001929 -0.002560 0 0 0 0
 921900000 -0.051052  0.024318 -0.001892 -0.002220 0 0 0 0
 922200000 -0.050349  0.024712 -0.001943 -0.001822 0 0 0 0
 922500000 -0.049824  0.026012 -0.001676 -0.001661 0 0 0 0
 922800000 -0.048669  0.027475 -0.001627 -0.001409 0 0 0 0
 923100000 -0.049662  0.027681 -0.001527 -0.001271 0 0 0 0
 923400000 -0.049320  0.028998 -0.001413 -0.001166 0 0 0 0
 923700000 -0.049291  0.029534 -0.001402 -0.000941 0 0 0 0
 924000000 -0.049045  0.030860 -0.001325 -0.000857 0 0 0 0
 924300000 -0.049434  0.030924 -0.001211 -0.000822 0 0 0 0
 924600000 -0.049072  0.032118 -0.001119 -0.000674 0 0 0 0
 924900000 -0.047893  0.033254 -0.001079 -0.000622 0 0 0 0
 925200000 -0.047888  0.033132 -0.001040 -0.000547 0 0 0 0
 925500000 -0.047189  0.035073 -0.001062 -0.000490 0 0 0 0
 925800000 -0.046539  0.035825 -0.000987 -0.000364 0 0 0 0
 926100000 -0.045732  0.036514 -0.000884 -0.000301 0 0 0 0
 926400000 -0.045201  0.037119 -0.000846 -0.000323 0 0 0 0
 926700000 -0.044344  0.037757 -0.000779 -0.000286 0 0 0 0
 927000000 -0.045495  0.038083 -0.000734 -0.000286 0 0 0 0
 927300000 -0.045030  0.039493 -0.000749 -0.000209 0 0 0 0
 927600000 -0.045315  0.039685 -0.000741 -0.000189 0 0 0 0
 927900000 -0.044803  0.041443 -0.000706 -0.000166 0 0 0 0
 928200000 -0.043568  0.041307 -0.000670 -0.000080 0 0 0 0
 928500000 -0.043829  0.042307 -0.000658 -0.000104 0 0 0 0
 928800000 -0.043025  0.043378 -0.000603 -0.000108 0 0 0 0
 929100000 -0.042292  0.043628 -0.000633 -0.000101 0 0 0 0
 929400000 -0.039724  0.044679 -0.000561 -0.000068 0 0 0 0
 929700000 -0.039559  0.045445 -0.000550 -0.000047 0 0 0 0
 930000000 -0.040240  0.046214 -0.000445 -0.000087 0 0 0 0
 930300000 -0.039804  0.047034 -0.000494  0.000002 0 0 0 0
 930600000 -0.038960  0.047498 -0.000462  0.000051 0 0 0 0
 930900000 -0.039230  0.048757 -0.000446 -0.000006 0 0 0 0
 931200000 -0.038047  0.048626 -0.000410 -0.000020 0 0 0 0
 931500000 -0.038648  0.049730 -0.000519  0.000032 0 0 0 0
 931800000 -0.036274  0.050179 -0.000379 -0.000003 0 0 0 0
 932100000 -0.036110  0.050755 -0.000282  0.000002 0 0 0 0
 932400000 -0.034946  0.052060 -0.000334 -0.000030 0 0 0 0
 932700000 -0.033998  0.052017 -0.000283  0.000033 0 0 0 0
 933000000 -0.033704  0.053293 -0.000329  0.000000 0 0 0 0
 933300000 -0.032282  0.053545 -0.000277  0.000041 0 0 0 0
 933600000 -0.030809  0.053913 -0.000359  0.000038 0 0 0 0
 933900000 -0.031268  0.054368 -0.000253  0.000066 0 0 0 0
 934200000 -0.031292  0.054197 -0.000314  0.000030 0 0 0 0
 934500000 -0.030202  0.055054 -0.000276  0.000068 0 0 0 0
 934800000 -0.028700  0.055306 -0.000278  0.000020 0 0 0 0
 935100000 -0.028595  0.056539 -0.000242  0.000050 0 0 0 0
 935400000 -0.027312  0.056756 -0.000238  0.000129 0 0 0 0
 935700000 -0.026565  0.057093 -0.000277  0.000107 0 0 0 0
 936000000 -0.027847  0.057526 -0.000246  0.000150 0 0 0 0
 936300000 -0.025299  0.058333 -0.000227  0.000121 0 0 0 0
 936600000 -0.024415  0.058710 -0.000161  0.000153 0 0 0 0
 936900000 -0.023979  0.059042 -0.000203  0.000071 0 0 0 0
 937200000 -0.022755  0.059287 -0.000175  0.000054 0 0 0 0
 937500000 -0.022471  0.059080 -0.000202  0.000065 0 0 0 0
 937800000 -0.020878  0.059641 -0.000149  0.000079 0 0 0 0
 938100000 -0.020744  0.060025 -0.000189  0.000022 0 0 0 0
 938400000 -0.020768  0.060445 -0.000181  0.000115 0 0 0 0
 938700000 -0.020028  0.060654 -0.000149  0.000078 0 0 0 0
 939000000 -0.019264  0.061227 -0.000184  0.000108 0 0 0 0
 939300000 -0.018674  0.061510 -0.000126  0.000093 0 0 0 0
 939600000 -0.017849  0.062446 -0.000207  0.000116 0 0 0 0
 939900000 -0.016771  0.062593 -0.000120  0.000050 0 0 0 0
 940200000 -0.014627  0.061829 -0.000124  0.000173 0 0 0 0
 940500000 -0.012156  0.062106 -0.000097  0.000192 0 0 0 0
 940800000 -0.011969  0.061994 -0.000113  0.000114 0 0 0 0
 941100000 -0.010246  0.062165 -0.000102  0.000167 0 0 0 0
 941400000 -0.011470  0.062647 -0.000127  0.000145 0 0 0 0
 941700000 -0.010722  0.062697 -0.000081  0.000125 0 0 0 0
 942000000 -0.010090  0.063174 -0.000089  0.000099 0 0 0 0
 942300000 -0.009182  0.062332 -0.000127  0.000170 0 0 0 0
 942600000 -0.008112  0.063673 -0.000154  0.000107 0 0 0 0
 942900000 -0.007274  0.063729 -0.000161  0.000086 0 0 0 0
 943200000 -0.007161  0.063941 -0.000112  0.000123 0 0 0 0
 943500000 -0.005137  0.063027 -0.000134  0.000121 0 0 0 0
 943800000 -0.004240  0.062947 -0.000155  0.000095 0 0 0 0
 944100000 -0.003283  0.062773 -0.000099  0.000129 0 0 0 0
 944400000 -0.000752  0.062192 -0.000025  0.000110 0 0 0 0
 944700000  0.000144  0.062142 -0.000097  0.000106 0 0 0 0
 945000000 -0.000794  0.063076 -0.000068  0.000212 0 0 0 0
 945300000  0.000410  0.062919 -0.000115  0.000148 0 0 0 0
 945600000  0.000758  0.062338 -0.000090  0.000054 0 0 0 0
 945900000  0.001777  0.063059 -0.000115  0.000043 0 0 0 0
 946200000  0.002805  0.063363 -0.000102  0.000119 0 0 0 0
 946500000  0.004224  0.063133 -0.000118  0.000071 0 0 0 0
 946800000  0.003707  0.062775 -0.000111  0.000144 0 0 0 0
 947100000  0.005978  0.061870 -0.000075  0.000121 0 0 0 0
 947400000  0.006319  0.061499 -0.000093  0.000119 0 0 0 0
 947700000  0.009165  0.060842 -0.000128  0.000133 0 0 0 0
 948000000  0.008719  0.061346 -0.000133  0.000062 0 0 0 0
 948300000  0.010964  0.059648 -0.000100  0.000072 0 0 0 0
 948600000  0.010034  0.060763 -0.000108  0.000047 0 0 0 0
 948900000  0.010950  0.060465 -0.000093 -0.000027 0 0 0 0
 949200000  0.010961  0.060644 -0.000141  0.000031 0 0 0 0
 949500000  0.011793  0.059791 -0.000042  0.000062 0 0 0 0
 949800000  0.012717  0.059498 -0.000042  0.000059 0 0 0 0
 950100000  0.014352  0.058568 -0.000098  0.000073 0 0 0 0
 950400000  0.014733  0.059467 -0.000079  0.000025 0 0 0 0
 950700000  0.015259  0.058524 -0.000038  0.000046 0 0 0 0
 951000000  0.016865  0.057522 -0.000183  0.000052 0 0 0 0
 951300000  0.017474  0.057284 -0.000021  0.000103 0 0 0 0
 951600000  0.020472  0.055502 -0.000028 -0.000017 0 0 0 0
 951900000  0.019641  0.055646 -0.000063  0.000081 0 0 0 0
 952200000  0.019905  0.055096 -0.000052  0.000006 0 0 0 0
 952500000  0.020444  0.054859 -0.000068  0.000069 0 0 0 0
 952800000  0.020801  0.054543 -0.000075  0.000040 0 0 0 0
 953100000  0.021875  0.054048 -0.000086  0.000112 0 0 0 0
 953400000  0.022003  0.053582 -0.000040  0.000062 0 0 0 0
 953700000  0.023280  0.053498 -0.000045  0.000118 0 0 0 0
 954000000  0.024483  0.052222 -0.000074  0.000108 0 0 0 0
 954300000  0.023859  0.052569 -0.000010  0.000052 0 0 0 0
 954600000  0.025145  0.051783 -0.000044  0.000105 0 0 0 0
 954900000  0.026586  0.050388 -0.000032  0.000084 0 0 0 0
 955200000  0.027945  0.048987 -0.000034  0.000091 0 0 0 0
 955500000  0.029037  0.048557 -0.000131  0.000052 0 0 0 0
 955800000  0.029797  0.047402 -0.000055  0.000012 0 0 0 0
 956100000  0.028743  0.048105  0.000048  0.000028 0 0 0 0
 956400000  0.029954  0.047091 -0.000104  0.000051 0 0 0 0
 956700000  0.028975  0.047200 -0.000013  0.000012 0 0 0 0
 957000000  0.030017  0.045628 -0.000097  0.000049 0 0 0 0
 957300000  0.030699  0.044674  0.000007  0.000090 0 0 0 0
 957600000  0.031139  0.045266 -0.000043  0.000103 0 0 0 0
 957900000  0.031533  0.043963 -0.000071  0.000140 0 0 0 0
 958200000  0.032302  0.043224 -0.000067  0.000099 0 0 0 0
 958500000  0.033344  0.042767 -0.000054  0.000078 0 0 0 0
 958800000  0.035041  0.040390  0.000004  0.000118 0 0 0 0
 959100000  0.034482  0.040079 -0.000051  0.000144 0 0 0 0
 959400000  0.035169  0.039569  0.000026  0.000076 0 0 0 0
 959700000  0.035460  0.038273 -0.000042  0.000150 0 0 0 0
 960000000  0.035615  0.038310 -0.000074  0.000147 0 0 0 0
