!File created by NanoVNA-F V2
# Hz S RI R 50
 900000000 -0.016628 -0.024217 -0.000100  0.000028 0 0 0 0
 900300000 -0.017738 -0.024435 -0.000095  0.000060 0 0 0 0
 900600000 -0.019298 -0.023881 -0.000147 -0.000028 0 0 0 0
 900900000 -0.020428 -0.022612 -0.000102 -0.000004 0 0 0 0
 901200000 -0.020933 -0.023916 -0.000114  0.000001 0 0 0 0
 901500000 -0.021998 -0.022838 -0.000120  0.000021 0 0 0 0
 901800000 -0.022061 -0.022101 -0.000145  0.000006 0 0 0 0
 902100000 -0.022543 -0.021797 -0.000127  0.000006 0 0 0 0
 902400000 -0.024348 -0.022301 -0.000117 -0.000072 0 0 0 0
 902700000 -0.024578 -0.022512 -0.000118 -0.000041 0 0 0 0
 903000000 -0.026286 -0.021304 -0.000201 -0.000017 0 0 0 0
 903300000 -0.026319 -0.020703 -0.000206  0.000053 0 0 0 0
 903600000 -0.027202 -0.020416 -0.000162  0.000016 0 0 0 0
 903900000 -0.028205 -0.019515 -0.000145  0.000006 0 0 0 0
 904200000 -0.029217 -0.018983 -0.000150  0.000065 0 0 0 0
 904500000 -0.030379 -0.018785 -0.000147  0.000017 0 0 0 0
 904800000 -0.030928 -0.018969 -0.000119  0.000051 0 0 0 0
 905100000 -0.031127 -0.018420 -0.000104 -0.000011 0 0 0 0
 905400000 -0.032157 -0.017386 -0.000118 -0.000027 0 0 0 0
 905700000 -0.033211 -0.016471 -0.000093 -0.000004 0 0 0 0
 906000000 -0.034047 -0.016177 -0.000118 -0.000092 0 0 0 0
 906300000 -0.034285 -0.015578 -0.000088  0.000027 0 0 0 0
 906600000 -0.035273 -0.015058 -0.000121  0.000012 0 0 0 0
 906900000 -0.035118 -0.015217 -0.000106 -0.000048 0 0 0 0
 907200000 -0.036418 -0.014354 -0.000098  0.000021 0 0 0 0
 907500000 -0.036318 -0.013155 -0.000144  0.000025 0 0 0 0
 907800000 -0.038032 -0.012230 -0.000104  0.000023 0 0 0 0
 908100000 -0.038311 -0.012146 -0.000167 -0.000010 0 0 0 0
 908400000 -0.039934 -0.010760 -0.000162 -0.000027 0 0 0 0
 908700000 -0.040432 -0.010092 -0.000090 -0.000031 0 0 0 0
 909000000 -0.040587 -0.009580 -0.000120 -0.000062 0 0 0 0
 909300000 -0.041929 -0.008808 -0.000141  0.000022 0 0 0 0
 909600000 -0.042887 -0.008258 -0.000147 -0.000074 0 0 0 0
 909900000 -0.041656 -0.008192 -0.000183 -0.000023 0 0 0 0
 910200000 -0.041933 -0.007070 -0.000126 -0.000080 0 0 0 0
 910500000 -0.043117 -0.006471 -0.000112 -0.000061 0 0 0 0
 910800000 -0.043695 -0.004971 -0.000138  0.000042 0 0 0 0
 911100000 -0.044302 -0.004722 -0.000113 -0.000007 0 0 0 0
 911400000 -0.044032 -0.003721 -0.000082 -0.000041 0 0 0 0
 911700000 -0.045186 -0.002942 -0.000130 -0.000007 0 0 0 0
 912000000 -0.045237 -0.001559 -0.000130  0.000014 0 0 0 0
 912300000 -0.045740 -0.001025 -0.000142 -0.000085 0 0 0 0
 912600000 -0.047228 -0.000342 -0.000186  0.000068 0 0 0 0
 912900000 -0.046696  0.000658 -0.000187 -0.000042 0 0 0 0
 913200000 -0.047155  0.001066 -0.000167 -0.000003 0 0 0 0
 913500000 -0.047165  0.002346 -0.000160  0.000011 0 0 0 0
 913800000 -0.047860  0.002095 -0.000054  0.000058 0 0 0 0
 914100000 -0.047588  0.003478 -0.000073 -0.000018 0 0 0 0
 914400000 -0.048731  0.004549 -0.000118  0.000055 0 0 0 0
 914700000 -0.048046  0.005546 -0.000082 -0.000021 0 0 0 0
 915000000 -0.048742  0.006797 -0.000179 -0.000028 0 0 0 0
 915300000 -0.049430  0.006822 -0.000052  0.000011 0 0 0 0
 915600000 -0.049991  0.008493 -0.000118  0.000056 0 0 0 0
 915900000 -0.049800  0.009338 -0.000144 -0.000033 0 0 0 0
 916200000 -0.051194  0.011029 -0.000115  0.000094 0 0 0 0
 916500000 -0.051284  0.011201 -0.000033  0.000062 0 0 0 0
 916800000 -0.050847  0.011329 -0.000060 -0.000018 0 0 0 0
 917100000 -0.050593  0.012573 -0.000079  0.000013 0 0 0 0
 917400000 -0.051176  0.014248 -0.000076  0.000011 0 0 0 0
 917700000 -0.050985  0.013822 -0.000059  0.000039 0 0 0 0
 918000000 -0.052264  0.015293 -0.000062  0.000060 0 0 0 0
 918300000 -0.050169  0.017643 -0.000150 -0.000022 0 0 0 0
 918600000 -0.049721  0.017750 -0.000109  0.000061 0 0 0 0
 918900000 -0.050379  0.018712 -0.000087 -0.000027 0 0 0 0
 919200000 -0.050250  0.019293 -0.000105  0.000068 0 0 0 0
 919500000 -0.050795  0.020737 -0.000049  0.000033 0 0 0 0
 919800000 -0.051797  0.021450 -0.000073  0.000003 0 0 0 0
 920100000 -0.050815  0.022455 -0.000086  0.000059 0 0 0 0
 920400000 -0.051461  0.023574 -0.000052  0.000072 0 0 0 0
 920700000 -0.051030  0.024601 -0.000017  0.000036 0 0 0 0
 921000000 -0.050924  0.025617 -0.000094 -0.000001 0 0 0 0
 921300000 -0.051164  0.025869 -0.000049  0.000037 0 0 0 0
 921600000 -0.050437  0.027142 -0.000043  0.000058 0 0 0 0
 921900000 -0.050502  0.028224 -0.000044  0.000091 0 0 0 0
 922200000 -0.049199  0.029779 -0.000033  0.000084 0 0 0 0
 922500000 -0.050236  0.029828 -0.000051  0.000046 0 0 0 0
 922800000 -0.049519  0.030617 -0.000022  0.000105 0 0 0 0
 923100000 -0.049106  0.031133 -0.000039  0.000016 0 0 0 0
 923400000 -0.049424  0.032147 -0.000065  0.000109 0 0 0 0
 923700000 -0.049012  0.033145 -0.000017  0.000054 0 0 0 0
 924000000 -0.048906  0.033359 -0.000008  0.000078 0 0 0 0
 924300000 -0.048543  0.034419  0.000003  0.000064 0 0 0 0
 924600000 -0.048734  0.035144 -0.000045  0.000128 0 0 0 0
 924900000 -0.048155  0.036218 -0.000041  0.000104 0 0 0 0
 925200000 -0.047756  0.036990  0.000023  0.000036 0 0 0 0
 925500000 -0.046985  0.038456  0.000012  0.000100 0 0 0 0
 925800000 -0.045395  0.039735  0.000019  0.000064 0 0 0 0
 926100000 -0.044089  0.040188 -0.000072  0.000109 0 0 0 0
 926400000 -0.043837  0.040884 -0.000021  0.000116 0 0 0 0
 926700000 -0.044808  0.041460 -0.000030  0.000204 0 0 0 0
 927000000 -0.045143  0.042250  0.000033  0.000134 0 0 0 0
 927300000 -0.045055  0.043237 -0.000008  0.000161 0 0 0 0
 927600000 -0.044122  0.043949  0.000045  0.000179 0 0 0 0
 927900000 -0.043074  0.044747  0.000057  0.000059 0 0 0 0
 928200000 -0.044256  0.045149  0.000022  0.000080 0 0 0 0
 928500000 -0.042236  0.046196  0.000015  0.000100 0 0 0 0
 928800000 -0.042369  0.046605  0.000004  0.000099 0 0 0 0
 929100000 -0.041071  0.047287  0.000001  0.000128 0 0 0 0
 929400000 -0.040097  0.048634  0.000019  0.000113 0 0 0 0
 929700000 -0.037963  0.048990  0.000010  0.000120 0 0 0 0
 930000000 -0.039079  0.050492  0.000044  0.000198 0 0 0 0
 930300000 -0.038073  0.050202  0.000026  0.000186 0 0 0 0
 930600000 -0.037273  0.051258  0.000091  0.000120 0 0 0 0
 930900000 -0.037618  0.051837  0.000117  0.000245 0 0 0 0
 931200000 -0.037164  0.052508  0.000066  0.000213 0 0 0 0
 931500000 -0.035726  0.052715  0.000099  0.000196 0 0 0 0
 931800000 -0.036253  0.053256  0.000065  0.000150 0 0 0 0
 932100000 -0.035226  0.053660  0.000074  0.000146 0 0 0 0
 932400000 -0.033944  0.054381  0.000056  0.000215 0 0 0 0
 932700000 -0.033091  0.055715  0.000059  0.000125 0 0 0 0
 933000000 -0.031810  0.055917  0.000096  0.000162 0 0 0 0
 933300000 -0.029104  0.056824  0.000075  0.000158 0 0 0 0
 933600000 -0.028893  0.057219  0.000113  0.000195 0 0 0 0
 933900000 -0.029756  0.057539  0.000135  0.000181 0 0 0 0
 934200000 -0.029005  0.057673  0.000176  0.000166 0 0 0 0
 934500000 -0.029380  0.058331  0.000190  0.000231 0 0 0 0
 934800000 -0.027679  0.058390  0.000202  0.000237 0 0 0 0
 935100000 -0.027036  0.059533  0.000198  0.000160 0 0 0 0
 935400000 -0.025868  0.059206  0.000211  0.000182 0 0 0 0
 935700000 -0.026111  0.059702  0.000207  0.000280 0 0 0 0
 936000000 -0.024501  0.060461  0.000231  0.000232 0 0 0 0
 936300000 -0.024732  0.061314  0.000186  0.000227 0 0 0 0
 936600000 -0.021878  0.060988  0.000222  0.000256 0 0 0 0
 936900000 -0.020253  0.061374  0.000232  0.000218 0 0 0 0
 937200000 -0.019024  0.061169  0.000260  0.000237 0 0 0 0
 937500000 -0.020600  0.062148  0.000257  0.000281 0 0 0 0
 937800000 -0.019965  0.062396  0.000280  0.000287 0 0 0 0
 938100000 -0.019402  0.062942  0.000296  0.000297 0 0 0 0
 938400000 -0.018776  0.062963  0.000276  0.000350 0 0 0 0
 938700000 -0.018576  0.063461  0.000394  0.000305 0 0 0 0
 939000000 -0.016587  0.063564  0.000329  0.000341 0 0 0 0
 939300000 -0.015694  0.064047  0.000375  0.000315 0 0 0 0
 939600000 -0.016265  0.064795  0.000381  0.000240 0 0 0 0
 939900000 -0.013167  0.064575  0.000451  0.000342 0 0 0 0
 940200000 -0.011763  0.063938  0.000494  0.000300 0 0 0 0
 940500000 -0.012405  0.064720  0.000455  0.000313 0 0 0 0
 940800000 -0.009636  0.064845  0.000475  0.000297 0 0 0 0
 941100000 -0.009715  0.064404  0.000542  0.000341 0 0 0 0
 941400000 -0.009576  0.064976  0.000594  0.000352 0 0 0 0
 941700000 -0.008905  0.065101  0.000589  0.000312 0 0 0 0
 942000000 -0.008600  0.065417  0.000551  0.000391 0 0 0 0
 942300000 -0.007690  0.065892  0.000681  0.000340 0 0 0 0
 942600000 -0.005349  0.066067  0.000736  0.000318 0 0 0 0
 942900000 -0.005119  0.066474  0.000815  0.000398 0 0 0 0
 943200000 -0.005409  0.065845  0.000886  0.000370 0 0 0 0
 943500000 -0.003185  0.065377  0.000863  0.000260 0 0 0 0
 943800000 -0.002209  0.065656  0.000904  0.000401 0 0 0 0
 944100000  0.001132  0.064860  0.001015  0.000318 0 0 0 0
 944400000  0.000063  0.064641  0.000972  0.000289 0 0 0 0
 944700000  0.000481  0.065236  0.001091  0.000431 0 0 0 0
 945000000  0.001615  0.064985  0.001155  0.000326 0 0 0 0
 945300000  0.001914  0.065334  0.001263  0.000284 0 0 0 0
 945600000  0.002844  0.064752  0.001411  0.000293 0 0 0 0
 945900000  0.003649  0.065243  0.001447  0.000173 0 0 0 0
 946200000  0.004981  0.065126  0.001674  0.000095 0 0 0 0
 946500000  0.005391  0.065474  0.001819  0.000070 0 0 0 0
 946800000  0.006866  0.065159  0.001985  0.000140 0 0 0 0
 947100000  0.007064  0.064367  0.002089 -0.000094 0 0 0 0
 947400000  0.009116  0.063474  0.002289 -0.000146 0 0 0 0
 947700000  0.009903  0.063768  0.002469 -0.000260 0 0 0 0
 948000000  0.012821  0.062796  0.002666 -0.000472 0 0 0 0
 948300000  0.011955  0.062798  0.002941 -0.000601 0 0 0 0
 948600000  0.012042  0.062869  0.003195 -0.000859 0 0 0 0
 948900000  0.013499  0.062835  0.003537 -0.001150 0 0 0 0
 949200000  0.014048  0.062421  0.003759 -0.001408 0 0 0 0
 949500000  0.014285  0.061369  0.003989 -0.001939 0 0 0 0
 949800000  0.015748  0.060971  0.003939 -0.002603 0 0 0 0
 950100000  0.016569  0.060919  0.003898 -0.003014 0 0 0 0
 950400000  0.016459  0.060749  0.003552 -0.003314 0 0 0 0
 950700000  0.016937  0.060372  0.002498 -0.002989 0 0 0 0
 951000000  0.019881  0.059040  0.001315 -0.000539 0 0 0 0
 951300000  0.021349  0.057707  0.002445  0.006585 0 0 0 0
 951600000  0.022489  0.057007  0.017033  0.019944 0 0 0 0
 951900000  0.021506  0.058054  0.062055  0.006405 0 0 0 0
 952200000  0.022723  0.057096  0.065434 -0.062423 0 0 0 0
 952500000  0.023468  0.056379  0.009931 -0.098764 0 0 0 0
 952800000  0.023060  0.055016 -0.046332 -0.090897 0 0 0 0
 953100000  0.024667  0.055113 -0.084532 -0.059505 0 0 0 0
 953400000  0.024882  0.054542 -0.102374 -0.012407 0 0 0 0
 953700000  0.025057  0.055112 -0.095726  0.036146 0 0 0 0
 954000000  0.026305  0.053882 -0.065038  0.075659 0 0 0 0
 954300000  0.025641  0.054243 -0.011838  0.096652 0 0 0 0
 954600000  0.027886  0.052203  0.055210  0.071906 0 0 0 0
 954900000  0.030170  0.050351  0.053850 -0.005412 0 0 0 0
 955200000  0.027873  0.051051  0.013071 -0.012983 0 0 0 0
 955500000  0.029705  0.050514  0.002353 -0.003683 0 0 0 0
 955800000  0.030528  0.049705  0.000805  0.001128 0 0 0 0
 956100000  0.030952  0.049066  0.001123  0.002989 0 0 0 0
 956400000  0.030952  0.049069  0.001551  0.003467 0 0 0 0
 956700000  0.031811  0.047766  0.001902  0.003410 0 0 0 0
 957000000  0.032501  0.046385  0.002157  0.003093 0 0 0 0
 957300000  0.033540  0.046301  0.002215  0.002737 0 0 0 0
 957600000  0.034142  0.044956  0.002175  0.002399 0 0 0 0
 957900000  0.034608  0.044259  0.002062  0.002160 0 0 0 0
 958200000  0.035321  0.044167  0.002113  0.002100 0 0 0 0
 958500000  0.036054  0.042980  0.002192  0.001690 0 0 0 0
 958800000  0.037614  0.040384  0.002142  0.001360 0 0 0 0
 959100000  0.038156  0.039792  0.001979  0.001073 0 0 0 0
 959400000  0.036735  0.040523  0.001851  0.000927 0 0 0 0
 959700000  0.037832  0.039142  0.001724  0.000811 0 0 0 0
 960000000  0.037702  0.038407  0.001531  0.000691 0 0 0 0
