!File created by NanoVNA-F V2
# Hz S RI R 50
 900000000 -0.014167 -0.025767 -0.000090 -0.000864 0 0 0 0
 900300000 -0.015120 -0.024721 -0.000163 -0.000971 0 0 0 0
 900600000 -0.016452 -0.024769 -0.000084 -0.000973 0 0 0 0
 900900000 -0.017266 -0.024901 -0.000107 -0.001127 0 0 0 0
 901200000 -0.017926 -0.024401 -0.000263 -0.001188 0 0 0 0
 901500000 -0.019159 -0.024079 -0.000259 -0.001223 0 0 0 0
 901800000 -0.019548 -0.023714 -0.000245 -0.001384 0 0 0 0
 902100000 -0.020098 -0.023824 -0.000419 -0.001337 0 0 0 0
 902400000 -0.021247 -0.023580 -0.000456 -0.001534 0 0 0 0
 902700000 -0.021528 -0.023430 -0.000582 -0.001677 0 0 0 0
 903000000 -0.022800 -0.022135 -0.000733 -0.001729 0 0 0 0
 903300000 -0.024287 -0.022278 -0.000821 -0.001811 0 0 0 0
 903600000 -0.024535 -0.022656 -0.000935 -0.001871 0 0 0 0
 903900000 -0.024729 -0.022108 -0.001134 -0.002125 0 0 0 0
 904200000 -0.025531 -0.022124 -0.001284 -0.002193 0 0 0 0
 904500000 -0.026937 -0.021697 -0.001559 -0.002335 0 0 0 0
 904800000 -0.027592 -0.020544 -0.001814 -0.002466 0 0 0 0
 905100000 -0.028235 -0.020275 -0.002136 -0.002590 0 0 0 0
 905400000 -0.028416 -0.019444 -0.002570 -0.002577 0 0 0 0
 905700000 -0.029404 -0.019825 -0.002942 -0.002443 0 0 0 0
 906000000 -0.031625 -0.019049 -0.003132 -0.002213 0 0 0 0
 906300000 -0.031553 -0.018682 -0.003050 -0.001937 0 0 0 0
 906600000 -0.032218 -0.017789 -0.002299 -0.001254 0 0 0 0
 906900000 -0.033446 -0.016944  0.000461 -0.001015 0 0 0 0
 907200000 -0.033742 -0.017473  0.007405 -0.004210 0 0 0 0
 907500000 -0.034009 -0.016259  0.016855 -0.023078 0 0 0 0
 907800000 -0.036010 -0.015890 -0.011385 -0.067451 0 0 0 0
 908100000 -0.035711 -0.014920 -0.084588 -0.043137 0 0 0 0
 908400000 -0.036664 -0.014274 -0.099131  0.022302 0 0 0 0
 908700000 -0.038173 -0.013447 -0.072918  0.073314 0 0 0 0
 909000000 -0.037889 -0.013122 -0.028803  0.101013 0 0 0 0
 909300000 -0.039215 -0.011670  0.022698  0.103586 0 0 0 0
 909600000 -0.038688 -0.012146  0.068829  0.081588 0 0 0 0
 909900000 -0.039611 -0.011986  0.101629  0.032575 0 0 0 0
 910200000 -0.040146 -0.010122  0.101892 -0.034960 0 0 0 0
 910500000 -0.040386 -0.009375  0.025622 -0.086792 0 0 0 0
 910800000 -0.040635 -0.008970 -0.025521 -0.034019 0 0 0 0
 911100000 -0.041828 -0.008092 -0.012415 -0.005176 0 0 0 0
 911400000 -0.041243 -0.007597 -0.002003 -0.001077 0 0 0 0
 911700000 -0.043435 -0.007301  0.001863 -0.001839 0 0 0 0
 912000000 -0.043764 -0.006611  0.003036 -0.002804 0 0 0 0
 912300000 -0.044922 -0.005075  0.002997 -0.003447 0 0 0 0
 912600000 -0.045158 -0.004220  0.002706 -0.003781 0 0 0 0
 912900000 -0.045542 -0.004182  0.002045 -0.003755 0 0 0 0
 913200000 -0.044386 -0.002714  0.001830 -0.003683 0 0 0 0
 913500000 -0.045110 -0.002439  0.001414 -0.003585 0 0 0 0
 913800000 -0.046469 -0.001829  0.000928 -0.003551 0 0 0 0
 914100000 -0.046136 -0.000400  0.000637 -0.003389 0 0 0 0
 914400000 -0.045873  0.000097  0.000151 -0.002990 0 0 0 0
 914700000 -0.047435  0.001206 -0.000001 -0.002701 0 0 0 0
 915000000 -0.047450  0.001857 -0.000151 -0.002487 0 0 0 0
 915300000 -0.047885  0.002745 -0.000300 -0.002254 0 0 0 0
 915600000 -0.048206  0.003833 -0.000401 -0.002073 0 0 0 0
 915900000 -0.048721  0.004061 -0.000418 -0.001865 0 0 0 0
 916200000 -0.049381  0.004585 -0.000491 -0.001691 0 0 0 0
 916500000 -0.049579  0.007017 -0.000595 -0.001600 0 0 0 0
 916800000 -0.049963  0.006318 -0.000521 -0.001373 0 0 0 0
 917100000 -0.049439  0.008537 -0.000513 -0.001334 0 0 0 0
 917400000 -0.050658  0.008419 -0.000535 -0.001263 0 0 0 0
 917700000 -0.050268  0.009540 -0.000478 -0.001121 0 0 0 0
 918000000 -0.050150  0.011251 -0.000476 -0.001001 0 0 0 0
 918300000 -0.050800  0.011683 -0.000520 -0.000936 0 0 0 0
 918600000 -0.050195  0.012748 -0.000510 -0.000833 0 0 0 0
 918900000 -0.050552  0.013673 -0.000497 -0.000822 0 0 0 0
 919200000 -0.050890  0.014539 -0.000443 -0.000695 0 0 0 0
 919500000 -0.051315  0.016021 -0.000512 -0.000748 0 0 0 0
 919800000 -0.051000  0.016051 -0.000525 -0.000578 0 0 0 0
 920100000 -0.051492  0.017932 -0.000516 -0.000555 0 0 0 0
 920400000 -0.051051  0.019147 -0.000454 -0.000527 0 0 0 0
 920700000 -0.051354  0.019595 -0.000457 -0.000478 0 0 0 0
 921000000 -0.050892  0.020340 -0.000494 -0.000489 0 0 0 0
 921300000 -0.051630  0.022078 -0.000467 -0.000426 0 0 0 0
 921600000 -0.050820  0.022176 -0.000500 -0.000338 0 0 0 0
 921900000 -0.050822  0.023034 -0.000437 -0.000365 0 0 0 0
 922200000 -0.049898  0.024655 -0.000471 -0.000381 0 0 0 0
 922500000 -0.050491  0.024943 -0.000433 -0.000332 0 0 0 0
 922800000 -0.050994  0.026232 -0.000337 -0.000299 0 0 0 0
 923100000 -0.049737  0.026578 -0.000317 -0.000384 0 0 0 0
 923400000 -0.049978  0.027701 -0.000378 -0.000334 0 0 0 0
 923700000 -0.049658  0.028492 -0.000310 -0.000333 0 0 0 0
 924000000 -0.049016  0.029007 -0.000342 -0.000249 0 0 0 0
 924300000 -0.049582  0.030538 -0.000330 -0.000214 0 0 0 0
 924600000 -0.049038  0.031596 -0.000312 -0.000062 0 0 0 0
 924900000 -0.049058  0.032022 -0.000348 -0.000164 0 0 0 0
 925200000 -0.048079  0.032865 -0.000259 -0.000166 0 0 0 0
 925500000 -0.048534  0.034299 -0.000276 -0.000128 0 0 0 0
 925800000 -0.048118  0.034422 -0.000252 -0.000162 0 0 0 0
 926100000 -0.047491  0.035304 -0.000283 -0.000185 0 0 0 0
 926400000 -0.046979  0.035817 -0.000319 -0.000101 0 0 0 0
 926700000 -0.047411  0.037252 -0.000300 -0.000171 0 0 0 0
 927000000 -0.046544  0.037523 -0.000221 -0.000116 0 0 0 0
 927300000 -0.046299  0.038704 -0.000234 -0.000070 0 0 0 0
 927600000 -0.046136  0.039294 -0.000255 -0.000131 0 0 0 0
 927900000 -0.046018  0.039641 -0.000317 -0.000094 0 0 0 0
 928200000 -0.044954  0.040408 -0.000229  0.000014 0 0 0 0
 928500000 -0.044050  0.042015 -0.000206 -0.000033 0 0 0 0
 928800000 -0.043251  0.042875 -0.000236 -0.000073 0 0 0 0
 929100000 -0.043010  0.043799 -0.000212  0.000016 0 0 0 0
 929400000 -0.040721  0.044329 -0.000188 -0.000045 0 0 0 0
 929700000 -0.041429  0.045679 -0.000261 -0.000027 0 0 0 0
 930000000 -0.041228  0.046135 -0.000242 -0.000037 0 0 0 0
 930300000 -0.040958  0.046588 -0.000208 -0.000060 0 0 0 0
 930600000 -0.040037  0.046971 -0.000177 -0.000016 0 0 0 0
 930900000 -0.039112  0.047958 -0.000191 -0.000009 0 0 0 0
 931200000 -0.038205  0.048490 -0.000209 -0.000000 0 0 0 0
 931500000 -0.039256  0.049251 -0.000161  0.000052 0 0 0 0
 931800000 -0.037456  0.050268 -0.000203  0.000003 0 0 0 0
 932100000 -0.037432  0.050840 -0.000153 -0.000005 0 0 0 0
 932400000 -0.036383  0.051208 -0.000169 -0.000002 0 0 0 0
 932700000 -0.035156  0.052080 -0.000168 -0.000047 0 0 0 0
 933000000 -0.035713  0.052649 -0.000165 -0.000038 0 0 0 0
 933300000 -0.034071  0.053291 -0.000200 -0.000066 0 0 0 0
 933600000 -0.033550  0.053714 -0.000173  0.000012 0 0 0 0
 933900000 -0.033239  0.054101 -0.000145  0.000036 0 0 0 0
 934200000 -0.032470  0.054905 -0.000166  0.000054 0 0 0 0
 934500000 -0.032233  0.054730 -0.000111  0.000048 0 0 0 0
 934800000 -0.030701  0.055534 -0.000187  0.000039 0 0 0 0
 935100000 -0.030997  0.055621 -0.000145  0.000044 0 0 0 0
 935400000 -0.030160  0.056226 -0.000091  0.000035 0 0 0 0
 935700000 -0.028162  0.057089 -0.000126  0.000057 0 0 0 0
 936000000 -0.027853  0.058215 -0.000089  0.000010 0 0 0 0
 936300000 -0.025265  0.057601 -0.000066 -0.000051 0 0 0 0
 936600000 -0.023767  0.058524 -0.000082 -0.000001 0 0 0 0
 936900000 -0.025328  0.058840 -0.000130  0.000057 0 0 0 0
 937200000 -0.024844  0.059264 -0.000131  0.000070 0 0 0 0
 937500000 -0.023642  0.059542 -0.000060  0.000056 0 0 0 0
 937800000 -0.023856  0.060165 -0.000102  0.000018 0 0 0 0
 938100000 -0.021982  0.060142 -0.000090  0.000022 0 0 0 0
 938400000 -0.020748  0.060445 -0.000134  0.000030 0 0 0 0
 938700000 -0.020991  0.060769 -0.000113  0.000095 0 0 0 0
 939000000 -0.020729  0.061473  0.000015  0.000076 0 0 0 0
 939300000 -0.018843  0.061680 -0.000052  0.000070 0 0 0 0
 939600000 -0.016569  0.062015 -0.000013  0.000049 0 0 0 0
 939900000 -0.014932  0.062009 -0.000112  0.000044 0 0 0 0
 940200000 -0.014280  0.062120 -0.000044  0.000047 0 0 0 0
 940500000 -0.015110  0.062487 -0.000096  0.000037 0 0 0 0
 940800000 -0.014503  0.062768 -0.000025  0.000036 0 0 0 0
 941100000 -0.013256  0.062982 -0.000014  0.000062 0 0 0 0
 941400000 -0.013436  0.063134 -0.000030  0.000003 0 0 0 0
 941700000 -0.012097  0.062874 -0.000142 -0.000003 0 0 0 0
 942000000 -0.010751  0.063606 -0.000101  0.000013 0 0 0 0
 942300000 -0.010376  0.064298 -0.000057  0.000142 0 0 0 0
 942600000 -0.010470  0.064597 -0.000021  0.000068 0 0 0 0
 942900000 -0.008310  0.063612 -0.000104  0.000064 0 0 0 0
 943200000 -0.007054  0.063750 -0.000085  0.000061 0 0 0 0
 943500000 -0.006430  0.063983 -0.000045  0.000055 0 0 0 0
 943800000 -0.004725  0.064554 -0.000067 -0.000005 0 0 0 0
 944100000 -0.004180  0.063661 -0.000077  0.000089 0 0 0 0
 944400000 -0.003344  0.064383 -0.000075  0.000072 0 0 0 0
 944700000 -0.002794  0.063786 -0.000044  0.000060 0 0 0 0
 945000000 -0.002565  0.064245 -0.000055  0.000090 0 0 0 0
 945300000 -0.001739  0.063202 -0.000071  0.000047 0 0 0 0
 945600000  0.000494  0.063561 -0.000054  0.000018 0 0 0 0
 945900000  0.000199  0.064122 -0.000072  0.000064 0 0 0 0
 946200000  0.002218  0.063669 -0.000042  0.000010 0 0 0 0
 946500000  0.003434  0.063356 -0.000047  0.000055 0 0 0 0
 946800000  0.003311  0.063636 -0.000116 -0.000016 0 0 0 0
 947100000  0.004528  0.063493 -0.000018  0.000013 0 0 0 0
 947400000  0.005551  0.062870 -0.000149 -0.000090 0 0 0 0
 947700000  0.008700  0.061930 -0.000105  0.000106 0 0 0 0
 948000000  0.007416  0.062757 -0.000038 -0.000012 0 0 0 0
 948300000  0.008588  0.061909 -0.000054 -0.000011 0 0 0 0
 948600000  0.008906  0.062468 -0.000095  0.000067 0 0 0 0
 948900000  0.009934  0.061952 -0.000090 -0.000007 0 0 0 0
 949200000  0.010583  0.061790 -0.000124  0.000027 0 0 0 0
 949500000  0.011616  0.061227 -0.000123 -0.000002 0 0 0 0
 949800000  0.012560  0.060970 -0.000059 -0.000034 0 0 0 0
 950100000  0.013246  0.061267 -0.000128 -0.000038 0 0 0 0
 950400000  0.014376  0.060215 -0.000098 -0.000046 0 0 0 0
 950700000  0.016646  0.058397 -0.000030 -0.000049 0 0 0 0
 951000000  0.016188  0.059182 -0.000123 -0.000019 0 0 0 0
 951300000  0.016662  0.058520 -0.000084 -0.000040 0 0 0 0
 951600000  0.017857  0.057870 -0.000117 -0.000019 0 0 0 0
 951900000  0.019114  0.057521 -0.000061 -0.000031 0 0 0 0
 952200000  0.019863  0.056250 -0.000079 -0.000008 0 0 0 0
 952500000  0.019005  0.056537 -0.000067  0.000056 0 0 0 0
 952800000  0.019935  0.056403  0.000014  0.000061 0 0 0 0
 953100000  0.021768  0.055148 -0.000094 -0.000024 0 0 0 0
 953400000  0.022885  0.054814 -0.000050  0.000061 0 0 0 0
 953700000  0.022808  0.054654 -0.000064  0.000043 0 0 0 0
 954000000  0.023946  0.054313 -0.000037  0.000022 0 0 0 0
 954300000  0.024422  0.052734 -0.000048  0.000057 0 0 0 0
 954600000  0.024580  0.052465 -0.000068  0.000056 0 0 0 0
 954900000  0.027499  0.051146  0.000003  0.000058 0 0 0 0
 955200000  0.026396  0.051158  0.000033  0.000026 0 0 0 0
 955500000  0.026959  0.051356  0.000011  0.000087 0 0 0 0
 955800000  0.027583  0.050143 -0.000017  0.000012 0 0 0 0
 956100000  0.027486  0.049134  0.000036 -0.000024 0 0 0 0
 956400000  0.029293  0.048804 -0.000008  0.000056 0 0 0 0
 956700000  0.029610  0.048002 -0.000061  0.000026 0 0 0 0
 957000000  0.031259  0.047426  0.000008  0.000004 0 0 0 0
 957300000  0.031302  0.046646 -0.000054  0.000067 0 0 0 0
 957600000  0.031544  0.046207 -0.000024  0.000018 0 0 0 0
 957900000  0.032265  0.045512  0.000026  0.000107 0 0 0 0
 958200000  0.032119  0.044508 -0.000004  0.000052 0 0 0 0
 958500000  0.034919  0.042814  0.000002  0.000177 0 0 0 0
 958800000  0.033856  0.043547 -0.000020  0.000006 0 0 0 0
 959100000  0.034511  0.041142  0.000014  0.000131 0 0 0 0
 959400000  0.034601  0.040981  0.000029  0.000063 0 0 0 0
 959700000  0.035922  0.040254  0.000012 -0.000041 0 0 0 0
 960000000  0.035954  0.039206 -0.000023  0.000025 0 0 0 0
