!File created by NanoVNA-F V2
# Hz S RI R 50
 900000000 -0.015418 -0.023089 -0.000578  0.000090 0 0 0 0
 900300000 -0.016206 -0.022969 -0.000532  0.000132 0 0 0 0
 900600000 -0.016898 -0.023481 -0.000584  0.000175 0 0 0 0
 900900000 -0.017489 -0.023563 -0.000646  0.000111 0 0 0 0
 901200000 -0.018528 -0.022566 -0.000699  0.000235 0 0 0 0
 901500000 -0.019051 -0.022388 -0.000640  0.000208 0 0 0 0
 901800000 -0.019586 -0.022234 -0.000691  0.000214 0 0 0 0
 902100000 -0.020676 -0.022699 -0.000761  0.000236 0 0 0 0
 902400000 -0.021234 -0.022775 -0.000787  0.000319 0 0 0 0
 902700000 -0.022321 -0.022649 -0.000747  0.000288 0 0 0 0
 903000000 -0.023643 -0.022039 -0.000806  0.000278 0 0 0 0
 903300000 -0.023948 -0.021174 -0.000823  0.000318 0 0 0 0
 903600000 -0.024686 -0.020994 -0.000901  0.000398 0 0 0 0
 903900000 -0.026791 -0.020168 -0.000935  0.000407 0 0 0 0
 904200000 -0.027126 -0.019844 -0.000979  0.000413 0 0 0 0
 904500000 -0.027524 -0.019284 -0.000906  0.000511 0 0 0 0
 904800000 -0.027886 -0.019120 -0.000961  0.000578 0 0 0 0
 905100000 -0.028866 -0.018435 -0.001005  0.000620 0 0 0 0
 905400000 -0.028585 -0.018212 -0.001116  0.000653 0 0 0 0
 905700000 -0.030256 -0.017379 -0.001132  0.000720 0 0 0 0
 906000000 -0.030965 -0.017204 -0.001162  0.000813 0 0 0 0
 906300000 -0.032075 -0.017173 -0.001170  0.000912 0 0 0 0
 906600000 -0.032815 -0.016209 -0.001184  0.001013 0 0 0 0
 906900000 -0.033330 -0.015579 -0.001235  0.001221 0 0 0 0
 907200000 -0.033583 -0.014884 -0.001266  0.001221 0 0 0 0
 907500000 -0.034423 -0.015288 -0.001227  0.001479 0 0 0 0
 907800000 -0.035767 -0.013709 -0.001186  0.001714 0 0 0 0
 908100000 -0.036220 -0.013393 -0.001302  0.001740 0 0 0 0
 908400000 -0.037379 -0.012434 -0.001278  0.001898 0 0 0 0
 908700000 -0.037347 -0.012207 -0.001313  0.002136 0 0 0 0
 909000000 -0.037799 -0.011880 -0.001358  0.002372 0 0 0 0
 909300000 -0.039026 -0.011397 -0.001239  0.002624 0 0 0 0
 909600000 -0.039410 -0.010415 -0.001069  0.002953 0 0 0 0
 909900000 -0.039594 -0.009182 -0.000808  0.003359 0 0 0 0
 910200000 -0.039873 -0.008199 -0.000775  0.003585 0 0 0 0
 910500000 -0.040679 -0.007991 -0.000435  0.003777 0 0 0 0
 910800000 -0.041082 -0.007158  0.000018  0.003760 0 0 0 0
 911100000 -0.041881 -0.007192  0.000063  0.003820 0 0 0 0
 911400000 -0.042650 -0.005918  0.000487  0.003360 0 0 0 0
 911700000 -0.043699 -0.005169  0.000507  0.002337 0 0 0 0
 912000000 -0.043925 -0.004050 -0.000773  0.000260 0 0 0 0
 912300000 -0.044377 -0.004128 -0.005479 -0.002665 0 0 0 0
 912600000 -0.043754 -0.002922 -0.019160 -0.004099 0 0 0 0
 912900000 -0.045094 -0.003184 -0.047049  0.017561 0 0 0 0
 913200000 -0.045511 -0.001598 -0.023301  0.086039 0 0 0 0
 913500000 -0.045440 -0.000838  0.052509  0.082961 0 0 0 0
 913800000 -0.045780  0.000171  0.089051  0.039263 0 0 0 0
 914100000 -0.046199  0.002003  0.097398 -0.005691 0 0 0 0
 914400000 -0.045791  0.002126  0.086391 -0.048274 0 0 0 0
 914700000 -0.046880  0.003189  0.054059 -0.084902 0 0 0 0
 915000000 -0.047716  0.003829  0.005291 -0.101738 0 0 0 0
 915300000 -0.048364  0.004783 -0.053907 -0.082759 0 0 0 0
 915600000 -0.048244  0.005366 -0.079789 -0.016110 0 0 0 0
 915900000 -0.048220  0.006318 -0.038692  0.026235 0 0 0 0
 916200000 -0.048010  0.007050 -0.007951  0.017740 0 0 0 0
 916500000 -0.048994  0.008002 -0.000914  0.005723 0 0 0 0
 916800000 -0.049411  0.008376 -0.001195 -0.000272 0 0 0 0
 917100000 -0.049765  0.009727 -0.002752 -0.002364 0 0 0 0
 917400000 -0.048994  0.010392 -0.003961 -0.002657 0 0 0 0
 917700000 -0.049683  0.012591 -0.004530 -0.002203 0 0 0 0
 918000000 -0.049942  0.012540 -0.004775 -0.001846 0 0 0 0
 918300000 -0.050800  0.013757 -0.004502 -0.001155 0 0 0 0
 918600000 -0.050392  0.014727 -0.004288 -0.000868 0 0 0 0
 918900000 -0.050960  0.015529 -0.004100 -0.000380 0 0 0 0
 919200000 -0.050066  0.016397 -0.003921  0.000048 0 0 0 0
 919500000 -0.050360  0.017278 -0.003468  0.000237 0 0 0 0
 919800000 -0.050711  0.018549 -0.003160  0.000365 0 0 0 0
 920100000 -0.050085  0.018748 -0.002867  0.000470 0 0 0 0
 920400000 -0.051084  0.019779 -0.002689  0.000423 0 0 0 0
 920700000 -0.050545  0.020398 -0.002403  0.000689 0 0 0 0
 921000000 -0.049693  0.021849 -0.002139  0.000811 0 0 0 0
 921300000 -0.049039  0.023085 -0.001898  0.000873 0 0 0 0
 921600000 -0.049343  0.024747 -0.001669  0.000819 0 0 0 0
 921900000 -0.050409  0.024783 -0.001617  0.000854 0 0 0 0
 922200000 -0.049161  0.025337 -0.001477  0.000840 0 0 0 0
 922500000 -0.049496  0.026502 -0.001338  0.000808 0 0 0 0
 922800000 -0.050212  0.027030 -0.001179  0.000817 0 0 0 0
 923100000 -0.049334  0.028345 -0.001008  0.000798 0 0 0 0
 923400000 -0.048558  0.029420 -0.001049  0.000660 0 0 0 0
 923700000 -0.048750  0.030037 -0.000924  0.000714 0 0 0 0
 924000000 -0.048609  0.030491 -0.000856  0.000699 0 0 0 0
 924300000 -0.047725  0.031466 -0.000763  0.000713 0 0 0 0
 924600000 -0.047810  0.031718 -0.000763  0.000678 0 0 0 0
 924900000 -0.046106  0.033332 -0.000683  0.000699 0 0 0 0
 925200000 -0.046916  0.034367 -0.000619  0.000726 0 0 0 0
 925500000 -0.046312  0.035064 -0.000564  0.000620 0 0 0 0
 925800000 -0.047228  0.036161 -0.000492  0.000598 0 0 0 0
 926100000 -0.046205  0.036238 -0.000506  0.000573 0 0 0 0
 926400000 -0.045547  0.037104 -0.000421  0.000500 0 0 0 0
 926700000 -0.045639  0.038188 -0.000411  0.000533 0 0 0 0
 927000000 -0.045484  0.038645 -0.000408  0.000522 0 0 0 0
 927300000 -0.045149  0.039085 -0.000399  0.000582 0 0 0 0
 927600000 -0.045011  0.040302 -0.000281  0.000560 0 0 0 0
 927900000 -0.044486  0.041149 -0.000286  0.000464 0 0 0 0
 928200000 -0.043418  0.041859 -0.000203  0.000508 0 0 0 0
 928500000 -0.042468  0.043222 -0.000247  0.000480 0 0 0 0
 928800000 -0.040418  0.043960 -0.000158  0.000483 0 0 0 0
 929100000 -0.039770  0.044628 -0.000177  0.000494 0 0 0 0
 929400000 -0.041084  0.045190 -0.000178  0.000373 0 0 0 0
 929700000 -0.040130  0.046067 -0.000137  0.000431 0 0 0 0
 930000000 -0.040440  0.046935 -0.000170  0.000422 0 0 0 0
 930300000 -0.039339  0.047327 -0.000139  0.000360 0 0 0 0
 930600000 -0.038548  0.047735 -0.000117  0.000413 0 0 0 0
 930900000 -0.039200  0.048777 -0.000126  0.000386 0 0 0 0
 931200000 -0.037146  0.049580 -0.000117  0.000386 0 0 0 0
 931500000 -0.037192  0.049706 -0.000129  0.000312 0 0 0 0
 931800000 -0.036035  0.050476 -0.000082  0.000340 0 0 0 0
 932100000 -0.033938  0.051250 -0.000026  0.000371 0 0 0 0
 932400000 -0.033207  0.051774 -0.000041  0.000247 0 0 0 0
 932700000 -0.032437  0.052516 -0.000054  0.000380 0 0 0 0
 933000000 -0.033090  0.053260 -0.000009  0.000352 0 0 0 0
 933300000 -0.032435  0.053436  0.000019  0.000270 0 0 0 0
 933600000 -0.032514  0.054403  0.000018  0.000244 0 0 0 0
 933900000 -0.030846  0.054675 -0.000004  0.000315 0 0 0 0
 934200000 -0.030589  0.055522 -0.000050  0.000263 0 0 0 0
 934500000 -0.029238  0.055667  0.000024  0.000260 0 0 0 0
 934800000 -0.028280  0.055836  0.000003  0.000199 0 0 0 0
 935100000 -0.028262  0.056194  0.000045  0.000240 0 0 0 0
 935400000 -0.026932  0.057200  0.000069  0.000256 0 0 0 0
 935700000 -0.026829  0.057268 -0.000000  0.000257 0 0 0 0
 936000000 -0.026012  0.058464  0.000020  0.000200 0 0 0 0
 936300000 -0.025212  0.058499 -0.000022  0.000249 0 0 0 0
 936600000 -0.023698  0.058209  0.000051  0.000209 0 0 0 0
 936900000 -0.023014  0.058658  0.000059  0.000183 0 0 0 0
 937200000 -0.022259  0.059136  0.000029  0.000229 0 0 0 0
 937500000 -0.022070  0.059392  0.000083  0.000204 0 0 0 0
 937800000 -0.021366  0.059787  0.000125  0.000231 0 0 0 0
 938100000 -0.021131  0.060626  0.000017  0.000173 0 0 0 0
 938400000 -0.019533  0.061143  0.000114  0.000220 0 0 0 0
 938700000 -0.019550  0.060486  0.000076  0.000233 0 0 0 0
 939000000 -0.017997  0.061306  0.000063  0.000171 0 0 0 0
 939300000 -0.015320  0.061534  0.000026  0.000128 0 0 0 0
 939600000 -0.014887  0.062014  0.000091  0.000125 0 0 0 0
 939900000 -0.013646  0.061821  0.000076  0.000101 0 0 0 0
 940200000 -0.014724  0.062261  0.000133  0.000128 0 0 0 0
 940500000 -0.013077  0.062009  0.000104  0.000118 0 0 0 0
 940800000 -0.013361  0.062715  0.000052  0.000182 0 0 0 0
 941100000 -0.012370  0.062441  0.000141  0.000146 0 0 0 0
 941400000 -0.011962  0.063587  0.000039  0.000170 0 0 0 0
 941700000 -0.010394  0.063103  0.000057  0.000145 0 0 0 0
 942000000 -0.010523  0.063658  0.000057  0.000124 0 0 0 0
 942300000 -0.008624  0.063415  0.000062  0.000151 0 0 0 0
 942600000 -0.008516  0.064019  0.000044  0.000122 0 0 0 0
 942900000 -0.007326  0.064164  0.000038  0.000091 0 0 0 0
 943200000 -0.003548  0.062703  0.000089  0.000031 0 0 0 0
 943500000 -0.004699  0.063825  0.000039  0.000170 0 0 0 0
 943800000 -0.003732  0.063258  0.000080  0.000092 0 0 0 0
 944100000 -0.003145  0.063092  0.000037  0.000044 0 0 0 0
 944400000 -0.002482  0.063099  0.000045  0.000082 0 0 0 0
 944700000 -0.001390  0.064059  0.000014  0.000137 0 0 0 0
 945000000 -0.000652  0.063773  0.000035  0.000047 0 0 0 0
 945300000  0.000883  0.062928  0.000123  0.000048 0 0 0 0
 945600000  0.000711  0.064309  0.000036  0.000029 0 0 0 0
 945900000  0.001538  0.063467  0.000081  0.000098 0 0 0 0
 946200000  0.001972  0.063312  0.000021  0.000018 0 0 0 0
 946500000  0.004903  0.062572  0.000012  0.000078 0 0 0 0
 946800000  0.007128  0.061810  0.000022  0.000074 0 0 0 0
 947100000  0.006873  0.062516  0.000086  0.000070 0 0 0 0
 947400000  0.007415  0.062068  0.000032  0.000051 0 0 0 0
 947700000  0.008202  0.061893  0.000078 -0.000028 0 0 0 0
 948000000  0.008786  0.061894  0.000007 -0.000003 0 0 0 0
 948300000  0.008913  0.061255  0.000015 -0.000025 0 0 0 0
 948600000  0.009950  0.061031  0.000059  0.000011 0 0 0 0
 948900000  0.011387  0.060571  0.000054 -0.000018 0 0 0 0
 949200000  0.011125  0.060641  0.000070 -0.000019 0 0 0 0
 949500000  0.012962  0.060943 -0.000022  0.000057 0 0 0 0
 949800000  0.014277  0.058924  0.000031  0.000054 0 0 0 0
 950100000  0.015070  0.059486  0.000101 -0.000024 0 0 0 0
 950400000  0.017392  0.057551  0.000070  0.000019 0 0 0 0
 950700000  0.016434  0.058143  0.000006  0.000017 0 0 0 0
 951000000  0.018797  0.056792  0.000078 -0.000041 0 0 0 0
 951300000  0.017249  0.057003  0.000038 -0.000003 0 0 0 0
 951600000  0.018542  0.056603  0.000099 -0.000063 0 0 0 0
 951900000  0.020038  0.056140  0.000078 -0.000030 0 0 0 0
 952200000  0.020361  0.055506  0.000017 -0.000077 0 0 0 0
 952500000  0.020923  0.055319  0.000040  0.000005 0 0 0 0
 952800000  0.020932  0.055212  0.000060 -0.000013 0 0 0 0
 953100000  0.021466  0.055128  0.000036 -0.000017 0 0 0 0
 953400000  0.021717  0.054444  0.000030 -0.000008 0 0 0 0
 953700000  0.023821  0.053462  0.000111 -0.000000 0 0 0 0
 954000000  0.025749  0.051815  0.000001 -0.000067 0 0 0 0
 954300000  0.025408  0.052073  0.000046 -0.000014 0 0 0 0
 954600000  0.025983  0.051308  0.000071 -0.000055 0 0 0 0
 954900000  0.026239  0.050366  0.000098 -0.000035 0 0 0 0
 955200000  0.027334  0.050142  0.000097  0.000066 0 0 0 0
 955500000  0.027931  0.049700  0.000039 -0.000024 0 0 0 0
 955800000  0.029493  0.048326  0.000056 -0.000013 0 0 0 0
 956100000  0.029392  0.048304  0.000036  0.000043 0 0 0 0
 956400000  0.029329  0.047720  0.000148  0.000053 0 0 0 0
 956700000  0.030789  0.046618  0.000011 -0.000072 0 0 0 0
 957000000  0.030610  0.046286  0.000059  0.000022 0 0 0 0
 957300000  0.031941  0.045532  0.000020 -0.000055 0 0 0 0
 957600000  0.032606  0.044762  0.000061 -0.000027 0 0 0 0
 957900000  0.033595  0.043575  0.000068 -0.000015 0 0 0 0
 958200000  0.034501  0.041564  0.000021 -0.000040 0 0 0 0
 958500000  0.034420  0.041911  0.000065 -0.000003 0 0 0 0
 958800000  0.034536  0.041487  0.000055 -0.000031 0 0 0 0
 959100000  0.034264  0.040453  0.000121 -0.000032 0 0 0 0
 959400000  0.035463  0.039223  0.000061  0.000009 0 0 0 0
 959700000  0.035091  0.038636  0.000104  0.000006 0 0 0 0
 960000000  0.035616  0.038385  0.000097 -0.000006 0 0 0 0
