!File created by NanoVNA-F V2
# Hz S RI R 50
 900000000 -0.013696 -0.023970 -0.000008  0.000081 0 0 0 0
 900300000 -0.014749 -0.024594  0.000043  0.000007 0 0 0 0
 900600000 -0.016271 -0.024341 -0.000034 -0.000023 0 0 0 0
 900900000 -0.017438 -0.024019  0.000030  0.000035 0 0 0 0
 901200000 -0.016953 -0.023924  0.000008 -0.000013 0 0 0 0
 901500000 -0.017987 -0.023510  0.000020 -0.000044 0 0 0 0
 901800000 -0.018810 -0.023655  0.000002 -0.000065 0 0 0 0
 902100000 -0.019877 -0.023176  0.000001 -0.000023 0 0 0 0
 902400000 -0.020476 -0.022838 -0.000001 -0.000041 0 0 0 0
 902700000 -0.021509 -0.022588 -0.000022 -0.000046 0 0 0 0
 903000000 -0.023030 -0.022318 -0.000000 -0.000028 0 0 0 0
 903300000 -0.023270 -0.022284  0.000037 -0.000008 0 0 0 0
 903600000 -0.024276 -0.020973  0.000026  0.000002 0 0 0 0
 903900000 -0.024407 -0.021595  0.000040 -0.000012 0 0 0 0
 904200000 -0.026351 -0.020968  0.000036 -0.000009 0 0 0 0
 904500000 -0.026280 -0.020613 -0.000011 -0.000052 0 0 0 0
 904800000 -0.028392 -0.019877 -0.000017 -0.000028 0 0 0 0
 905100000 -0.027731 -0.019392  0.000044 -0.000061 0 0 0 0
 905400000 -0.028902 -0.019379  0.000040 -0.000071 0 0 0 0
 905700000 -0.029294 -0.018867 -0.000035 -0.000066 0 0 0 0
 906000000 -0.029977 -0.018138  0.000008 -0.000096 0 0 0 0
 906300000 -0.030269 -0.017924 -0.000002 -0.000123 0 0 0 0
 906600000 -0.031693 -0.016551  0.000022 -0.000033 0 0 0 0
 906900000 -0.032426 -0.016843  0.000057 -0.000127 0 0 0 0
 907200000 -0.033139 -0.016425  0.000042 -0.000093 0 0 0 0
 907500000 -0.033870 -0.015465  0.000031 -0.000139 0 0 0 0
 907800000 -0.035107 -0.014021 -0.000015 -0.000115 0 0 0 0
 908100000 -0.035272 -0.013465  0.000013 -0.000137 0 0 0 0
 908400000 -0.035890 -0.013791  0.000032 -0.000133 0 0 0 0
 908700000 -0.036228 -0.013034 -0.000008 -0.000096 0 0 0 0
 909000000 -0.036616 -0.013656  0.000017 -0.000108 0 0 0 0
 909300000 -0.037533 -0.012816 -0.000049 -0.000186 0 0 0 0
 909600000 -0.038275 -0.012457  0.000020 -0.000134 0 0 0 0
 909900000 -0.038461 -0.010669  0.000081 -0.000184 0 0 0 0
 910200000 -0.039252 -0.010248  0.000039 -0.000161 0 0 0 0
 910500000 -0.039484 -0.008814  0.000035 -0.000110 0 0 0 0
 910800000 -0.040357 -0.008850  0.000087 -0.000235 0 0 0 0
 911100000 -0.041074 -0.008171  0.000002 -0.000165 0 0 0 0
 911400000 -0.042930 -0.006511  0.000028 -0.000179 0 0 0 0
 911700000 -0.042881 -0.005866  0.000043 -0.000166 0 0 0 0
 912000000 -0.043394 -0.004633  0.000134 -0.000181 0 0 0 0
 912300000 -0.043134 -0.004746  0.000093 -0.000133 0 0 0 0
 912600000 -0.043455 -0.004596  0.000039 -0.000083 0 0 0 0
 912900000 -0.044482 -0.004102  0.000069 -0.000244 0 0 0 0
 913200000 -0.044191 -0.002867 -0.000005 -0.000300 0 0 0 0
 913500000 -0.043970 -0.001236  0.000045 -0.000229 0 0 0 0
 913800000 -0.044561 -0.000567  0.000048 -0.000212 0 0 0 0
 914100000 -0.045642  0.000481  0.000049 -0.000239 0 0 0 0
 914400000 -0.045729  0.000329  0.000072 -0.000150 0 0 0 0
 914700000 -0.046197  0.001455  0.000090 -0.000261 0 0 0 0
 915000000 -0.047045  0.002426  0.000122 -0.000362 0 0 0 0
 915300000 -0.047306  0.002843  0.000083 -0.000319 0 0 0 0
 915600000 -0.047329  0.003877  0.000104 -0.000305 0 0 0 0
 915900000 -0.046884  0.004287  0.000126 -0.000324 0 0 0 0
 916200000 -0.047837  0.005315  0.000128 -0.000314 0 0 0 0
 916500000 -0.048298  0.005803  0.000063 -0.000322 0 0 0 0
 916800000 -0.048319  0.007424  0.000027 -0.000310 0 0 0 0
 917100000 -0.048779  0.008218  0.000034 -0.000295 0 0 0 0
 917400000 -0.048440  0.009095  0.000052 -0.000307 0 0 0 0
 917700000 -0.048102  0.010562  0.000151 -0.000384 0 0 0 0
 918000000 -0.049740  0.010297  0.000031 -0.000356 0 0 0 0
 918300000 -0.049756  0.011925  0.000036 -0.000307 0 0 0 0
 918600000 -0.049404  0.013611  0.000052 -0.000322 0 0 0 0
 918900000 -0.050370  0.013191  0.000085 -0.000437 0 0 0 0
 919200000 -0.050082  0.014305  0.000066 -0.000361 0 0 0 0
 919500000 -0.049836  0.015492  0.000056 -0.000355 0 0 0 0
 919800000 -0.049621  0.016396  0.000107 -0.000424 0 0 0 0
 920100000 -0.049456  0.016791  0.000027 -0.000428 0 0 0 0
 920400000 -0.049704  0.018321  0.000027 -0.000419 0 0 0 0
 920700000 -0.049479  0.019408  0.000059 -0.000408 0 0 0 0
 921000000 -0.048460  0.020441  0.000046 -0.000476 0 0 0 0
 921300000 -0.049110  0.021623  0.000062 -0.000435 0 0 0 0
 921600000 -0.049720  0.021853  0.000058 -0.000474 0 0 0 0
 921900000 -0.049796  0.023119  0.000018 -0.000424 0 0 0 0
 922200000 -0.049162  0.023660  0.000111 -0.000470 0 0 0 0
 922500000 -0.049703  0.024577  0.000103 -0.000590 0 0 0 0
 922800000 -0.049516  0.025517  0.000062 -0.000550 0 0 0 0
 923100000 -0.048618  0.025957  0.000084 -0.000577 0 0 0 0
 923400000 -0.048795  0.026295 -0.000006 -0.000563 0 0 0 0
 923700000 -0.048931  0.027536  0.000088 -0.000610 0 0 0 0
 924000000 -0.048198  0.028846 -0.000029 -0.000539 0 0 0 0
 924300000 -0.047659  0.029723 -0.000055 -0.000600 0 0 0 0
 924600000 -0.047791  0.030151  0.000038 -0.000619 0 0 0 0
 924900000 -0.046332  0.031997 -0.000034 -0.000772 0 0 0 0
 925200000 -0.045732  0.032880 -0.000018 -0.000688 0 0 0 0
 925500000 -0.046346  0.033866 -0.000105 -0.000775 0 0 0 0
 925800000 -0.046827  0.033467 -0.000068 -0.000791 0 0 0 0
 926100000 -0.046193  0.035564 -0.000067 -0.000801 0 0 0 0
 926400000 -0.045371  0.035160 -0.000115 -0.000883 0 0 0 0
 926700000 -0.045044  0.036676 -0.000196 -0.000912 0 0 0 0
 927000000 -0.045704  0.036481 -0.000182 -0.000884 0 0 0 0
 927300000 -0.044854  0.037574 -0.000188 -0.000960 0 0 0 0
 927600000 -0.045004  0.038444 -0.000258 -0.001084 0 0 0 0
 927900000 -0.043305  0.040062 -0.000339 -0.001079 0 0 0 0
 928200000 -0.041426  0.040234 -0.000478 -0.001076 0 0 0 0
 928500000 -0.040994  0.041299 -0.000403 -0.001158 0 0 0 0
 928800000 -0.041225  0.042154 -0.000474 -0.001285 0 0 0 0
 929100000 -0.041048  0.042619 -0.000544 -0.001359 0 0 0 0
 929400000 -0.041186  0.043516 -0.000638 -0.001382 0 0 0 0
 929700000 -0.041098  0.043889 -0.000732 -0.001439 0 0 0 0
 930000000 -0.040349  0.044896 -0.000810 -0.001462 0 0 0 0
 930300000 -0.039594  0.045831 -0.000864 -0.001570 0 0 0 0
 930600000 -0.038485  0.046281 -0.001070 -0.001617 0 0 0 0
 930900000 -0.038111  0.046354 -0.001050 -0.001699 0 0 0 0
 931200000 -0.038275  0.047448 -0.001210 -0.001883 0 0 0 0
 931500000 -0.036333  0.048133 -0.001483 -0.001905 0 0 0 0
 931800000 -0.035166  0.048665 -0.001688 -0.002023 0 0 0 0
 932100000 -0.034187  0.049353 -0.001887 -0.002104 0 0 0 0
 932400000 -0.035483  0.049756 -0.002225 -0.002055 0 0 0 0
 932700000 -0.033666  0.050112 -0.002603 -0.002002 0 0 0 0
 933000000 -0.034111  0.050640 -0.002819 -0.002020 0 0 0 0
 933300000 -0.033244  0.051687 -0.003179 -0.001761 0 0 0 0
 933600000 -0.032015  0.051960 -0.003284 -0.001646 0 0 0 0
 933900000 -0.031557  0.053287 -0.003435 -0.001902 0 0 0 0
 934200000 -0.030765  0.053114 -0.003873 -0.001743 0 0 0 0
 934500000 -0.031261  0.053458 -0.004269 -0.001645 0 0 0 0
 934800000 -0.029445  0.054469 -0.004273 -0.001072 0 0 0 0
 935100000 -0.029916  0.054291 -0.003603 -0.000473 0 0 0 0
 935400000 -0.028224  0.054846 -0.001389 -0.000717 0 0 0 0
 935700000 -0.026002  0.055228  0.003316 -0.003741 0 0 0 0
 936000000 -0.024559  0.055623  0.009730 -0.017275 0 0 0 0
 936300000 -0.026265  0.056387 -0.007816 -0.053685 0 0 0 0
 936600000 -0.025386  0.056895 -0.076349 -0.042275 0 0 0 0
 936900000 -0.024455  0.057546 -0.092454  0.020727 0 0 0 0
 937200000 -0.023181  0.056932 -0.072876  0.069429 0 0 0 0
 937500000 -0.022727  0.057414 -0.033872  0.099378 0 0 0 0
 937800000 -0.021932  0.058174  0.018822  0.106164 0 0 0 0
 938100000 -0.022234  0.058447  0.066784  0.086909 0 0 0 0
 938400000 -0.020758  0.058780  0.101051  0.043469 0 0 0 0
 938700000 -0.020453  0.059027  0.107642 -0.019961 0 0 0 0
 939000000 -0.018717  0.058969  0.055415 -0.082774 0 0 0 0
 939300000 -0.017620  0.060320 -0.018107 -0.059548 0 0 0 0
 939600000 -0.015792  0.059768 -0.020027 -0.013017 0 0 0 0
 939900000 -0.015976  0.060709 -0.005763 -0.001666 0 0 0 0
 940200000 -0.014497  0.060267  0.000973 -0.001398 0 0 0 0
 940500000 -0.014599  0.060269  0.003234 -0.002750 0 0 0 0
 940800000 -0.013972  0.060757  0.003477 -0.003777 0 0 0 0
 941100000 -0.013717  0.061220  0.003257 -0.004203 0 0 0 0
 941400000 -0.012375  0.061070  0.002600 -0.004343 0 0 0 0
 941700000 -0.012076  0.061579  0.002078 -0.004376 0 0 0 0
 942000000 -0.010591  0.061581  0.001545 -0.004112 0 0 0 0
 942300000 -0.010473  0.061970  0.001112 -0.003951 0 0 0 0
 942600000 -0.008602  0.062373  0.000708 -0.003684 0 0 0 0
 942900000 -0.006287  0.061813  0.000476 -0.003418 0 0 0 0
 943200000 -0.006886  0.062429  0.000322 -0.003092 0 0 0 0
 943500000 -0.005622  0.061768  0.000058 -0.002870 0 0 0 0
 943800000 -0.004597  0.061364  0.000015 -0.002601 0 0 0 0
 944100000 -0.004747  0.062293 -0.000122 -0.002453 0 0 0 0
 944400000 -0.004153  0.061932 -0.000279 -0.002240 0 0 0 0
 944700000 -0.003625  0.061991 -0.000305 -0.002077 0 0 0 0
 945000000 -0.002260  0.062469 -0.000328 -0.001905 0 0 0 0
 945300000 -0.002222  0.062659 -0.000334 -0.001785 0 0 0 0
 945600000 -0.000629  0.062227 -0.000404 -0.001623 0 0 0 0
 945900000  0.000549  0.062609 -0.000385 -0.001488 0 0 0 0
 946200000  0.002078  0.061585 -0.000492 -0.001384 0 0 0 0
 946500000  0.005188  0.060804 -0.000445 -0.001282 0 0 0 0
 946800000  0.005784  0.060267 -0.000521 -0.001189 0 0 0 0
 947100000  0.006280  0.060723 -0.000454 -0.001118 0 0 0 0
 947400000  0.007222  0.060494 -0.000486 -0.001007 0 0 0 0
 947700000  0.008130  0.060610 -0.000415 -0.001030 0 0 0 0
 948000000  0.009797  0.059613 -0.000467 -0.000954 0 0 0 0
 948300000  0.008628  0.060537 -0.000535 -0.000845 0 0 0 0
 948600000  0.008843  0.060347 -0.000435 -0.000866 0 0 0 0
 948900000  0.009687  0.059878 -0.000469 -0.000773 0 0 0 0
 949200000  0.010675  0.058831 -0.000421 -0.000672 0 0 0 0
 949500000  0.011250  0.059937 -0.000457 -0.000686 0 0 0 0
 949800000  0.012545  0.058077 -0.000503 -0.000665 0 0 0 0
 950100000  0.012610  0.058966 -0.000437 -0.000702 0 0 0 0
 950400000  0.012471  0.059406 -0.000367 -0.000611 0 0 0 0
 950700000  0.014030  0.057980 -0.000392 -0.000553 0 0 0 0
 951000000  0.016460  0.056730 -0.000418 -0.000569 0 0 0 0
 951300000  0.018584  0.055274 -0.000418 -0.000453 0 0 0 0
 951600000  0.018628  0.054640 -0.000415 -0.000404 0 0 0 0
 951900000  0.018763  0.055139 -0.000353 -0.000403 0 0 0 0
 952200000  0.019547  0.054586 -0.000377 -0.000432 0 0 0 0
 952500000  0.019947  0.054240 -0.000304 -0.000411 0 0 0 0
 952800000  0.020168  0.053844 -0.000325 -0.000327 0 0 0 0
 953100000  0.021609  0.053454 -0.000349 -0.000321 0 0 0 0
 953400000  0.021180  0.052368 -0.000373 -0.000270 0 0 0 0
 953700000  0.022169  0.052506 -0.000246 -0.000304 0 0 0 0
 954000000  0.022730  0.052794 -0.000323 -0.000313 0 0 0 0
 954300000  0.023824  0.052144 -0.000336 -0.000290 0 0 0 0
 954600000  0.025442  0.050658 -0.000351 -0.000307 0 0 0 0
 954900000  0.025656  0.049557 -0.000269 -0.000222 0 0 0 0
 955200000  0.027498  0.048146 -0.000330 -0.000238 0 0 0 0
 955500000  0.027061  0.049208 -0.000293 -0.000212 0 0 0 0
 955800000  0.027426  0.048318 -0.000218 -0.000198 0 0 0 0
 956100000  0.027702  0.047857 -0.000216 -0.000209 0 0 0 0
 956400000  0.027991  0.046450 -0.000270 -0.000093 0 0 0 0
 956700000  0.029013  0.046046 -0.000218 -0.000211 0 0 0 0
 957000000  0.029722  0.045276 -0.000194 -0.000144 0 0 0 0
 957300000  0.030020  0.044078 -0.000277 -0.000145 0 0 0 0
 957600000  0.030416  0.044274 -0.000266 -0.000160 0 0 0 0
 957900000  0.031449  0.043449 -0.000243 -0.000112 0 0 0 0
 958200000  0.032087  0.042380 -0.000245 -0.000110 0 0 0 0
 958500000  0.034152  0.040918 -0.000225 -0.000118 0 0 0 0
 958800000  0.033738  0.039022 -0.000199 -0.000079 0 0 0 0
 959100000  0.034965  0.038828 -0.000191 -0.000070 0 0 0 0
 959400000  0.034218  0.039100 -0.000184 -0.000011 0 0 0 0
 959700000  0.034547  0.038821 -0.000202 -0.000062 0 0 0 0
 960000000  0.035169  0.037910 -0.000163 -0.000019 0 0 0 0
