!File created by NanoVNA-F V2
# Hz S RI R 50
 900000000 -0.017190 -0.020330 -0.000056  0.000162 0 0 0 0
 900300000 -0.017607 -0.019416 -0.000053  0.000096 0 0 0 0
 900600000 -0.019206 -0.019702 -0.000102  0.000164 0 0 0 0
 900900000 -0.019870 -0.019337 -0.000065  0.000085 0 0 0 0
 901200000 -0.020714 -0.018908 -0.000027  0.000161 0 0 0 0
 901500000 -0.021278 -0.018609 -0.000020  0.000139 0 0 0 0
 901800000 -0.022050 -0.019328 -0.000033  0.000170 0 0 0 0
 902100000 -0.022524 -0.018380 -0.000083  0.000121 0 0 0 0
 902400000 -0.024115 -0.017842 -0.000031  0.000190 0 0 0 0
 902700000 -0.024679 -0.018042 -0.000033  0.000166 0 0 0 0
 903000000 -0.025499 -0.017003 -0.000044  0.000139 0 0 0 0
 903300000 -0.025945 -0.017297 -0.000052  0.000126 0 0 0 0
 903600000 -0.027000 -0.016633 -0.000054  0.000137 0 0 0 0
 903900000 -0.028179 -0.015946 -0.000060  0.000146 0 0 0 0
 904200000 -0.028584 -0.015782 -0.000087  0.000127 0 0 0 0
 904500000 -0.029183 -0.015895  0.000012  0.000122 0 0 0 0
 904800000 -0.030138 -0.014450 -0.000060  0.000144 0 0 0 0
 905100000 -0.030479 -0.014046 -0.000027  0.000138 0 0 0 0
 905400000 -0.030293 -0.013433 -0.000071  0.000107 0 0 0 0
 905700000 -0.032246 -0.013450 -0.000026  0.000247 0 0 0 0
 906000000 -0.032682 -0.012886  0.000018  0.000154 0 0 0 0
 906300000 -0.033697 -0.011600 -0.000011  0.000166 0 0 0 0
 906600000 -0.033029 -0.011347  0.000011  0.000207 0 0 0 0
 906900000 -0.034228 -0.010824  0.000031  0.000141 0 0 0 0
 907200000 -0.034844 -0.010358 -0.000021  0.000086 0 0 0 0
 907500000 -0.035573 -0.010022  0.000005  0.000097 0 0 0 0
 907800000 -0.036733 -0.008852  0.000063  0.000132 0 0 0 0
 908100000 -0.038160 -0.007776  0.000007  0.000156 0 0 0 0
 908400000 -0.038230 -0.007522  0.000006  0.000190 0 0 0 0
 908700000 -0.037535 -0.006930  0.000033  0.000212 0 0 0 0
 909000000 -0.038184 -0.006570  0.000121  0.000186 0 0 0 0
 909300000 -0.038933 -0.006189  0.000137  0.000232 0 0 0 0
 909600000 -0.039079 -0.004693  0.000165  0.000175 0 0 0 0
 909900000 -0.039433 -0.003955  0.000182  0.000185 0 0 0 0
 910200000 -0.040152 -0.002935  0.000146  0.000081 0 0 0 0
 910500000 -0.040840 -0.003008  0.000055  0.000129 0 0 0 0
 910800000 -0.041434 -0.001989  0.000122  0.000192 0 0 0 0
 911100000 -0.042588 -0.001883  0.000147  0.000217 0 0 0 0
 911400000 -0.042783 -0.000525  0.000208  0.000182 0 0 0 0
 911700000 -0.042547  0.000234  0.000204  0.000176 0 0 0 0
 912000000 -0.043603  0.000886  0.000168  0.000121 0 0 0 0
 912300000 -0.043492  0.001645  0.000178  0.000124 0 0 0 0
 912600000 -0.043741  0.002300  0.000105  0.000187 0 0 0 0
 912900000 -0.043981  0.003291  0.000214  0.000250 0 0 0 0
 913200000 -0.044006  0.003711  0.000254  0.000209 0 0 0 0
 913500000 -0.044800  0.005052  0.000264  0.000206 0 0 0 0
 913800000 -0.044452  0.005331  0.000290  0.000192 0 0 0 0
 914100000 -0.045199  0.006716  0.000342  0.000143 0 0 0 0
 914400000 -0.046058  0.006755  0.000315  0.000201 0 0 0 0
 914700000 -0.046255  0.008563  0.000414  0.000249 0 0 0 0
 915000000 -0.045936  0.008781  0.000368  0.000211 0 0 0 0
 915300000 -0.046718  0.009553  0.000428  0.000196 0 0 0 0
 915600000 -0.047373  0.010741  0.000488  0.000192 0 0 0 0
 915900000 -0.046812  0.011242  0.000516  0.000279 0 0 0 0
 916200000 -0.045970  0.012442  0.000469  0.000124 0 0 0 0
 916500000 -0.046933  0.013214  0.000512  0.000208 0 0 0 0
 916800000 -0.047649  0.013125  0.000571  0.000133 0 0 0 0
 917100000 -0.047543  0.014007  0.000596  0.000205 0 0 0 0
 917400000 -0.047071  0.015675  0.000685  0.000221 0 0 0 0
 917700000 -0.047687  0.016603  0.000695  0.000271 0 0 0 0
 918000000 -0.047969  0.017592  0.000769  0.000247 0 0 0 0
 918300000 -0.047942  0.018328  0.000805  0.000242 0 0 0 0
 918600000 -0.047617  0.018833  0.000916  0.000228 0 0 0 0
 918900000 -0.047261  0.020785  0.000952  0.000224 0 0 0 0
 919200000 -0.047638  0.021388  0.001039  0.000210 0 0 0 0
 919500000 -0.047015  0.022030  0.001171  0.000189 0 0 0 0
 919800000 -0.047517  0.023312  0.001166  0.000241 0 0 0 0
 920100000 -0.047466  0.023884  0.001289  0.000167 0 0 0 0
 920400000 -0.046654  0.024990  0.001407  0.000096 0 0 0 0
 920700000 -0.047166  0.025515  0.001574  0.000067 0 0 0 0
 921000000 -0.047268  0.025949  0.001760  0.000007 0 0 0 0
 921300000 -0.047207  0.027458  0.001845  0.000031 0 0 0 0
 921600000 -0.046577  0.028074  0.002074 -0.000123 0 0 0 0
 921900000 -0.046480  0.029109  0.002165 -0.000203 0 0 0 0
 922200000 -0.046003  0.029565  0.002458 -0.000290 0 0 0 0
 922500000 -0.045827  0.030598  0.002707 -0.000528 0 0 0 0
 922800000 -0.045499  0.031302  0.003028 -0.000722 0 0 0 0
 923100000 -0.045740  0.032076  0.003363 -0.001096 0 0 0 0
 923400000 -0.043670  0.033499  0.003481 -0.001612 0 0 0 0
 923700000 -0.044786  0.034295  0.003743 -0.001911 0 0 0 0
 924000000 -0.045232  0.034873  0.003578 -0.002494 0 0 0 0
 924300000 -0.044554  0.035492  0.003300 -0.002954 0 0 0 0
 924600000 -0.044062  0.036257  0.003006 -0.003009 0 0 0 0
 924900000 -0.044001  0.037343  0.001938 -0.002079 0 0 0 0
 925200000 -0.043065  0.038455  0.001076  0.001204 0 0 0 0
 925500000 -0.043472  0.038294  0.003558  0.011160 0 0 0 0
 925800000 -0.043394  0.039342  0.029196  0.025862 0 0 0 0
 926100000 -0.042385  0.039606  0.080885 -0.019353 0 0 0 0
 926400000 -0.039955  0.041026  0.042983 -0.091922 0 0 0 0
 926700000 -0.040010  0.041768 -0.022052 -0.102092 0 0 0 0
 927000000 -0.040867  0.042410 -0.072987 -0.077241 0 0 0 0
 927300000 -0.039705  0.042780 -0.102240 -0.035026 0 0 0 0
 927600000 -0.039318  0.043517 -0.108320  0.017359 0 0 0 0
 927900000 -0.040091  0.044097 -0.083147  0.070880 0 0 0 0
 928200000 -0.039154  0.045218 -0.033051  0.104624 0 0 0 0
 928500000 -0.037848  0.045789  0.045432  0.095583 0 0 0 0
 928800000 -0.037468  0.046321  0.071546  0.006622 0 0 0 0
 929100000 -0.036768  0.046692  0.020224 -0.017142 0 0 0 0
 929400000 -0.036355  0.047260  0.003251 -0.005409 0 0 0 0
 929700000 -0.035563  0.048636  0.001134  0.001090 0 0 0 0
 930000000 -0.036153  0.049607  0.001701  0.003452 0 0 0 0
 930300000 -0.035392  0.049118  0.002409  0.004072 0 0 0 0
 930600000 -0.034526  0.050224  0.002964  0.003808 0 0 0 0
 930900000 -0.034392  0.050605  0.003139  0.003319 0 0 0 0
 931200000 -0.032474  0.050967  0.003201  0.002839 0 0 0 0
 931500000 -0.030498  0.052216  0.003192  0.002451 0 0 0 0
 931800000 -0.030085  0.052065  0.003273  0.001952 0 0 0 0
 932100000 -0.029164  0.052772  0.003060  0.001574 0 0 0 0
 932400000 -0.030075  0.053017  0.002829  0.001083 0 0 0 0
 932700000 -0.029221  0.054589  0.002628  0.000848 0 0 0 0
 933000000 -0.027724  0.055330  0.002348  0.000587 0 0 0 0
 933300000 -0.027630  0.055205  0.002210  0.000437 0 0 0 0
 933600000 -0.026751  0.056143  0.001934  0.000309 0 0 0 0
 933900000 -0.025673  0.056448  0.001876  0.000205 0 0 0 0
 934200000 -0.025190  0.056251  0.001717  0.000058 0 0 0 0
 934500000 -0.025499  0.056450  0.001515  0.000075 0 0 0 0
 934800000 -0.023981  0.056952  0.001492  0.000047 0 0 0 0
 935100000 -0.021235  0.057134  0.001303 -0.000076 0 0 0 0
 935400000 -0.021262  0.057777  0.001246 -0.000135 0 0 0 0
 935700000 -0.019612  0.058257  0.001139 -0.000101 0 0 0 0
 936000000 -0.020453  0.058766  0.001052 -0.000176 0 0 0 0
 936300000 -0.020588  0.058890  0.000984 -0.000057 0 0 0 0
 936600000 -0.019503  0.059711  0.000883 -0.000122 0 0 0 0
 936900000 -0.018761  0.060295  0.000873 -0.000208 0 0 0 0
 937200000 -0.018522  0.060027  0.000812 -0.000207 0 0 0 0
 937500000 -0.016931  0.060368  0.000718 -0.000179 0 0 0 0
 937800000 -0.016060  0.060110  0.000767 -0.000165 0 0 0 0
 938100000 -0.016054  0.060326  0.000710 -0.000132 0 0 0 0
 938400000 -0.014817  0.061075  0.000655 -0.000165 0 0 0 0
 938700000 -0.013494  0.061947  0.000616 -0.000225 0 0 0 0
 939000000 -0.011542  0.060961  0.000555 -0.000226 0 0 0 0
 939300000 -0.010001  0.061593  0.000516 -0.000170 0 0 0 0
 939600000 -0.010936  0.061924  0.000537 -0.000273 0 0 0 0
 939900000 -0.010063  0.061783  0.000494 -0.000257 0 0 0 0
 940200000 -0.010534  0.062451  0.000514 -0.000136 0 0 0 0
 940500000 -0.008911  0.062274  0.000413 -0.000241 0 0 0 0
 940800000 -0.007811  0.061825  0.000485 -0.000221 0 0 0 0
 941100000 -0.007464  0.062426  0.000404 -0.000152 0 0 0 0
 941400000 -0.008119  0.062881  0.000372 -0.000207 0 0 0 0
 941700000 -0.006611  0.062970  0.000332 -0.000252 0 0 0 0
 942000000 -0.006380  0.063001  0.000303 -0.000241 0 0 0 0
 942300000 -0.004397  0.062552  0.000368 -0.000211 0 0 0 0
 942600000 -0.001414  0.061975  0.000244 -0.000217 0 0 0 0
 942900000  0.000038  0.062399  0.000240 -0.000162 0 0 0 0
 943200000 -0.001395  0.062702  0.000273 -0.000197 0 0 0 0
 943500000 -0.000209  0.063501  0.000208 -0.000170 0 0 0 0
 943800000  0.000634  0.062427  0.000285 -0.000170 0 0 0 0
 944100000  0.001782  0.062494  0.000164 -0.000242 0 0 0 0
 944400000  0.002243  0.062603  0.000194 -0.000241 0 0 0 0
 944700000  0.003615  0.062191  0.000185 -0.000222 0 0 0 0
 945000000  0.003758  0.062501  0.000189 -0.000284 0 0 0 0
 945300000  0.004103  0.062770  0.000151 -0.000163 0 0 0 0
 945600000  0.005759  0.061625  0.000132 -0.000165 0 0 0 0
 945900000  0.006789  0.061708  0.000199 -0.000238 0 0 0 0
 946200000  0.007396  0.061343  0.000122 -0.000159 0 0 0 0
 946500000  0.010602  0.060567  0.000118 -0.000181 0 0 0 0
 946800000  0.011416  0.060322  0.000152 -0.000231 0 0 0 0
 947100000  0.011127  0.061121  0.000080 -0.000185 0 0 0 0
 947400000  0.010682  0.060453  0.000111 -0.000244 0 0 0 0
 947700000  0.012193  0.060840  0.000129 -0.000199 0 0 0 0
 948000000  0.013194  0.059766  0.000078 -0.000198 0 0 0 0
 948300000  0.013353  0.059437  0.000088 -0.000180 0 0 0 0
 948600000  0.013394  0.059745  0.000061 -0.000216 0 0 0 0
 948900000  0.014472  0.059939  0.000062 -0.000177 0 0 0 0
 949200000  0.016597  0.058035  0.000087 -0.000180 0 0 0 0
 949500000  0.016691  0.058419  0.000053 -0.000183 0 0 0 0
 949800000  0.019333  0.057235  0.000114 -0.000185 0 0 0 0
 950100000  0.019184  0.057298  0.000019 -0.000233 0 0 0 0
 950400000  0.020502  0.055666  0.000057 -0.000225 0 0 0 0
 950700000  0.020563  0.056668  0.000023 -0.000141 0 0 0 0
 951000000  0.021268  0.055689 -0.000020 -0.000190 0 0 0 0
 951300000  0.021884  0.055497  0.000030 -0.000134 0 0 0 0
 951600000  0.022235  0.055094  0.000040 -0.000193 0 0 0 0
 951900000  0.022022  0.054312  0.000115 -0.000144 0 0 0 0
 952200000  0.024113  0.053936  0.000052 -0.000166 0 0 0 0
 952500000  0.023627  0.053779  0.000035 -0.000130 0 0 0 0
 952800000  0.025027  0.053344  0.000030 -0.000165 0 0 0 0
 953100000  0.025626  0.052040 -0.000018 -0.000154 0 0 0 0
 953400000  0.026839  0.051808  0.000096 -0.000171 0 0 0 0
 953700000  0.028687  0.049939 -0.000016 -0.000154 0 0 0 0
 954000000  0.028790  0.049674  0.000031 -0.000130 0 0 0 0
 954300000  0.028910  0.049166  0.000064 -0.000150 0 0 0 0
 954600000  0.029234  0.049134  0.000007 -0.000127 0 0 0 0
 954900000  0.029050  0.048374 -0.000013 -0.000129 0 0 0 0
 955200000  0.030277  0.047486  0.000087 -0.000110 0 0 0 0
 955500000  0.030368  0.047519 -0.000032 -0.000115 0 0 0 0
 955800000  0.031508  0.046514  0.000037 -0.000064 0 0 0 0
 956100000  0.031875  0.045872  0.000043 -0.000188 0 0 0 0
 956400000  0.032480  0.045139  0.000057 -0.000135 0 0 0 0
 956700000  0.033120  0.045575  0.000068 -0.000164 0 0 0 0
 957000000  0.035513  0.041911  0.000024 -0.000119 0 0 0 0
 957300000  0.034128  0.043177  0.000082 -0.000050 0 0 0 0
 957600000  0.035997  0.041106 -0.000004 -0.000077 0 0 0 0
 957900000  0.035675  0.040959 -0.000034 -0.000139 0 0 0 0
 958200000  0.036304  0.040476  0.000004 -0.000094 0 0 0 0
 958500000  0.036477  0.039740 -0.000019 -0.000087 0 0 0 0
 958800000  0.037460  0.039372 -0.000033 -0.000076 0 0 0 0
 959100000  0.036616  0.037840 -0.000063 -0.000109 0 0 0 0
 959400000  0.037931  0.036742  0.000025 -0.000076 0 0 0 0
 959700000  0.037761  0.037182 -0.000015  0.000001 0 0 0 0
 960000000  0.038965  0.035908 -0.000005 -0.000106 0 0 0 0
