!File created by NanoVNA-F V2
# Hz S RI R 50
 900000000 -0.016274 -0.021364 -0.000041 -0.000087 0 0 0 0
 900300000 -0.016280 -0.023027 -0.000143 -0.000025 0 0 0 0
 900600000 -0.017930 -0.021902 -0.000118 -0.000035 0 0 0 0
 900900000 -0.018501 -0.021239 -0.000084  0.000015 0 0 0 0
 901200000 -0.019548 -0.021243 -0.000160  0.000032 0 0 0 0
 901500000 -0.020303 -0.021088 -0.000134 -0.000021 0 0 0 0
 901800000 -0.020269 -0.021054 -0.000100 -0.000029 0 0 0 0
 902100000 -0.020908 -0.021134 -0.000220 -0.000037 0 0 0 0
 902400000 -0.021749 -0.020343 -0.000132 -0.000003 0 0 0 0
 902700000 -0.023458 -0.019420 -0.000135 -0.000033 0 0 0 0
 903000000 -0.023446 -0.019384 -0.000226  0.000009 0 0 0 0
 903300000 -0.024857 -0.019426 -0.000216 -0.000083 0 0 0 0
 903600000 -0.025762 -0.019102 -0.000102 -0.000018 0 0 0 0
 903900000 -0.027288 -0.018973 -0.000190 -0.000012 0 0 0 0
 904200000 -0.027890 -0.017677 -0.000162 -0.000080 0 0 0 0
 904500000 -0.028688 -0.017481 -0.000182  0.000007 0 0 0 0
 904800000 -0.028565 -0.017050 -0.000176 -0.000118 0 0 0 0
 905100000 -0.029915 -0.016355 -0.000225 -0.000057 0 0 0 0
 905400000 -0.029586 -0.015611 -0.000186 -0.000056 0 0 0 0
 905700000 -0.031674 -0.016430 -0.000170 -0.000088 0 0 0 0
 906000000 -0.031093 -0.014786 -0.000146 -0.000072 0 0 0 0
 906300000 -0.032995 -0.014254 -0.000130 -0.000073 0 0 0 0
 906600000 -0.033143 -0.014662 -0.000065 -0.000087 0 0 0 0
 906900000 -0.033081 -0.013490 -0.000152 -0.000088 0 0 0 0
 907200000 -0.034034 -0.012524 -0.000118 -0.000052 0 0 0 0
 907500000 -0.035140 -0.013044 -0.000195 -0.000031 0 0 0 0
 907800000 -0.036372 -0.012258 -0.000184 -0.000055 0 0 0 0
 908100000 -0.036112 -0.010413 -0.000102 -0.000044 0 0 0 0
 908400000 -0.037161 -0.010046 -0.000119 -0.000089 0 0 0 0
 908700000 -0.037885 -0.008844 -0.000151 -0.000085 0 0 0 0
 909000000 -0.038255 -0.009095 -0.000132 -0.000167 0 0 0 0
 909300000 -0.038882 -0.008566 -0.000138 -0.000126 0 0 0 0
 909600000 -0.039660 -0.006982 -0.000199 -0.000066 0 0 0 0
 909900000 -0.040370 -0.007522 -0.000165 -0.000116 0 0 0 0
 910200000 -0.041382 -0.006050 -0.000195 -0.000110 0 0 0 0
 910500000 -0.041226 -0.005235 -0.000210 -0.000055 0 0 0 0
 910800000 -0.041642 -0.004852 -0.000143 -0.000075 0 0 0 0
 911100000 -0.042187 -0.004610 -0.000189 -0.000069 0 0 0 0
 911400000 -0.042611 -0.003362 -0.000184 -0.000109 0 0 0 0
 911700000 -0.043416 -0.002905 -0.000177 -0.000038 0 0 0 0
 912000000 -0.043980 -0.001932 -0.000157 -0.000091 0 0 0 0
 912300000 -0.043182 -0.000628 -0.000189 -0.000112 0 0 0 0
 912600000 -0.043990  0.000260 -0.000172 -0.000104 0 0 0 0
 912900000 -0.044893  0.000309 -0.000185 -0.000111 0 0 0 0
 913200000 -0.045490  0.001660 -0.000180 -0.000126 0 0 0 0
 913500000 -0.046001  0.001837 -0.000136 -0.000071 0 0 0 0
 913800000 -0.046647  0.002702 -0.000107 -0.000069 0 0 0 0
 914100000 -0.046463  0.004354 -0.000218 -0.000093 0 0 0 0
 914400000 -0.045964  0.004500 -0.000175 -0.000057 0 0 0 0
 914700000 -0.046382  0.005395 -0.000168 -0.000191 0 0 0 0
 915000000 -0.047476  0.006744 -0.000153 -0.000080 0 0 0 0
 915300000 -0.047994  0.006929 -0.000181 -0.000005 0 0 0 0
 915600000 -0.048242  0.008361 -0.000212 -0.000110 0 0 0 0
 915900000 -0.047492  0.009837 -0.000116 -0.000085 0 0 0 0
 916200000 -0.048477  0.009524 -0.000154 -0.000060 0 0 0 0
 916500000 -0.048018  0.011448 -0.000108 -0.000087 0 0 0 0
 916800000 -0.048825  0.012122 -0.000126 -0.000101 0 0 0 0
 917100000 -0.049599  0.012543 -0.000166 -0.000081 0 0 0 0
 917400000 -0.050010  0.013827 -0.000157 -0.000049 0 0 0 0
 917700000 -0.049731  0.014315 -0.000171 -0.000063 0 0 0 0
 918000000 -0.050725  0.015801 -0.000225 -0.000090 0 0 0 0
 918300000 -0.049353  0.016532 -0.000166 -0.000104 0 0 0 0
 918600000 -0.049781  0.017839 -0.000117 -0.000072 0 0 0 0
 918900000 -0.049890  0.018809 -0.000168 -0.000048 0 0 0 0
 919200000 -0.049876  0.019401 -0.000162 -0.000059 0 0 0 0
 919500000 -0.049065  0.020897 -0.000149 -0.000110 0 0 0 0
 919800000 -0.048757  0.022668 -0.000123 -0.000014 0 0 0 0
 920100000 -0.048630  0.022048 -0.000117 -0.000081 0 0 0 0
 920400000 -0.049347  0.023075 -0.000171 -0.000066 0 0 0 0
 920700000 -0.049393  0.024641 -0.000185 -0.000124 0 0 0 0
 921000000 -0.050380  0.025306 -0.000179 -0.000068 0 0 0 0
 921300000 -0.049668  0.026273 -0.000183 -0.000030 0 0 0 0
 921600000 -0.048713  0.026406 -0.000168 -0.000021 0 0 0 0
 921900000 -0.049603  0.027923 -0.000156 -0.000060 0 0 0 0
 922200000 -0.049013  0.029026 -0.000124 -0.000080 0 0 0 0
 922500000 -0.048491  0.029084 -0.000232 -0.000093 0 0 0 0
 922800000 -0.047829  0.030760 -0.000130 -0.000026 0 0 0 0
 923100000 -0.047486  0.030780 -0.000221 -0.000006 0 0 0 0
 923400000 -0.048104  0.032760 -0.000210 -0.000022 0 0 0 0
 923700000 -0.047176  0.033445 -0.000157 -0.000095 0 0 0 0
 924000000 -0.047721  0.034066 -0.000199  0.000011 0 0 0 0
 924300000 -0.046524  0.034674 -0.000179 -0.000039 0 0 0 0
 924600000 -0.047301  0.035672 -0.000177 -0.000000 0 0 0 0
 924900000 -0.046884  0.036534 -0.000138  0.000008 0 0 0 0
 925200000 -0.045814  0.037397 -0.000160 -0.000020 0 0 0 0
 925500000 -0.045082  0.037973 -0.000185 -0.000043 0 0 0 0
 925800000 -0.045267  0.038783 -0.000196  0.000004 0 0 0 0
 926100000 -0.044777  0.038752 -0.000212 -0.000029 0 0 0 0
 926400000 -0.044575  0.039685 -0.000205  0.000024 0 0 0 0
 926700000 -0.042555  0.040866 -0.000204  0.000028 0 0 0 0
 927000000 -0.042919  0.041157 -0.000216 -0.000027 0 0 0 0
 927300000 -0.041452  0.042881 -0.000234  0.000108 0 0 0 0
 927600000 -0.041878  0.043209 -0.000224  0.000022 0 0 0 0
 927900000 -0.042030  0.044349 -0.000174  0.000071 0 0 0 0
 928200000 -0.041615  0.045531 -0.000215  0.000036 0 0 0 0
 928500000 -0.040863  0.046147 -0.000180  0.000051 0 0 0 0
 928800000 -0.040262  0.046679 -0.000210  0.000116 0 0 0 0
 929100000 -0.039224  0.046634 -0.000251  0.000077 0 0 0 0
 929400000 -0.039652  0.047671 -0.000225 -0.000016 0 0 0 0
 929700000 -0.039081  0.048132 -0.000160  0.000066 0 0 0 0
 930000000 -0.038339  0.048796 -0.000226  0.000069 0 0 0 0
 930300000 -0.036563  0.049634 -0.000179  0.000082 0 0 0 0
 930600000 -0.034765  0.050462 -0.000185  0.000059 0 0 0 0
 930900000 -0.033651  0.051525 -0.000208  0.000027 0 0 0 0
 931200000 -0.035086  0.051609 -0.000169  0.000069 0 0 0 0
 931500000 -0.034317  0.051997 -0.000272  0.000109 0 0 0 0
 931800000 -0.033284  0.053566 -0.000184  0.000104 0 0 0 0
 932100000 -0.033799  0.053325 -0.000174  0.000097 0 0 0 0
 932400000 -0.032228  0.054472 -0.000243  0.000075 0 0 0 0
 932700000 -0.032055  0.054581 -0.000208  0.000073 0 0 0 0
 933000000 -0.030655  0.055120 -0.000196  0.000122 0 0 0 0
 933300000 -0.031550  0.055610 -0.000162  0.000135 0 0 0 0
 933600000 -0.029375  0.056654 -0.000184  0.000100 0 0 0 0
 933900000 -0.028599  0.056424 -0.000222  0.000110 0 0 0 0
 934200000 -0.027758  0.057060 -0.000205  0.000140 0 0 0 0
 934500000 -0.025475  0.057492 -0.000253  0.000140 0 0 0 0
 934800000 -0.024933  0.057838 -0.000191  0.000141 0 0 0 0
 935100000 -0.025838  0.058177 -0.000226  0.000156 0 0 0 0
 935400000 -0.024059  0.059022 -0.000203  0.000189 0 0 0 0
 935700000 -0.024117  0.059507 -0.000239  0.000090 0 0 0 0
 936000000 -0.022954  0.059753 -0.000241  0.000123 0 0 0 0
 936300000 -0.022799  0.059851 -0.000214  0.000257 0 0 0 0
 936600000 -0.021448  0.060489 -0.000273  0.000195 0 0 0 0
 936900000 -0.021734  0.061021 -0.000222  0.000255 0 0 0 0
 937200000 -0.020765  0.060324 -0.000224  0.000302 0 0 0 0
 937500000 -0.018923  0.060918 -0.000250  0.000268 0 0 0 0
 937800000 -0.018703  0.061284 -0.000240  0.000244 0 0 0 0
 938100000 -0.015964  0.061537 -0.000214  0.000224 0 0 0 0
 938400000 -0.015794  0.061739 -0.000221  0.000261 0 0 0 0
 938700000 -0.015288  0.062564 -0.000280  0.000312 0 0 0 0
 939000000 -0.015063  0.062359 -0.000260  0.000333 0 0 0 0
 939300000 -0.014750  0.062657 -0.000283  0.000344 0 0 0 0
 939600000 -0.013222  0.063764 -0.000251  0.000321 0 0 0 0
 939900000 -0.013116  0.063222 -0.000215  0.000364 0 0 0 0
 940200000 -0.011775  0.063004 -0.000254  0.000409 0 0 0 0
 940500000 -0.011065  0.063166 -0.000254  0.000373 0 0 0 0
 940800000 -0.009884  0.063462 -0.000227  0.000397 0 0 0 0
 941100000 -0.009303  0.063694 -0.000252  0.000475 0 0 0 0
 941400000 -0.008300  0.064035 -0.000325  0.000443 0 0 0 0
 941700000 -0.006245  0.063632 -0.000268  0.000458 0 0 0 0
 942000000 -0.005598  0.062930 -0.000282  0.000493 0 0 0 0
 942300000 -0.006190  0.063926 -0.000263  0.000579 0 0 0 0
 942600000 -0.004774  0.063822 -0.000328  0.000511 0 0 0 0
 942900000 -0.004567  0.064547 -0.000255  0.000590 0 0 0 0
 943200000 -0.003174  0.063950 -0.000228  0.000575 0 0 0 0
 943500000 -0.003101  0.064337 -0.000198  0.000617 0 0 0 0
 943800000 -0.001231  0.063094 -0.000227  0.000669 0 0 0 0
 944100000 -0.001792  0.064478 -0.000226  0.000643 0 0 0 0
 944400000 -0.000171  0.064211 -0.000137  0.000728 0 0 0 0
 944700000  0.000249  0.063847 -0.000288  0.000781 0 0 0 0
 945000000  0.002419  0.064121 -0.000214  0.000805 0 0 0 0
 945300000  0.002822  0.063884 -0.000188  0.000866 0 0 0 0
 945600000  0.004013  0.063022 -0.000184  0.000955 0 0 0 0
 945900000  0.004870  0.063571 -0.000173  0.000923 0 0 0 0
 946200000  0.005456  0.063427 -0.000114  0.001015 0 0 0 0
 946500000  0.006980  0.062786 -0.000119  0.001064 0 0 0 0
 946800000  0.007387  0.063085 -0.000084  0.001113 0 0 0 0
 947100000  0.007697  0.062570 -0.000020  0.001186 0 0 0 0
 947400000  0.008669  0.061957 -0.000012  0.001268 0 0 0 0
 947700000  0.008679  0.062807 -0.000015  0.001427 0 0 0 0
 948000000  0.010075  0.062221  0.000084  0.001412 0 0 0 0
 948300000  0.011141  0.062115  0.000098  0.001571 0 0 0 0
 948600000  0.012925  0.061253  0.000176  0.001668 0 0 0 0
 948900000  0.014961  0.059779  0.000315  0.001782 0 0 0 0
 949200000  0.015340  0.059703  0.000347  0.001900 0 0 0 0
 949500000  0.015487  0.059792  0.000539  0.002141 0 0 0 0
 949800000  0.015660  0.059527  0.000746  0.002179 0 0 0 0
 950100000  0.016614  0.059612  0.000865  0.002314 0 0 0 0
 950400000  0.017045  0.058596  0.001192  0.002564 0 0 0 0
 950700000  0.017368  0.058144  0.001444  0.002620 0 0 0 0
 951000000  0.018704  0.058033  0.001732  0.002737 0 0 0 0
 951300000  0.020021  0.057676  0.002060  0.002741 0 0 0 0
 951600000  0.019481  0.058066  0.002392  0.002796 0 0 0 0
 951900000  0.020622  0.057221  0.002519  0.002784 0 0 0 0
 952200000  0.021697  0.055841  0.002815  0.003102 0 0 0 0
 952500000  0.023883  0.055149  0.003386  0.003062 0 0 0 0
 952800000  0.023042  0.054471  0.003871  0.002876 0 0 0 0
 953100000  0.024450  0.054945  0.003997  0.002520 0 0 0 0
 953400000  0.024315  0.053721  0.003261  0.001749 0 0 0 0
 953700000  0.025363  0.052985  0.000374  0.001599 0 0 0 0
 954000000  0.026103  0.052453 -0.006740  0.005740 0 0 0 0
 954300000  0.026474  0.051837 -0.013846  0.027534 0 0 0 0
 954600000  0.026647  0.051108  0.025297  0.065257 0 0 0 0
 954900000  0.027511  0.051550  0.082248  0.031270 0 0 0 0
 955200000  0.028304  0.049943  0.090484 -0.024621 0 0 0 0
 955500000  0.028512  0.050262  0.069037 -0.070523 0 0 0 0
 955800000  0.029614  0.048253  0.031231 -0.096893 0 0 0 0
 956100000  0.030293  0.048032 -0.018875 -0.102121 0 0 0 0
 956400000  0.031325  0.047603 -0.066423 -0.082153 0 0 0 0
 956700000  0.033155  0.045617 -0.100044 -0.035746 0 0 0 0
 957000000  0.032387  0.045876 -0.096607  0.033267 0 0 0 0
 957300000  0.032797  0.045293 -0.028488  0.074088 0 0 0 0
 957600000  0.033503  0.044199  0.017433  0.032726 0 0 0 0
 957900000  0.033394  0.044624  0.009002  0.005957 0 0 0 0
 958200000  0.034776  0.042728  0.000116  0.001455 0 0 0 0
 958500000  0.034975  0.042472 -0.003428  0.001965 0 0 0 0
 958800000  0.035067  0.041946 -0.004394  0.002862 0 0 0 0
 959100000  0.035995  0.040631 -0.003914  0.003688 0 0 0 0
 959400000  0.036288  0.040092 -0.003382  0.003913 0 0 0 0
 959700000  0.038129  0.037655 -0.002786  0.003962 0 0 0 0
 960000000  0.038752  0.036855 -0.002257  0.003747 0 0 0 0
