!File created by NanoVNA-F V2
# Hz S RI R 50
 900000000 -0.015528 -0.023099  0.000746  0.000380 0 0 0 0
 900300000 -0.016290 -0.023720  0.000752  0.000288 0 0 0 0
 900600000 -0.017101 -0.023072  0.000724  0.000316 0 0 0 0
 900900000 -0.017395 -0.023273  0.000840  0.000283 0 0 0 0
 901200000 -0.018958 -0.023369  0.000818  0.000329 0 0 0 0
 901500000 -0.019722 -0.022365  0.000947  0.000271 0 0 0 0
 901800000 -0.019950 -0.022680  0.000959  0.000293 0 0 0 0
 902100000 -0.020642 -0.022462  0.001070  0.000230 0 0 0 0
 902400000 -0.021788 -0.022183  0.001165  0.000165 0 0 0 0
 902700000 -0.021996 -0.022096  0.001257  0.000149 0 0 0 0
 903000000 -0.022522 -0.021842  0.001339  0.000051 0 0 0 0
 903300000 -0.024300 -0.021476  0.001497  0.000044 0 0 0 0
 903600000 -0.025422 -0.020918  0.001547 -0.000101 0 0 0 0
 903900000 -0.025227 -0.020005  0.001660 -0.000097 0 0 0 0
 904200000 -0.027101 -0.020738  0.001804 -0.000158 0 0 0 0
 904500000 -0.027945 -0.019751  0.001934 -0.000253 0 0 0 0
 904800000 -0.028772 -0.018465  0.001981 -0.000299 0 0 0 0
 905100000 -0.030109 -0.018939  0.002230 -0.000487 0 0 0 0
 905400000 -0.030039 -0.018370  0.002352 -0.000725 0 0 0 0
 905700000 -0.030321 -0.017997  0.002468 -0.000888 0 0 0 0
 906000000 -0.031162 -0.017349  0.002668 -0.001098 0 0 0 0
 906300000 -0.032415 -0.016784  0.002820 -0.001417 0 0 0 0
 906600000 -0.032588 -0.016260  0.002888 -0.001781 0 0 0 0
 906900000 -0.032928 -0.015810  0.003005 -0.002260 0 0 0 0
 907200000 -0.033921 -0.015565  0.002967 -0.002760 0 0 0 0
 907500000 -0.035495 -0.014027  0.002768 -0.002991 0 0 0 0
 907800000 -0.036332 -0.014040  0.002827 -0.003268 0 0 0 0
 908100000 -0.036439 -0.013367  0.003044 -0.003638 0 0 0 0
 908400000 -0.037312 -0.012717  0.002751 -0.004223 0 0 0 0
 908700000 -0.037920 -0.011986  0.002289 -0.004629 0 0 0 0
 909000000 -0.037597 -0.011372  0.001684 -0.004446 0 0 0 0
 909300000 -0.039026 -0.010884  0.000869 -0.003127 0 0 0 0
 909600000 -0.038653 -0.010899  0.001448  0.000477 0 0 0 0
 909900000 -0.040241 -0.010104  0.007121  0.007804 0 0 0 0
 910200000 -0.039930 -0.009421  0.032095  0.012614 0 0 0 0
 910500000 -0.040898 -0.007756  0.067155 -0.035702 0 0 0 0
 910800000 -0.041559 -0.007359  0.017682 -0.091137 0 0 0 0
 911100000 -0.042270 -0.006894 -0.033805 -0.092024 0 0 0 0
 911400000 -0.042864 -0.006341 -0.078148 -0.065668 0 0 0 0
 911700000 -0.042830 -0.004811 -0.103838 -0.019307 0 0 0 0
 912000000 -0.043199 -0.004279 -0.104508  0.027840 0 0 0 0
 912300000 -0.044724 -0.004271 -0.077303  0.076359 0 0 0 0
 912600000 -0.045238 -0.002037 -0.025766  0.106429 0 0 0 0
 912900000 -0.044980 -0.002292  0.046075  0.091996 0 0 0 0
 913200000 -0.045624 -0.001582  0.072378  0.014736 0 0 0 0
 913500000 -0.045366  0.000216  0.027444 -0.017001 0 0 0 0
 913800000 -0.045995 -0.000270  0.005300 -0.007857 0 0 0 0
 914100000 -0.046392  0.001753  0.001463  0.000337 0 0 0 0
 914400000 -0.045707  0.002172  0.001989  0.003829 0 0 0 0
 914700000 -0.047359  0.002280  0.003180  0.004587 0 0 0 0
 915000000 -0.047915  0.003459  0.003903  0.004504 0 0 0 0
 915300000 -0.047296  0.004405  0.004388  0.003783 0 0 0 0
 915600000 -0.048796  0.005785  0.004450  0.003103 0 0 0 0
 915900000 -0.048578  0.006413  0.004362  0.002463 0 0 0 0
 916200000 -0.048168  0.007316  0.004192  0.001852 0 0 0 0
 916500000 -0.049830  0.008069  0.003959  0.001501 0 0 0 0
 916800000 -0.049455  0.008901  0.003680  0.001044 0 0 0 0
 917100000 -0.050068  0.009343  0.003417  0.000829 0 0 0 0
 917400000 -0.050111  0.009781  0.003232  0.000511 0 0 0 0
 917700000 -0.049967  0.011389  0.002931  0.000150 0 0 0 0
 918000000 -0.049581  0.012193  0.002731  0.000068 0 0 0 0
 918300000 -0.050554  0.014563  0.002518 -0.000086 0 0 0 0
 918600000 -0.050174  0.014162  0.002266 -0.000217 0 0 0 0
 918900000 -0.050155  0.015808  0.002124 -0.000329 0 0 0 0
 919200000 -0.050140  0.016799  0.001912 -0.000375 0 0 0 0
 919500000 -0.051122  0.018026  0.001854 -0.000390 0 0 0 0
 919800000 -0.050262  0.018178  0.001665 -0.000516 0 0 0 0
 920100000 -0.050756  0.020018  0.001520 -0.000541 0 0 0 0
 920400000 -0.050180  0.020080  0.001456 -0.000555 0 0 0 0
 920700000 -0.050765  0.021481  0.001337 -0.000602 0 0 0 0
 921000000 -0.050850  0.022120  0.001185 -0.000528 0 0 0 0
 921300000 -0.050997  0.023615  0.001088 -0.000656 0 0 0 0
 921600000 -0.049081  0.024187  0.000981 -0.000623 0 0 0 0
 921900000 -0.048999  0.025487  0.000899 -0.000591 0 0 0 0
 922200000 -0.048826  0.026275  0.000904 -0.000595 0 0 0 0
 922500000 -0.049101  0.027376  0.000804 -0.000630 0 0 0 0
 922800000 -0.048706  0.027433  0.000757 -0.000624 0 0 0 0
 923100000 -0.049508  0.028296  0.000692 -0.000570 0 0 0 0
 923400000 -0.049527  0.029201  0.000659 -0.000535 0 0 0 0
 923700000 -0.048846  0.030391  0.000579 -0.000537 0 0 0 0
 924000000 -0.048222  0.031166  0.000495 -0.000517 0 0 0 0
 924300000 -0.049478  0.031279  0.000484 -0.000497 0 0 0 0
 924600000 -0.048714  0.032424  0.000481 -0.000536 0 0 0 0
 924900000 -0.048179  0.033280  0.000436 -0.000496 0 0 0 0
 925200000 -0.047011  0.034437  0.000388 -0.000523 0 0 0 0
 925500000 -0.047095  0.034943  0.000340 -0.000509 0 0 0 0
 925800000 -0.046568  0.036276  0.000361 -0.000479 0 0 0 0
 926100000 -0.046087  0.036610  0.000265 -0.000502 0 0 0 0
 926400000 -0.045693  0.037335  0.000299 -0.000450 0 0 0 0
 926700000 -0.045407  0.038453  0.000282 -0.000464 0 0 0 0
 927000000 -0.045520  0.039269  0.000225 -0.000423 0 0 0 0
 927300000 -0.044802  0.039897  0.000104 -0.000425 0 0 0 0
 927600000 -0.044181  0.041138  0.000200 -0.000402 0 0 0 0
 927900000 -0.044450  0.041536  0.000151 -0.000381 0 0 0 0
 928200000 -0.043926  0.041732  0.000122 -0.000400 0 0 0 0
 928500000 -0.043480  0.043207  0.000170 -0.000432 0 0 0 0
 928800000 -0.042099  0.043862  0.000143 -0.000403 0 0 0 0
 929100000 -0.041845  0.044708  0.000120 -0.000342 0 0 0 0
 929400000 -0.039095  0.045619  0.000053 -0.000354 0 0 0 0
 929700000 -0.040256  0.046075  0.000041 -0.000414 0 0 0 0
 930000000 -0.039706  0.047067  0.000110 -0.000361 0 0 0 0
 930300000 -0.039056  0.047437  0.000089 -0.000303 0 0 0 0
 930600000 -0.039078  0.047933  0.000060 -0.000301 0 0 0 0
 930900000 -0.038585  0.049352  0.000026 -0.000306 0 0 0 0
 931200000 -0.037893  0.049481  0.000064 -0.000308 0 0 0 0
 931500000 -0.037929  0.049905  0.000047 -0.000327 0 0 0 0
 931800000 -0.035666  0.051046  0.000016 -0.000356 0 0 0 0
 932100000 -0.035106  0.051179  0.000045 -0.000291 0 0 0 0
 932400000 -0.034477  0.052444  0.000024 -0.000287 0 0 0 0
 932700000 -0.032413  0.052145 -0.000042 -0.000293 0 0 0 0
 933000000 -0.032958  0.053519 -0.000004 -0.000242 0 0 0 0
 933300000 -0.030920  0.053899  0.000063 -0.000247 0 0 0 0
 933600000 -0.031235  0.054413  0.000014 -0.000208 0 0 0 0
 933900000 -0.030540  0.054607  0.000059 -0.000252 0 0 0 0
 934200000 -0.029938  0.055586 -0.000033 -0.000225 0 0 0 0
 934500000 -0.030416  0.056076  0.000004 -0.000180 0 0 0 0
 934800000 -0.029340  0.056424  0.000004 -0.000260 0 0 0 0
 935100000 -0.027518  0.056649 -0.000026 -0.000198 0 0 0 0
 935400000 -0.028388  0.057213  0.000010 -0.000162 0 0 0 0
 935700000 -0.026396  0.057517 -0.000068 -0.000182 0 0 0 0
 936000000 -0.025462  0.058164 -0.000070 -0.000211 0 0 0 0
 936300000 -0.023439  0.057845 -0.000065 -0.000163 0 0 0 0
 936600000 -0.022433  0.059077 -0.000109 -0.000191 0 0 0 0
 936900000 -0.021831  0.059000 -0.000001 -0.000158 0 0 0 0
 937200000 -0.022520  0.059884 -0.000064 -0.000226 0 0 0 0
 937500000 -0.021759  0.060083 -0.000004 -0.000141 0 0 0 0
 937800000 -0.021162  0.060293 -0.000105 -0.000119 0 0 0 0
 938100000 -0.020096  0.060830  0.000006 -0.000088 0 0 0 0
 938400000 -0.019834  0.060629  0.000033 -0.000103 0 0 0 0
 938700000 -0.018125  0.061183 -0.000056 -0.000132 0 0 0 0
 939000000 -0.017414  0.061154 -0.000015 -0.000128 0 0 0 0
 939300000 -0.016881  0.061740  0.000017 -0.000137 0 0 0 0
 939600000 -0.016587  0.062020 -0.000047 -0.000114 0 0 0 0
 939900000 -0.015714  0.062410 -0.000022 -0.000128 0 0 0 0
 940200000 -0.012165  0.062381 -0.000024 -0.000095 0 0 0 0
 940500000 -0.011694  0.062532 -0.000031 -0.000086 0 0 0 0
 940800000 -0.012441  0.062609 -0.000072 -0.000030 0 0 0 0
 941100000 -0.011730  0.062987 -0.000027 -0.000108 0 0 0 0
 941400000 -0.011247  0.063166 -0.000074 -0.000087 0 0 0 0
 941700000 -0.010061  0.063944 -0.000150 -0.000104 0 0 0 0
 942000000 -0.009852  0.063297 -0.000113 -0.000030 0 0 0 0
 942300000 -0.008080  0.063715 -0.000049 -0.000107 0 0 0 0
 942600000 -0.008784  0.064070 -0.000066 -0.000074 0 0 0 0
 942900000 -0.006826  0.064765 -0.000045 -0.000126 0 0 0 0
 943200000 -0.006290  0.063425 -0.000042 -0.000079 0 0 0 0
 943500000 -0.004401  0.063572 -0.000082 -0.000132 0 0 0 0
 943800000 -0.001356  0.063629 -0.000140 -0.000057 0 0 0 0
 944100000 -0.001081  0.063333 -0.000060 -0.000104 0 0 0 0
 944400000 -0.001411  0.063059 -0.000119  0.000013 0 0 0 0
 944700000 -0.000699  0.063735 -0.000056 -0.000101 0 0 0 0
 945000000 -0.000140  0.063951 -0.000141 -0.000064 0 0 0 0
 945300000  0.000868  0.063359 -0.000064 -0.000111 0 0 0 0
 945600000  0.001401  0.063855 -0.000061 -0.000122 0 0 0 0
 945900000  0.002418  0.062940 -0.000125 -0.000056 0 0 0 0
 946200000  0.003549  0.062447 -0.000081 -0.000094 0 0 0 0
 946500000  0.003580  0.063618 -0.000130 -0.000061 0 0 0 0
 946800000  0.004040  0.063811 -0.000075 -0.000125 0 0 0 0
 947100000  0.006865  0.062279 -0.000091 -0.000048 0 0 0 0
 947400000  0.009871  0.061001 -0.000120 -0.000041 0 0 0 0
 947700000  0.009693  0.060866 -0.000121 -0.000107 0 0 0 0
 948000000  0.010429  0.061104 -0.000020 -0.000064 0 0 0 0
 948300000  0.010102  0.061534 -0.000086 -0.000054 0 0 0 0
 948600000  0.011115  0.061269 -0.000088 -0.000051 0 0 0 0
 948900000  0.010945  0.060919 -0.000086 -0.000022 0 0 0 0
 949200000  0.011826  0.060819 -0.000156 -0.000074 0 0 0 0
 949500000  0.013061  0.060332 -0.000106 -0.000149 0 0 0 0
 949800000  0.014273  0.059890 -0.000113 -0.000116 0 0 0 0
 950100000  0.014659  0.060358 -0.000081 -0.000037 0 0 0 0
 950400000  0.015610  0.059685 -0.000076 -0.000031 0 0 0 0
 950700000  0.016841  0.058470 -0.000098 -0.000074 0 0 0 0
 951000000  0.019427  0.057134 -0.000086 -0.000043 0 0 0 0
 951300000  0.018659  0.056936 -0.000080 -0.000102 0 0 0 0
 951600000  0.018992  0.056798 -0.000116 -0.000088 0 0 0 0
 951900000  0.019961  0.056187 -0.000131 -0.000038 0 0 0 0
 952200000  0.020741  0.055340 -0.000150 -0.000126 0 0 0 0
 952500000  0.020800  0.055540 -0.000042 -0.000093 0 0 0 0
 952800000  0.022126  0.054685 -0.000113 -0.000074 0 0 0 0
 953100000  0.021983  0.054975 -0.000110 -0.000032 0 0 0 0
 953400000  0.023564  0.054021 -0.000017 -0.000061 0 0 0 0
 953700000  0.023545  0.054239 -0.000028 -0.000017 0 0 0 0
 954000000  0.025964  0.051662 -0.000076  0.000021 0 0 0 0
 954300000  0.027138  0.051150 -0.000100 -0.000010 0 0 0 0
 954600000  0.027023  0.050203 -0.000058 -0.000028 0 0 0 0
 954900000  0.026615  0.051018 -0.000074 -0.000035 0 0 0 0
 955200000  0.026951  0.049821 -0.000038 -0.000072 0 0 0 0
 955500000  0.027632  0.049994 -0.000021 -0.000036 0 0 0 0
 955800000  0.028916  0.048479 -0.000039 -0.000006 0 0 0 0
 956100000  0.029509  0.048205 -0.000115 -0.000050 0 0 0 0
 956400000  0.030165  0.047235 -0.000068 -0.000054 0 0 0 0
 956700000  0.030000  0.047295 -0.000067  0.000032 0 0 0 0
 957000000  0.030683  0.045999 -0.000041  0.000045 0 0 0 0
 957300000  0.031139  0.045958 -0.000059 -0.000037 0 0 0 0
 957600000  0.031953  0.044790 -0.000042 -0.000002 0 0 0 0
 957900000  0.032823  0.044087 -0.000051  0.000062 0 0 0 0
 958200000  0.033280  0.043341 -0.000106  0.000019 0 0 0 0
 958500000  0.034175  0.042176 -0.000045  0.000023 0 0 0 0
 958800000  0.034159  0.042079 -0.000011  0.000031 0 0 0 0
 959100000  0.035712  0.040399 -0.000008  0.000074 0 0 0 0
 959400000  0.034748  0.040028 -0.000072  0.000089 0 0 0 0
 959700000  0.036135  0.039104 -0.000047  0.000027 0 0 0 0
 960000000  0.036525  0.038173 -0.000003  0.000050 0 0 0 0
