!File created by NanoVNA-F V2
# Hz S RI R 50
 900000000 -0.014523 -0.027219 -0.000045 -0.000047 0 0 0 0
 900300000 -0.015659 -0.025960 -0.000048 -0.000038 0 0 0 0
 900600000 -0.015995 -0.026778 -0.000066 -0.000039 0 0 0 0
 900900000 -0.016719 -0.026449 -0.000091 -0.000065 0 0 0 0
 901200000 -0.018232 -0.026005 -0.000052  0.000028 0 0 0 0
 901500000 -0.019585 -0.026055 -0.000087 -0.000066 0 0 0 0
 901800000 -0.019787 -0.024874 -0.000139 -0.000058 0 0 0 0
 902100000 -0.020459 -0.025249 -0.000093 -0.000036 0 0 0 0
 902400000 -0.021153 -0.024976 -0.000049 -0.000075 0 0 0 0
 902700000 -0.022268 -0.025271 -0.000077 -0.000108 0 0 0 0
 903000000 -0.023643 -0.024681 -0.000090 -0.000094 0 0 0 0
 903300000 -0.023806 -0.024551 -0.000140 -0.000136 0 0 0 0
 903600000 -0.025973 -0.023180 -0.000054 -0.000087 0 0 0 0
 903900000 -0.025977 -0.023193 -0.000085 -0.000056 0 0 0 0
 904200000 -0.027385 -0.023126 -0.000102 -0.000089 0 0 0 0
 904500000 -0.028225 -0.022430 -0.000094 -0.000111 0 0 0 0
 904800000 -0.028271 -0.021502 -0.000122 -0.000010 0 0 0 0
 905100000 -0.029349 -0.021190 -0.000068 -0.000152 0 0 0 0
 905400000 -0.028401 -0.020595 -0.000103 -0.000205 0 0 0 0
 905700000 -0.030254 -0.019747 -0.000096 -0.000134 0 0 0 0
 906000000 -0.031301 -0.020161 -0.000097 -0.000096 0 0 0 0
 906300000 -0.032656 -0.019311 -0.000135 -0.000137 0 0 0 0
 906600000 -0.033450 -0.018321 -0.000098 -0.000099 0 0 0 0
 906900000 -0.034037 -0.017920 -0.000128 -0.000147 0 0 0 0
 907200000 -0.033514 -0.017839 -0.000078  0.000006 0 0 0 0
 907500000 -0.034374 -0.017886 -0.000098 -0.000145 0 0 0 0
 907800000 -0.035777 -0.017352 -0.000130 -0.000122 0 0 0 0
 908100000 -0.036100 -0.016076 -0.000182 -0.000112 0 0 0 0
 908400000 -0.036636 -0.015721 -0.000088 -0.000068 0 0 0 0
 908700000 -0.037616 -0.014859 -0.000157 -0.000137 0 0 0 0
 909000000 -0.037865 -0.013903 -0.000110 -0.000100 0 0 0 0
 909300000 -0.038265 -0.013416 -0.000165 -0.000182 0 0 0 0
 909600000 -0.039797 -0.013323 -0.000140 -0.000073 0 0 0 0
 909900000 -0.041676 -0.011656 -0.000080 -0.000121 0 0 0 0
 910200000 -0.040568 -0.011549 -0.000220 -0.000139 0 0 0 0
 910500000 -0.041617 -0.011167 -0.000182 -0.000126 0 0 0 0
 910800000 -0.042785 -0.009421 -0.000205 -0.000169 0 0 0 0
 911100000 -0.042064 -0.009165 -0.000180 -0.000175 0 0 0 0
 911400000 -0.043477 -0.009158 -0.000159 -0.000212 0 0 0 0
 911700000 -0.043100 -0.007477 -0.000090 -0.000162 0 0 0 0
 912000000 -0.044101 -0.007236 -0.000179 -0.000133 0 0 0 0
 912300000 -0.043891 -0.006741 -0.000121 -0.000178 0 0 0 0
 912600000 -0.044657 -0.005390 -0.000112 -0.000146 0 0 0 0
 912900000 -0.045970 -0.004545 -0.000114 -0.000159 0 0 0 0
 913200000 -0.045852 -0.003625 -0.000177 -0.000184 0 0 0 0
 913500000 -0.045949 -0.002772 -0.000201 -0.000081 0 0 0 0
 913800000 -0.047173 -0.002138 -0.000161 -0.000073 0 0 0 0
 914100000 -0.047162 -0.001405 -0.000105 -0.000142 0 0 0 0
 914400000 -0.046545 -0.000554 -0.000205 -0.000161 0 0 0 0
 914700000 -0.047520  0.000128 -0.000170 -0.000088 0 0 0 0
 915000000 -0.048007  0.000615 -0.000186 -0.000195 0 0 0 0
 915300000 -0.048768  0.002130 -0.000229 -0.000147 0 0 0 0
 915600000 -0.048850  0.002665 -0.000226 -0.000085 0 0 0 0
 915900000 -0.048376  0.003963 -0.000212 -0.000082 0 0 0 0
 916200000 -0.049152  0.004535 -0.000196 -0.000124 0 0 0 0
 916500000 -0.049507  0.005403 -0.000183 -0.000086 0 0 0 0
 916800000 -0.050343  0.006679 -0.000168 -0.000036 0 0 0 0
 917100000 -0.050579  0.007344 -0.000154 -0.000087 0 0 0 0
 917400000 -0.050669  0.008147 -0.000119 -0.000122 0 0 0 0
 917700000 -0.050658  0.009033 -0.000221 -0.000081 0 0 0 0
 918000000 -0.051362  0.009774 -0.000247 -0.000141 0 0 0 0
 918300000 -0.051177  0.010350 -0.000175 -0.000127 0 0 0 0
 918600000 -0.051193  0.011970 -0.000214 -0.000086 0 0 0 0
 918900000 -0.051437  0.012425 -0.000220 -0.000166 0 0 0 0
 919200000 -0.051540  0.013595 -0.000278 -0.000111 0 0 0 0
 919500000 -0.051459  0.014733 -0.000215 -0.000070 0 0 0 0
 919800000 -0.050501  0.016496 -0.000195 -0.000097 0 0 0 0
 920100000 -0.050302  0.017376 -0.000276 -0.000116 0 0 0 0
 920400000 -0.051595  0.018608 -0.000237 -0.000075 0 0 0 0
 920700000 -0.050980  0.018498 -0.000200 -0.000057 0 0 0 0
 921000000 -0.051823  0.019117 -0.000222 -0.000075 0 0 0 0
 921300000 -0.051571  0.020464 -0.000279 -0.000058 0 0 0 0
 921600000 -0.051269  0.020559 -0.000227 -0.000099 0 0 0 0
 921900000 -0.051243  0.021977 -0.000242 -0.000097 0 0 0 0
 922200000 -0.052053  0.022240 -0.000189 -0.000077 0 0 0 0
 922500000 -0.050548  0.024208 -0.000271 -0.000048 0 0 0 0
 922800000 -0.050731  0.025242 -0.000241  0.000028 0 0 0 0
 923100000 -0.050377  0.025552 -0.000270 -0.000073 0 0 0 0
 923400000 -0.050268  0.026407 -0.000225 -0.000097 0 0 0 0
 923700000 -0.049861  0.027214 -0.000250  0.000022 0 0 0 0
 924000000 -0.049656  0.027854 -0.000265  0.000001 0 0 0 0
 924300000 -0.049712  0.028804 -0.000295 -0.000057 0 0 0 0
 924600000 -0.049540  0.030478 -0.000356 -0.000002 0 0 0 0
 924900000 -0.048278  0.030319 -0.000295  0.000092 0 0 0 0
 925200000 -0.049383  0.031762 -0.000352  0.000093 0 0 0 0
 925500000 -0.048612  0.032448 -0.000358 -0.000033 0 0 0 0
 925800000 -0.048391  0.032918 -0.000365  0.000014 0 0 0 0
 926100000 -0.047746  0.033733 -0.000369  0.000074 0 0 0 0
 926400000 -0.047847  0.034839 -0.000462  0.000085 0 0 0 0
 926700000 -0.046156  0.035828 -0.000390  0.000118 0 0 0 0
 927000000 -0.046247  0.036745 -0.000341  0.000112 0 0 0 0
 927300000 -0.044977  0.037356 -0.000448  0.000148 0 0 0 0
 927600000 -0.045523  0.037769 -0.000428  0.000076 0 0 0 0
 927900000 -0.045261  0.039374 -0.000424  0.000228 0 0 0 0
 928200000 -0.045525  0.040144 -0.000451  0.000083 0 0 0 0
 928500000 -0.044224  0.040529 -0.000420  0.000141 0 0 0 0
 928800000 -0.043533  0.041082 -0.000453  0.000132 0 0 0 0
 929100000 -0.042921  0.042011 -0.000466  0.000256 0 0 0 0
 929400000 -0.043741  0.042171 -0.000512  0.000234 0 0 0 0
 929700000 -0.042158  0.043145 -0.000484  0.000259 0 0 0 0
 930000000 -0.042260  0.043654 -0.000494  0.000300 0 0 0 0
 930300000 -0.040584  0.045136 -0.000471  0.000314 0 0 0 0
 930600000 -0.039130  0.045280 -0.000542  0.000418 0 0 0 0
 930900000 -0.038072  0.046386 -0.000588  0.000358 0 0 0 0
 931200000 -0.039235  0.046519 -0.000613  0.000331 0 0 0 0
 931500000 -0.038277  0.047708 -0.000624  0.000355 0 0 0 0
 931800000 -0.037400  0.047904 -0.000576  0.000439 0 0 0 0
 932100000 -0.037108  0.048442 -0.000666  0.000500 0 0 0 0
 932400000 -0.037150  0.049667 -0.000647  0.000538 0 0 0 0
 932700000 -0.035820  0.050278 -0.000706  0.000531 0 0 0 0
 933000000 -0.034940  0.050645 -0.000700  0.000644 0 0 0 0
 933300000 -0.034647  0.051760 -0.000773  0.000634 0 0 0 0
 933600000 -0.034775  0.051771 -0.000778  0.000748 0 0 0 0
 933900000 -0.032878  0.052057 -0.000809  0.000763 0 0 0 0
 934200000 -0.031516  0.053095 -0.000834  0.000901 0 0 0 0
 934500000 -0.031227  0.053454 -0.000866  0.000995 0 0 0 0
 934800000 -0.030843  0.054077 -0.000846  0.001023 0 0 0 0
 935100000 -0.030050  0.053619 -0.000970  0.001182 0 0 0 0
 935400000 -0.029293  0.054828 -0.000925  0.001269 0 0 0 0
 935700000 -0.028568  0.055326 -0.001038  0.001443 0 0 0 0
 936000000 -0.027390  0.055705 -0.001044  0.001595 0 0 0 0
 936300000 -0.027575  0.056302 -0.001028  0.001784 0 0 0 0
 936600000 -0.026961  0.056624 -0.001143  0.001902 0 0 0 0
 936900000 -0.026979  0.056603 -0.001182  0.002208 0 0 0 0
 937200000 -0.025412  0.056832 -0.001164  0.002440 0 0 0 0
 937500000 -0.024021  0.057758 -0.001192  0.002720 0 0 0 0
 937800000 -0.023232  0.057864 -0.001104  0.003121 0 0 0 0
 938100000 -0.021077  0.058014 -0.000926  0.003597 0 0 0 0
 938400000 -0.020104  0.058441 -0.000817  0.004048 0 0 0 0
 938700000 -0.021574  0.058721 -0.000573  0.004698 0 0 0 0
 939000000 -0.020211  0.059982  0.000063  0.005171 0 0 0 0
 939300000 -0.019627  0.059941  0.000489  0.005562 0 0 0 0
 939600000 -0.019615  0.060259  0.001362  0.005683 0 0 0 0
 939900000 -0.018228  0.060985  0.002072  0.005531 0 0 0 0
 940200000 -0.016330  0.060273  0.002238  0.004894 0 0 0 0
 940500000 -0.016671  0.060747  0.001653  0.003478 0 0 0 0
 940800000 -0.015509  0.060759 -0.002040  0.001054 0 0 0 0
 941100000 -0.013915  0.061190 -0.014315  0.001810 0 0 0 0
 941400000 -0.011834  0.060757 -0.033819  0.027587 0 0 0 0
 941700000 -0.011611  0.061239 -0.006779  0.084832 0 0 0 0
 942000000 -0.010530  0.060632  0.075748  0.085763 0 0 0 0
 942300000 -0.010441  0.061437  0.121090  0.018835 0 0 0 0
 942600000 -0.009813  0.062217  0.111486 -0.051891 0 0 0 0
 942900000 -0.008960  0.062236  0.071338 -0.097566 0 0 0 0
 943200000 -0.007414  0.061954  0.016604 -0.117664 0 0 0 0
 943500000 -0.007900  0.062574 -0.043011 -0.104851 0 0 0 0
 943800000 -0.005905  0.061824 -0.086152 -0.067035 0 0 0 0
 944100000 -0.006534  0.062652 -0.103426  0.001178 0 0 0 0
 944400000 -0.005415  0.062947 -0.042868  0.061474 0 0 0 0
 944700000 -0.005021  0.062393  0.006237  0.029423 0 0 0 0
 945000000 -0.001094  0.061783  0.004648  0.006616 0 0 0 0
 945300000 -0.000549  0.061578 -0.000891  0.000950 0 0 0 0
 945600000  0.000729  0.061585 -0.003602  0.000186 0 0 0 0
 945900000 -0.000200  0.061860 -0.004598  0.000566 0 0 0 0
 946200000  0.001311  0.062041 -0.004629  0.001233 0 0 0 0
 946500000  0.001715  0.061130 -0.004383  0.001435 0 0 0 0
 946800000  0.002405  0.061660 -0.003918  0.001572 0 0 0 0
 947100000  0.003058  0.060931 -0.003482  0.001652 0 0 0 0
 947400000  0.005369  0.060885 -0.003158  0.001702 0 0 0 0
 947700000  0.004449  0.061429 -0.002891  0.001761 0 0 0 0
 948000000  0.005574  0.060921 -0.002507  0.001748 0 0 0 0
 948300000  0.007150  0.060311 -0.002174  0.001690 0 0 0 0
 948600000  0.008611  0.059458 -0.001951  0.001704 0 0 0 0
 948900000  0.009757  0.059562 -0.001695  0.001637 0 0 0 0
 949200000  0.010356  0.059240 -0.001436  0.001566 0 0 0 0
 949500000  0.010618  0.058676 -0.001257  0.001476 0 0 0 0
 949800000  0.011951  0.058418 -0.001098  0.001366 0 0 0 0
 950100000  0.012774  0.057837 -0.000960  0.001230 0 0 0 0
 950400000  0.013356  0.057484 -0.000907  0.001154 0 0 0 0
 950700000  0.014448  0.057292 -0.000726  0.001210 0 0 0 0
 951000000  0.014641  0.056655 -0.000630  0.001116 0 0 0 0
 951300000  0.016207  0.056046 -0.000689  0.001100 0 0 0 0
 951600000  0.016270  0.056234 -0.000608  0.000976 0 0 0 0
 951900000  0.016729  0.056396 -0.000454  0.000990 0 0 0 0
 952200000  0.018585  0.053507 -0.000450  0.000963 0 0 0 0
 952500000  0.020529  0.053698 -0.000395  0.000873 0 0 0 0
 952800000  0.021688  0.053446 -0.000332  0.000875 0 0 0 0
 953100000  0.021765  0.053205 -0.000262  0.000818 0 0 0 0
 953400000  0.021684  0.052526 -0.000358  0.000718 0 0 0 0
 953700000  0.021928  0.051498 -0.000197  0.000690 0 0 0 0
 954000000  0.021843  0.051427 -0.000238  0.000702 0 0 0 0
 954300000  0.022322  0.051353 -0.000181  0.000696 0 0 0 0
 954600000  0.023061  0.050583 -0.000145  0.000618 0 0 0 0
 954900000  0.024387  0.049733 -0.000083  0.000596 0 0 0 0
 955200000  0.025191  0.048466 -0.000080  0.000578 0 0 0 0
 955500000  0.026050  0.047602 -0.000012  0.000605 0 0 0 0
 955800000  0.025974  0.047717 -0.000033  0.000587 0 0 0 0
 956100000  0.027190  0.046739 -0.000086  0.000538 0 0 0 0
 956400000  0.027232  0.046292 -0.000065  0.000507 0 0 0 0
 956700000  0.029638  0.044457 -0.000057  0.000449 0 0 0 0
 957000000  0.029136  0.044434  0.000036  0.000428 0 0 0 0
 957300000  0.029680  0.044100 -0.000031  0.000515 0 0 0 0
 957600000  0.030202  0.043500  0.000027  0.000508 0 0 0 0
 957900000  0.029555  0.042831  0.000070  0.000488 0 0 0 0
 958200000  0.030738  0.042159  0.000066  0.000514 0 0 0 0
 958500000  0.031976  0.041046  0.000053  0.000456 0 0 0 0
 958800000  0.032659  0.040493  0.000048  0.000468 0 0 0 0
 959100000  0.032669  0.039248  0.000089  0.000376 0 0 0 0
 959400000  0.033018  0.038906  0.000076  0.000443 0 0 0 0
 959700000  0.034873  0.036574  0.000107  0.000300 0 0 0 0
 960000000  0.034193  0.037290  0.000075  0.000333 0 0 0 0
