!File created by NanoVNA-F V2
# Hz S RI R 50
 900000000 -0.015010 -0.025199 -0.002395  0.000003 0 0 0 0
 900300000 -0.015277 -0.025517 -0.002540  0.000075 0 0 0 0
 900600000 -0.016379 -0.025069 -0.002780  0.000208 0 0 0 0
 900900000 -0.017067 -0.024047 -0.002951  0.000423 0 0 0 0
 901200000 -0.017723 -0.024718 -0.003190  0.000624 0 0 0 0
 901500000 -0.018408 -0.024083 -0.003297  0.000885 0 0 0 0
 901800000 -0.019264 -0.024474 -0.003574  0.001156 0 0 0 0
 902100000 -0.020742 -0.024909 -0.003708  0.001515 0 0 0 0
 902400000 -0.021254 -0.023546 -0.003892  0.001817 0 0 0 0
 902700000 -0.021901 -0.023035 -0.003859  0.002312 0 0 0 0
 903000000 -0.023008 -0.022945 -0.003794  0.002746 0 0 0 0
 903300000 -0.023923 -0.022773 -0.003509  0.003061 0 0 0 0
 903600000 -0.024072 -0.022111 -0.003051  0.003092 0 0 0 0
 903900000 -0.025478 -0.021796 -0.002116  0.002335 0 0 0 0
 904200000 -0.026385 -0.021417 -0.001164 -0.000160 0 0 0 0
 904500000 -0.027276 -0.021486 -0.001952 -0.006763 0 0 0 0
 904800000 -0.028152 -0.021442 -0.011698 -0.020185 0 0 0 0
 905100000 -0.028912 -0.020911 -0.054096 -0.027038 0 0 0 0
 905400000 -0.029354 -0.019800 -0.097953  0.046175 0 0 0 0
 905700000 -0.030327 -0.019898 -0.037025  0.116368 0 0 0 0
 906000000 -0.031033 -0.018323  0.035503  0.118203 0 0 0 0
 906300000 -0.032226 -0.018936  0.090102  0.086238 0 0 0 0
 906600000 -0.032171 -0.018184  0.122357  0.037562 0 0 0 0
 906900000 -0.032935 -0.017828  0.127079 -0.022457 0 0 0 0
 907200000 -0.034225 -0.016799  0.096599 -0.086879 0 0 0 0
 907500000 -0.034735 -0.015788  0.024142 -0.122492 0 0 0 0
 907800000 -0.034166 -0.016545 -0.058260 -0.089273 0 0 0 0
 908100000 -0.035397 -0.015272 -0.062027 -0.008544 0 0 0 0
 908400000 -0.036383 -0.014787 -0.022582  0.012133 0 0 0 0
 908700000 -0.037231 -0.014471 -0.005366  0.005417 0 0 0 0
 909000000 -0.037749 -0.013702 -0.001213 -0.000683 0 0 0 0
 909300000 -0.037711 -0.012186 -0.001023 -0.003903 0 0 0 0
 909600000 -0.039591 -0.012200 -0.001727 -0.004955 0 0 0 0
 909900000 -0.039413 -0.011614 -0.002544 -0.005052 0 0 0 0
 910200000 -0.039721 -0.010584 -0.002969 -0.004744 0 0 0 0
 910500000 -0.040923 -0.010083 -0.003312 -0.004175 0 0 0 0
 910800000 -0.041640 -0.009265 -0.003378 -0.003532 0 0 0 0
 911100000 -0.042060 -0.008353 -0.003371 -0.003035 0 0 0 0
 911400000 -0.042600 -0.007062 -0.003289 -0.002556 0 0 0 0
 911700000 -0.043458 -0.006714 -0.003192 -0.002166 0 0 0 0
 912000000 -0.043800 -0.006993 -0.003051 -0.001882 0 0 0 0
 912300000 -0.044336 -0.004915 -0.002881 -0.001567 0 0 0 0
 912600000 -0.044247 -0.004259 -0.002835 -0.001241 0 0 0 0
 912900000 -0.044752 -0.003556 -0.002688 -0.001001 0 0 0 0
 913200000 -0.045324 -0.003263 -0.002429 -0.000836 0 0 0 0
 913500000 -0.045147 -0.001980 -0.002303 -0.000575 0 0 0 0
 913800000 -0.046489 -0.001204 -0.002190 -0.000454 0 0 0 0
 914100000 -0.047234 -0.000974 -0.002076 -0.000399 0 0 0 0
 914400000 -0.047191  0.000132 -0.001919 -0.000213 0 0 0 0
 914700000 -0.047409  0.000625 -0.001763 -0.000083 0 0 0 0
 915000000 -0.047421  0.001798 -0.001740 -0.000088 0 0 0 0
 915300000 -0.047755  0.002435 -0.001558 -0.000028 0 0 0 0
 915600000 -0.049005  0.004106 -0.001482  0.000078 0 0 0 0
 915900000 -0.048258  0.004124 -0.001309  0.000077 0 0 0 0
 916200000 -0.048235  0.005477 -0.001228  0.000209 0 0 0 0
 916500000 -0.049067  0.006564 -0.001176  0.000173 0 0 0 0
 916800000 -0.049152  0.006951 -0.001097  0.000188 0 0 0 0
 917100000 -0.049778  0.008080 -0.001086  0.000215 0 0 0 0
 917400000 -0.050153  0.008994 -0.000935  0.000199 0 0 0 0
 917700000 -0.050562  0.009868 -0.000880  0.000207 0 0 0 0
 918000000 -0.051016  0.011444 -0.000952  0.000240 0 0 0 0
 918300000 -0.050784  0.012082 -0.000868  0.000229 0 0 0 0
 918600000 -0.050891  0.013041 -0.000788  0.000307 0 0 0 0
 918900000 -0.051466  0.013660 -0.000717  0.000266 0 0 0 0
 919200000 -0.050937  0.014626 -0.000686  0.000307 0 0 0 0
 919500000 -0.051337  0.015465 -0.000661  0.000234 0 0 0 0
 919800000 -0.051477  0.016908 -0.000562  0.000282 0 0 0 0
 920100000 -0.050976  0.017723 -0.000572  0.000289 0 0 0 0
 920400000 -0.050910  0.017841 -0.000577  0.000280 0 0 0 0
 920700000 -0.051696  0.019794 -0.000541  0.000318 0 0 0 0
 921000000 -0.051133  0.020289 -0.000462  0.000327 0 0 0 0
 921300000 -0.051010  0.021463 -0.000459  0.000333 0 0 0 0
 921600000 -0.050868  0.022290 -0.000497  0.000262 0 0 0 0
 921900000 -0.050523  0.023649 -0.000401  0.000270 0 0 0 0
 922200000 -0.050892  0.024020 -0.000343  0.000244 0 0 0 0
 922500000 -0.050570  0.025105 -0.000332  0.000293 0 0 0 0
 922800000 -0.050383  0.026095 -0.000376  0.000303 0 0 0 0
 923100000 -0.050253  0.026713 -0.000322  0.000283 0 0 0 0
 923400000 -0.050002  0.027756 -0.000288  0.000274 0 0 0 0
 923700000 -0.050023  0.028832 -0.000313  0.000244 0 0 0 0
 924000000 -0.049582  0.029262 -0.000203  0.000271 0 0 0 0
 924300000 -0.049633  0.030005 -0.000229  0.000295 0 0 0 0
 924600000 -0.048758  0.031108 -0.000218  0.000242 0 0 0 0
 924900000 -0.048683  0.031781 -0.000264  0.000224 0 0 0 0
 925200000 -0.048759  0.032832 -0.000180  0.000272 0 0 0 0
 925500000 -0.048227  0.033771 -0.000202  0.000199 0 0 0 0
 925800000 -0.047580  0.035203 -0.000151  0.000230 0 0 0 0
 926100000 -0.046934  0.035091 -0.000169  0.000251 0 0 0 0
 926400000 -0.046537  0.036100 -0.000185  0.000204 0 0 0 0
 926700000 -0.046588  0.037006 -0.000179  0.000248 0 0 0 0
 927000000 -0.046308  0.037169 -0.000170  0.000259 0 0 0 0
 927300000 -0.045928  0.038367 -0.000196  0.000248 0 0 0 0
 927600000 -0.044079  0.039706 -0.000061  0.000249 0 0 0 0
 927900000 -0.044241  0.040410 -0.000068  0.000197 0 0 0 0
 928200000 -0.044765  0.041336 -0.000099  0.000261 0 0 0 0
 928500000 -0.044768  0.042040 -0.000102  0.000173 0 0 0 0
 928800000 -0.043859  0.042544 -0.000142  0.000273 0 0 0 0
 929100000 -0.043229  0.043386 -0.000143  0.000216 0 0 0 0
 929400000 -0.042308  0.044034 -0.000108  0.000245 0 0 0 0
 929700000 -0.041077  0.045301 -0.000025  0.000148 0 0 0 0
 930000000 -0.040922  0.045807 -0.000019  0.000218 0 0 0 0
 930300000 -0.040236  0.046519 -0.000038  0.000162 0 0 0 0
 930600000 -0.038983  0.047009 -0.000063  0.000240 0 0 0 0
 930900000 -0.039315  0.047487 -0.000043  0.000140 0 0 0 0
 931200000 -0.038736  0.048883 -0.000032  0.000185 0 0 0 0
 931500000 -0.037755  0.049310 -0.000003  0.000140 0 0 0 0
 931800000 -0.037915  0.050009 -0.000007  0.000155 0 0 0 0
 932100000 -0.037377  0.050665 -0.000040  0.000125 0 0 0 0
 932400000 -0.035874  0.051823 -0.000000  0.000173 0 0 0 0
 932700000 -0.036609  0.051813 -0.000053  0.000100 0 0 0 0
 933000000 -0.034815  0.052621  0.000027  0.000210 0 0 0 0
 933300000 -0.034490  0.052779  0.000065  0.000142 0 0 0 0
 933600000 -0.033236  0.053785 -0.000013  0.000177 0 0 0 0
 933900000 -0.032046  0.054283  0.000071  0.000218 0 0 0 0
 934200000 -0.031950  0.054724  0.000077  0.000136 0 0 0 0
 934500000 -0.030936  0.055057  0.000050  0.000207 0 0 0 0
 934800000 -0.029742  0.055567  0.000081  0.000104 0 0 0 0
 935100000 -0.029554  0.056601  0.000066  0.000151 0 0 0 0
 935400000 -0.029305  0.056935 -0.000003  0.000151 0 0 0 0
 935700000 -0.028881  0.057052  0.000025  0.000134 0 0 0 0
 936000000 -0.027799  0.057481  0.000026  0.000201 0 0 0 0
 936300000 -0.026901  0.058431  0.000066  0.000150 0 0 0 0
 936600000 -0.025270  0.058643  0.000076  0.000120 0 0 0 0
 936900000 -0.024766  0.059398  0.000048  0.000117 0 0 0 0
 937200000 -0.024165  0.059508  0.000093  0.000185 0 0 0 0
 937500000 -0.023110  0.059868  0.000061  0.000097 0 0 0 0
 937800000 -0.022548  0.059764  0.000045  0.000122 0 0 0 0
 938100000 -0.021924  0.060462  0.000049  0.000133 0 0 0 0
 938400000 -0.021305  0.060377  0.000068  0.000076 0 0 0 0
 938700000 -0.020527  0.061126  0.000049  0.000208 0 0 0 0
 939000000 -0.020631  0.061406  0.000127  0.000168 0 0 0 0
 939300000 -0.019273  0.061654  0.000102  0.000117 0 0 0 0
 939600000 -0.017773  0.062053  0.000088  0.000139 0 0 0 0
 939900000 -0.016869  0.062190  0.000114  0.000130 0 0 0 0
 940200000 -0.015357  0.062306  0.000108  0.000099 0 0 0 0
 940500000 -0.016566  0.062920  0.000031  0.000084 0 0 0 0
 940800000 -0.013489  0.062355  0.000058  0.000095 0 0 0 0
 941100000 -0.012811  0.062979 -0.000003  0.000136 0 0 0 0
 941400000 -0.011121  0.062775  0.000092  0.000124 0 0 0 0
 941700000 -0.011456  0.062876  0.000064  0.000114 0 0 0 0
 942000000 -0.010592  0.062988  0.000112  0.000096 0 0 0 0
 942300000 -0.010262  0.063690  0.000104  0.000101 0 0 0 0
 942600000 -0.009195  0.063494  0.000045  0.000059 0 0 0 0
 942900000 -0.007922  0.063908  0.000044  0.000065 0 0 0 0
 943200000 -0.007350  0.064228  0.000107  0.000043 0 0 0 0
 943500000 -0.007044  0.064627 -0.000026  0.000090 0 0 0 0
 943800000 -0.005308  0.064134  0.000085  0.000091 0 0 0 0
 944100000 -0.004467  0.063828  0.000009  0.000053 0 0 0 0
 944400000 -0.003148  0.064225  0.000077  0.000045 0 0 0 0
 944700000 -0.000576  0.063637  0.000052  0.000075 0 0 0 0
 945000000 -0.001394  0.063693  0.000085  0.000050 0 0 0 0
 945300000 -0.000478  0.063896  0.000079  0.000070 0 0 0 0
 945600000 -0.000399  0.063636  0.000058  0.000025 0 0 0 0
 945900000  0.001496  0.064068  0.000036  0.000059 0 0 0 0
 946200000  0.002204  0.063654  0.000016  0.000005 0 0 0 0
 946500000  0.002808  0.063531 -0.000027  0.000030 0 0 0 0
 946800000  0.004711  0.063786  0.000044  0.000037 0 0 0 0
 947100000  0.004146  0.063117  0.000016  0.000042 0 0 0 0
 947400000  0.005350  0.063344  0.000074 -0.000036 0 0 0 0
 947700000  0.006380  0.062547 -0.000012 -0.000000 0 0 0 0
 948000000  0.007886  0.062785  0.000002  0.000018 0 0 0 0
 948300000  0.009958  0.061204  0.000005  0.000019 0 0 0 0
 948600000  0.011414  0.061341  0.000011  0.000023 0 0 0 0
 948900000  0.010208  0.061553  0.000047  0.000032 0 0 0 0
 949200000  0.012107  0.061758  0.000011 -0.000001 0 0 0 0
 949500000  0.011495  0.060698  0.000078 -0.000005 0 0 0 0
 949800000  0.013089  0.060490  0.000065 -0.000009 0 0 0 0
 950100000  0.013759  0.060539  0.000061 -0.000061 0 0 0 0
 950400000  0.014282  0.060163 -0.000005 -0.000037 0 0 0 0
 950700000  0.014260  0.060167  0.000028 -0.000006 0 0 0 0
 951000000  0.015389  0.059927  0.000054 -0.000013 0 0 0 0
 951300000  0.016803  0.058148  0.000016 -0.000005 0 0 0 0
 951600000  0.017942  0.058063  0.000044 -0.000042 0 0 0 0
 951900000  0.018373  0.057631  0.000057 -0.000015 0 0 0 0
 952200000  0.019473  0.056764  0.000028 -0.000037 0 0 0 0
 952500000  0.021744  0.055147  0.000031 -0.000074 0 0 0 0
 952800000  0.021111  0.056401  0.000072  0.000003 0 0 0 0
 953100000  0.021969  0.055112  0.000055 -0.000061 0 0 0 0
 953400000  0.022090  0.055041  0.000050 -0.000019 0 0 0 0
 953700000  0.022358  0.054369  0.000098 -0.000010 0 0 0 0
 954000000  0.024049  0.053849 -0.000022 -0.000016 0 0 0 0
 954300000  0.024257  0.053044  0.000032 -0.000005 0 0 0 0
 954600000  0.025508  0.053245  0.000050  0.000024 0 0 0 0
 954900000  0.024817  0.052610  0.000020 -0.000053 0 0 0 0
 955200000  0.026716  0.051781  0.000082 -0.000064 0 0 0 0
 955500000  0.028525  0.049947  0.000085 -0.000049 0 0 0 0
 955800000  0.029035  0.049355  0.000076  0.000035 0 0 0 0
 956100000  0.028091  0.049689  0.000042 -0.000015 0 0 0 0
 956400000  0.028697  0.048839  0.000045 -0.000026 0 0 0 0
 956700000  0.029955  0.047901  0.000018 -0.000080 0 0 0 0
 957000000  0.029873  0.047494  0.000073  0.000019 0 0 0 0
 957300000  0.031257  0.046459  0.000009  0.000026 0 0 0 0
 957600000  0.031604  0.045196 -0.000035 -0.000038 0 0 0 0
 957900000  0.032343  0.045359 -0.000020  0.000022 0 0 0 0
 958200000  0.032782  0.044031  0.000032 -0.000084 0 0 0 0
 958500000  0.032984  0.044843  0.000030  0.000026 0 0 0 0
 958800000  0.034195  0.042332  0.000034  0.000044 0 0 0 0
 959100000  0.036165  0.041137  0.000060 -0.000002 0 0 0 0
 959400000  0.036677  0.039764 -0.000002 -0.000002 0 0 0 0
 959700000  0.035004  0.040236  0.000071  0.000032 0 0 0 0
 960000000  0.036187  0.039649  0.000014  0.000041 0 0 0 0
