!File created by NanoVNA-F V2
# Hz S RI R 50
 900000000 -0.016974 -0.026637 -0.000058 -0.000006 0 0 0 0
 900300000 -0.019104 -0.026656  0.000005  0.000094 0 0 0 0
 900600000 -0.019035 -0.026079 -0.000025  0.000036 0 0 0 0
 900900000 -0.020098 -0.026554 -0.000045 -0.000005 0 0 0 0
 901200000 -0.020632 -0.025100 -0.000002  0.000069 0 0 0 0
 901500000 -0.021922 -0.025370  0.000045  0.000053 0 0 0 0
 901800000 -0.022939 -0.025722 -0.000074  0.000049 0 0 0 0
 902100000 -0.023429 -0.024226 -0.000064 -0.000005 0 0 0 0
 902400000 -0.024896 -0.024346 -0.000021  0.000039 0 0 0 0
 902700000 -0.025484 -0.024652 -0.000010  0.000049 0 0 0 0
 903000000 -0.026057 -0.023862 -0.000037  0.000040 0 0 0 0
 903300000 -0.026690 -0.023381 -0.000082  0.000021 0 0 0 0
 903600000 -0.027571 -0.023190  0.000025 -0.000013 0 0 0 0
 903900000 -0.028366 -0.021950 -0.000026  0.000047 0 0 0 0
 904200000 -0.029569 -0.022381 -0.000032 -0.000019 0 0 0 0
 904500000 -0.030089 -0.021355 -0.000040 -0.000024 0 0 0 0
 904800000 -0.031250 -0.020928 -0.000002 -0.000004 0 0 0 0
 905100000 -0.031257 -0.020611 -0.000049 -0.000004 0 0 0 0
 905400000 -0.032753 -0.019753 -0.000055  0.000003 0 0 0 0
 905700000 -0.033374 -0.019170  0.000032 -0.000045 0 0 0 0
 906000000 -0.033810 -0.018540 -0.000008  0.000067 0 0 0 0
 906300000 -0.034301 -0.018604 -0.000065 -0.000042 0 0 0 0
 906600000 -0.036031 -0.018047 -0.000078  0.000024 0 0 0 0
 906900000 -0.035902 -0.017141 -0.000046 -0.000047 0 0 0 0
 907200000 -0.036691 -0.016381 -0.000006 -0.000072 0 0 0 0
 907500000 -0.037435 -0.016410  0.000021 -0.000083 0 0 0 0
 907800000 -0.038353 -0.014208  0.000050 -0.000066 0 0 0 0
 908100000 -0.038827 -0.013531 -0.000036 -0.000054 0 0 0 0
 908400000 -0.039562 -0.014022 -0.000033 -0.000084 0 0 0 0
 908700000 -0.039884 -0.013035 -0.000083  0.000036 0 0 0 0
 909000000 -0.039800 -0.011448 -0.000008 -0.000048 0 0 0 0
 909300000 -0.040711 -0.011238 -0.000004 -0.000039 0 0 0 0
 909600000 -0.041786 -0.011202 -0.000035 -0.000089 0 0 0 0
 909900000 -0.043537 -0.010165  0.000037 -0.000090 0 0 0 0
 910200000 -0.042927 -0.009981  0.000034 -0.000096 0 0 0 0
 910500000 -0.043401 -0.009329  0.000074 -0.000040 0 0 0 0
 910800000 -0.044319 -0.009296  0.000028  0.000006 0 0 0 0
 911100000 -0.043995 -0.007634 -0.000066 -0.000131 0 0 0 0
 911400000 -0.045649 -0.006741  0.000024 -0.000074 0 0 0 0
 911700000 -0.044439 -0.006205 -0.000030 -0.000038 0 0 0 0
 912000000 -0.045625 -0.004762  0.000096 -0.000122 0 0 0 0
 912300000 -0.046280 -0.004518  0.000093 -0.000018 0 0 0 0
 912600000 -0.046912 -0.003375 -0.000038 -0.000115 0 0 0 0
 912900000 -0.046931 -0.002718  0.000038 -0.000118 0 0 0 0
 913200000 -0.047430 -0.000995  0.000055 -0.000148 0 0 0 0
 913500000 -0.048346 -0.000263  0.000005 -0.000165 0 0 0 0
 913800000 -0.048339 -0.000065  0.000072 -0.000130 0 0 0 0
 914100000 -0.048583  0.000056  0.000056 -0.000147 0 0 0 0
 914400000 -0.049466  0.000626  0.000014 -0.000126 0 0 0 0
 914700000 -0.049505  0.002430  0.000023 -0.000120 0 0 0 0
 915000000 -0.049542  0.003816  0.000058 -0.000124 0 0 0 0
 915300000 -0.048975  0.005425  0.000013 -0.000102 0 0 0 0
 915600000 -0.049076  0.006107  0.000054 -0.000151 0 0 0 0
 915900000 -0.050096  0.006687 -0.000007 -0.000076 0 0 0 0
 916200000 -0.051145  0.007446  0.000014 -0.000094 0 0 0 0
 916500000 -0.051270  0.008071  0.000043 -0.000092 0 0 0 0
 916800000 -0.051431  0.009198  0.000013 -0.000092 0 0 0 0
 917100000 -0.052064  0.009770  0.000129 -0.000116 0 0 0 0
 917400000 -0.052097  0.010672  0.000039 -0.000121 0 0 0 0
 917700000 -0.051685  0.011716  0.000063 -0.000139 0 0 0 0
 918000000 -0.052594  0.012200  0.000088 -0.000160 0 0 0 0
 918300000 -0.051991  0.013935  0.000080 -0.000146 0 0 0 0
 918600000 -0.051307  0.014901  0.000074 -0.000062 0 0 0 0
 918900000 -0.052529  0.016012 -0.000003 -0.000180 0 0 0 0
 919200000 -0.051401  0.017232  0.000105 -0.000116 0 0 0 0
 919500000 -0.051712  0.018469  0.000081 -0.000188 0 0 0 0
 919800000 -0.051960  0.018779  0.000081 -0.000174 0 0 0 0
 920100000 -0.052274  0.019807  0.000069 -0.000195 0 0 0 0
 920400000 -0.052857  0.020595  0.000089 -0.000150 0 0 0 0
 920700000 -0.052268  0.021341  0.000141 -0.000131 0 0 0 0
 921000000 -0.052212  0.022377  0.000108 -0.000158 0 0 0 0
 921300000 -0.051591  0.023356  0.000118 -0.000226 0 0 0 0
 921600000 -0.051399  0.024244  0.000109 -0.000206 0 0 0 0
 921900000 -0.051454  0.024711  0.000013 -0.000121 0 0 0 0
 922200000 -0.051485  0.026069  0.000097 -0.000158 0 0 0 0
 922500000 -0.050230  0.027232  0.000124 -0.000192 0 0 0 0
 922800000 -0.049977  0.028500  0.000148 -0.000193 0 0 0 0
 923100000 -0.049599  0.029084  0.000148 -0.000187 0 0 0 0
 923400000 -0.050024  0.029738  0.000076 -0.000220 0 0 0 0
 923700000 -0.049975  0.030227  0.000119 -0.000211 0 0 0 0
 924000000 -0.050426  0.030886  0.000044 -0.000208 0 0 0 0
 924300000 -0.049923  0.032045  0.000152 -0.000186 0 0 0 0
 924600000 -0.049860  0.033369  0.000067 -0.000187 0 0 0 0
 924900000 -0.048816  0.033896  0.000102 -0.000268 0 0 0 0
 925200000 -0.049786  0.034488  0.000097 -0.000210 0 0 0 0
 925500000 -0.048317  0.034942  0.000097 -0.000216 0 0 0 0
 925800000 -0.048347  0.036688  0.000166 -0.000200 0 0 0 0
 926100000 -0.046524  0.037736  0.000145 -0.000299 0 0 0 0
 926400000 -0.045666  0.037902  0.000022 -0.000200 0 0 0 0
 926700000 -0.045419  0.039081  0.000110 -0.000254 0 0 0 0
 927000000 -0.046211  0.039678  0.000059 -0.000266 0 0 0 0
 927300000 -0.045521  0.040392  0.000100 -0.000295 0 0 0 0
 927600000 -0.045770  0.041258  0.000127 -0.000348 0 0 0 0
 927900000 -0.045207  0.041993  0.000124 -0.000269 0 0 0 0
 928200000 -0.044952  0.042619  0.000115 -0.000356 0 0 0 0
 928500000 -0.043488  0.043536  0.000092 -0.000288 0 0 0 0
 928800000 -0.043633  0.043649  0.000122 -0.000348 0 0 0 0
 929100000 -0.043678  0.043967  0.000098 -0.000357 0 0 0 0
 929400000 -0.041962  0.045649  0.000076 -0.000346 0 0 0 0
 929700000 -0.040965  0.045992  0.000067 -0.000343 0 0 0 0
 930000000 -0.038912  0.047263  0.000083 -0.000330 0 0 0 0
 930300000 -0.038933  0.047536  0.000026 -0.000347 0 0 0 0
 930600000 -0.039434  0.048397  0.000056 -0.000390 0 0 0 0
 930900000 -0.038505  0.048634  0.000070 -0.000344 0 0 0 0
 931200000 -0.038062  0.049538  0.000033 -0.000393 0 0 0 0
 931500000 -0.038093  0.050123  0.000042 -0.000399 0 0 0 0
 931800000 -0.036596  0.051118  0.000020 -0.000390 0 0 0 0
 932100000 -0.035917  0.051136  0.000051 -0.000425 0 0 0 0
 932400000 -0.035930  0.051827  0.000028 -0.000474 0 0 0 0
 932700000 -0.035040  0.052983  0.000057 -0.000423 0 0 0 0
 933000000 -0.034307  0.053022  0.000039 -0.000405 0 0 0 0
 933300000 -0.033377  0.053754  0.000064 -0.000466 0 0 0 0
 933600000 -0.032280  0.054609  0.000012 -0.000541 0 0 0 0
 933900000 -0.030534  0.054854 -0.000053 -0.000574 0 0 0 0
 934200000 -0.031079  0.055561 -0.000068 -0.000533 0 0 0 0
 934500000 -0.030557  0.055311 -0.000055 -0.000541 0 0 0 0
 934800000 -0.029623  0.055660 -0.000097 -0.000583 0 0 0 0
 935100000 -0.029226  0.055938 -0.000078 -0.000615 0 0 0 0
 935400000 -0.028334  0.057440 -0.000101 -0.000597 0 0 0 0
 935700000 -0.028173  0.057436 -0.000141 -0.000713 0 0 0 0
 936000000 -0.026578  0.057443 -0.000207 -0.000696 0 0 0 0
 936300000 -0.025516  0.058285 -0.000106 -0.000647 0 0 0 0
 936600000 -0.025268  0.058476 -0.000168 -0.000775 0 0 0 0
 936900000 -0.024298  0.059229 -0.000172 -0.000736 0 0 0 0
 937200000 -0.023199  0.059317 -0.000218 -0.000808 0 0 0 0
 937500000 -0.022261  0.059619 -0.000249 -0.000859 0 0 0 0
 937800000 -0.022164  0.060196 -0.000316 -0.000863 0 0 0 0
 938100000 -0.021243  0.061119 -0.000364 -0.000925 0 0 0 0
 938400000 -0.020290  0.060516 -0.000510 -0.000948 0 0 0 0
 938700000 -0.019632  0.060642 -0.000541 -0.000901 0 0 0 0
 939000000 -0.019446  0.060872 -0.000638 -0.001015 0 0 0 0
 939300000 -0.018474  0.061863 -0.000575 -0.001079 0 0 0 0
 939600000 -0.017203  0.061950 -0.000686 -0.001106 0 0 0 0
 939900000 -0.015179  0.061739 -0.000751 -0.001089 0 0 0 0
 940200000 -0.015337  0.062458 -0.000879 -0.001221 0 0 0 0
 940500000 -0.014078  0.062401 -0.001101 -0.001239 0 0 0 0
 940800000 -0.013385  0.062922 -0.001199 -0.001309 0 0 0 0
 941100000 -0.011143  0.061927 -0.001231 -0.001326 0 0 0 0
 941400000 -0.009904  0.062906 -0.001507 -0.001379 0 0 0 0
 941700000 -0.010944  0.063234 -0.001777 -0.001370 0 0 0 0
 942000000 -0.010364  0.063425 -0.001878 -0.001391 0 0 0 0
 942300000 -0.009158  0.063629 -0.002108 -0.001292 0 0 0 0
 942600000 -0.008755  0.063737 -0.002386 -0.001216 0 0 0 0
 942900000 -0.008380  0.063470 -0.002624 -0.001280 0 0 0 0
 943200000 -0.006527  0.062940 -0.002880 -0.001112 0 0 0 0
 943500000 -0.005609  0.063630 -0.003220 -0.000895 0 0 0 0
 943800000 -0.006337  0.063940 -0.003311 -0.000869 0 0 0 0
 944100000 -0.004649  0.063601 -0.003487 -0.000753 0 0 0 0
 944400000 -0.001671  0.063514 -0.003920 -0.000644 0 0 0 0
 944700000 -0.000940  0.062941 -0.004393 -0.000428 0 0 0 0
 945000000  0.000823  0.063392 -0.004547  0.000071 0 0 0 0
 945300000 -0.000459  0.063380 -0.004405  0.000559 0 0 0 0
 945600000  0.000164  0.063193 -0.003316  0.000631 0 0 0 0
 945900000  0.001240  0.062708 -0.001017 -0.000634 0 0 0 0
 946200000  0.002231  0.063292  0.002319 -0.006812 0 0 0 0
 946500000  0.003462  0.062922 -0.000174 -0.026366 0 0 0 0
 946800000  0.004668  0.062640 -0.045901 -0.046483 0 0 0 0
 947100000  0.004595  0.062011 -0.088161  0.014573 0 0 0 0
 947400000  0.004630  0.062607 -0.069198  0.067170 0 0 0 0
 947700000  0.006866  0.061771 -0.023742  0.099174 0 0 0 0
 948000000  0.007997  0.060886  0.032349  0.099864 0 0 0 0
 948300000  0.008618  0.061698  0.074406  0.076892 0 0 0 0
 948600000  0.009260  0.060943  0.102614  0.031946 0 0 0 0
 948900000  0.010486  0.060205  0.104896 -0.024765 0 0 0 0
 949200000  0.010765  0.060557  0.068035 -0.080289 0 0 0 0
 949500000  0.012349  0.059554 -0.013740 -0.087963 0 0 0 0
 949800000  0.012930  0.059705 -0.040134 -0.020276 0 0 0 0
 950100000  0.013831  0.058919 -0.014586  0.001076 0 0 0 0
 950400000  0.014918  0.058093 -0.002380 -0.000083 0 0 0 0
 950700000  0.014668  0.058117  0.001006 -0.002818 0 0 0 0
 951000000  0.015430  0.057802  0.001568 -0.004402 0 0 0 0
 951300000  0.016352  0.056593  0.001023 -0.005016 0 0 0 0
 951600000  0.017509  0.056591  0.000484 -0.004982 0 0 0 0
 951900000  0.018750  0.056143  0.000065 -0.004757 0 0 0 0
 952200000  0.020065  0.054253 -0.000284 -0.004444 0 0 0 0
 952500000  0.019835  0.054838 -0.000605 -0.004012 0 0 0 0
 952800000  0.020043  0.054425 -0.000783 -0.003609 0 0 0 0
 953100000  0.020958  0.053551 -0.000914 -0.003349 0 0 0 0
 953400000  0.021315  0.054231 -0.001025 -0.002924 0 0 0 0
 953700000  0.022453  0.052762 -0.001168 -0.002605 0 0 0 0
 954000000  0.021815  0.051609 -0.001126 -0.002381 0 0 0 0
 954300000  0.022471  0.052228 -0.001108 -0.002163 0 0 0 0
 954600000  0.024573  0.051202 -0.001131 -0.001891 0 0 0 0
 954900000  0.025684  0.050156 -0.001057 -0.001697 0 0 0 0
 955200000  0.025346  0.049834 -0.001117 -0.001580 0 0 0 0
 955500000  0.026128  0.048431 -0.001051 -0.001399 0 0 0 0
 955800000  0.028821  0.047275 -0.001044 -0.001239 0 0 0 0
 956100000  0.028634  0.046334 -0.000997 -0.001099 0 0 0 0
 956400000  0.028304  0.046457 -0.001011 -0.000996 0 0 0 0
 956700000  0.028533  0.046895 -0.000887 -0.000924 0 0 0 0
 957000000  0.028893  0.046235 -0.000870 -0.000836 0 0 0 0
 957300000  0.029767  0.044793 -0.000820 -0.000830 0 0 0 0
 957600000  0.030979  0.043846 -0.000861 -0.000736 0 0 0 0
 957900000  0.031115  0.043351 -0.000731 -0.000644 0 0 0 0
 958200000  0.031238  0.043375 -0.000787 -0.000551 0 0 0 0
 958500000  0.032145  0.041505 -0.000768 -0.000483 0 0 0 0
 958800000  0.032366  0.040488 -0.000700 -0.000408 0 0 0 0
 959100000  0.033806  0.039518 -0.000696 -0.000368 0 0 0 0
 959400000  0.034723  0.038608 -0.000695 -0.000354 0 0 0 0
 959700000  0.034950  0.036734 -0.000574 -0.000315 0 0 0 0
 960000000  0.033830  0.037666 -0.000632 -0.000300 0 0 0 0
