!File created by NanoVNA-F V2
# Hz S RI R 50
 900000000 -0.015371 -0.025054 -0.000009 -0.000045 0 0 0 0
 900300000 -0.017279 -0.025203  0.000010 -0.000061 0 0 0 0
 900600000 -0.017627 -0.024936 -0.000007 -0.000051 0 0 0 0
 900900000 -0.019346 -0.025611 -0.000051 -0.000071 0 0 0 0
 901200000 -0.020463 -0.024022  0.000019 -0.000086 0 0 0 0
 901500000 -0.021226 -0.024504 -0.000009 -0.000086 0 0 0 0
 901800000 -0.021114 -0.023885 -0.000040 -0.000055 0 0 0 0
 902100000 -0.023265 -0.023845 -0.000058 -0.000115 0 0 0 0
 902400000 -0.023970 -0.023424 -0.000060 -0.000064 0 0 0 0
 902700000 -0.023602 -0.022815 -0.000077 -0.000077 0 0 0 0
 903000000 -0.024823 -0.022955 -0.000046 -0.000053 0 0 0 0
 903300000 -0.025567 -0.022379 -0.000023 -0.000014 0 0 0 0
 903600000 -0.025673 -0.022447 -0.000140 -0.000037 0 0 0 0
 903900000 -0.026972 -0.021459 -0.000051 -0.000045 0 0 0 0
 904200000 -0.028697 -0.020723  0.000024 -0.000088 0 0 0 0
 904500000 -0.029848 -0.020440 -0.000021 -0.000087 0 0 0 0
 904800000 -0.029796 -0.019472 -0.000062 -0.000161 0 0 0 0
 905100000 -0.031196 -0.019700 -0.000033 -0.000073 0 0 0 0
 905400000 -0.031048 -0.019461 -0.000065 -0.000087 0 0 0 0
 905700000 -0.032333 -0.018252 -0.000040 -0.000172 0 0 0 0
 906000000 -0.034119 -0.017212 -0.000044 -0.000163 0 0 0 0
 906300000 -0.033877 -0.017517 -0.000024 -0.000103 0 0 0 0
 906600000 -0.034712 -0.015900 -0.000034 -0.000102 0 0 0 0
 906900000 -0.035670 -0.015720 -0.000045 -0.000160 0 0 0 0
 907200000 -0.035793 -0.015832 -0.000093 -0.000129 0 0 0 0
 907500000 -0.036817 -0.015386 -0.000033 -0.000100 0 0 0 0
 907800000 -0.037259 -0.014112 -0.000091 -0.000153 0 0 0 0
 908100000 -0.037588 -0.014186 -0.000092 -0.000091 0 0 0 0
 908400000 -0.037848 -0.012272 -0.000092 -0.000176 0 0 0 0
 908700000 -0.038870 -0.012230 -0.000065 -0.000109 0 0 0 0
 909000000 -0.039940 -0.011077 -0.000011 -0.000084 0 0 0 0
 909300000 -0.039849 -0.010713 -0.000009 -0.000126 0 0 0 0
 909600000 -0.040471 -0.009619 -0.000067 -0.000154 0 0 0 0
 909900000 -0.040934 -0.009017 -0.000042 -0.000261 0 0 0 0
 910200000 -0.041879 -0.008773 -0.000023 -0.000137 0 0 0 0
 910500000 -0.042234 -0.008702 -0.000088 -0.000239 0 0 0 0
 910800000 -0.042741 -0.007175 -0.000095 -0.000155 0 0 0 0
 911100000 -0.043363 -0.006789 -0.000121 -0.000146 0 0 0 0
 911400000 -0.044298 -0.006084 -0.000103 -0.000151 0 0 0 0
 911700000 -0.044093 -0.005047  0.000017 -0.000197 0 0 0 0
 912000000 -0.044271 -0.003840 -0.000120 -0.000151 0 0 0 0
 912300000 -0.044373 -0.002876 -0.000039 -0.000207 0 0 0 0
 912600000 -0.045657 -0.002254 -0.000133 -0.000150 0 0 0 0
 912900000 -0.045938 -0.001603 -0.000061 -0.000189 0 0 0 0
 913200000 -0.047104 -0.000453 -0.000054 -0.000183 0 0 0 0
 913500000 -0.046993  0.000415 -0.000063 -0.000169 0 0 0 0
 913800000 -0.047540  0.001555  0.000008 -0.000173 0 0 0 0
 914100000 -0.046972  0.001252 -0.000033 -0.000216 0 0 0 0
 914400000 -0.047940  0.002257 -0.000064 -0.000192 0 0 0 0
 914700000 -0.047733  0.003487 -0.000121 -0.000210 0 0 0 0
 915000000 -0.049074  0.004591 -0.000133 -0.000083 0 0 0 0
 915300000 -0.049357  0.005137 -0.000103 -0.000212 0 0 0 0
 915600000 -0.049242  0.006919 -0.000072 -0.000179 0 0 0 0
 915900000 -0.048510  0.007091  0.000006 -0.000205 0 0 0 0
 916200000 -0.049305  0.007888 -0.000053 -0.000146 0 0 0 0
 916500000 -0.049509  0.008428 -0.000030 -0.000133 0 0 0 0
 916800000 -0.049530  0.008515 -0.000060 -0.000198 0 0 0 0
 917100000 -0.051256  0.010694 -0.000009 -0.000188 0 0 0 0
 917400000 -0.051236  0.011004 -0.000024 -0.000166 0 0 0 0
 917700000 -0.050914  0.012486 -0.000043 -0.000192 0 0 0 0
 918000000 -0.050915  0.012801 -0.000087 -0.000204 0 0 0 0
 918300000 -0.051076  0.013977 -0.000060 -0.000233 0 0 0 0
 918600000 -0.051121  0.014595 -0.000069 -0.000141 0 0 0 0
 918900000 -0.050472  0.016606 -0.000093 -0.000252 0 0 0 0
 919200000 -0.050006  0.017222 -0.000018 -0.000246 0 0 0 0
 919500000 -0.050987  0.018162 -0.000067 -0.000204 0 0 0 0
 919800000 -0.050828  0.019008 -0.000081 -0.000190 0 0 0 0
 920100000 -0.050593  0.018970 -0.000101 -0.000240 0 0 0 0
 920400000 -0.050502  0.020428 -0.000103 -0.000191 0 0 0 0
 920700000 -0.052168  0.021216 -0.000043 -0.000187 0 0 0 0
 921000000 -0.051557  0.022382 -0.000082 -0.000237 0 0 0 0
 921300000 -0.050288  0.023800 -0.000116 -0.000267 0 0 0 0
 921600000 -0.051232  0.023731 -0.000045 -0.000158 0 0 0 0
 921900000 -0.050571  0.024458 -0.000099 -0.000242 0 0 0 0
 922200000 -0.050220  0.025971 -0.000043 -0.000203 0 0 0 0
 922500000 -0.049909  0.027189 -0.000057 -0.000209 0 0 0 0
 922800000 -0.048930  0.028462 -0.000126 -0.000182 0 0 0 0
 923100000 -0.047598  0.028548 -0.000073 -0.000262 0 0 0 0
 923400000 -0.047757  0.030241 -0.000210 -0.000181 0 0 0 0
 923700000 -0.048613  0.030795 -0.000106 -0.000229 0 0 0 0
 924000000 -0.047984  0.031022 -0.000152 -0.000285 0 0 0 0
 924300000 -0.048147  0.032625 -0.000156 -0.000208 0 0 0 0
 924600000 -0.048035  0.033515 -0.000160 -0.000261 0 0 0 0
 924900000 -0.047957  0.034206 -0.000107 -0.000235 0 0 0 0
 925200000 -0.046680  0.035191 -0.000176 -0.000253 0 0 0 0
 925500000 -0.047292  0.035292 -0.000160 -0.000206 0 0 0 0
 925800000 -0.046837  0.036706 -0.000129 -0.000228 0 0 0 0
 926100000 -0.046270  0.037136 -0.000108 -0.000257 0 0 0 0
 926400000 -0.043994  0.038819 -0.000250 -0.000235 0 0 0 0
 926700000 -0.043729  0.038954 -0.000158 -0.000273 0 0 0 0
 927000000 -0.044457  0.039669 -0.000192 -0.000239 0 0 0 0
 927300000 -0.043966  0.039719 -0.000229 -0.000238 0 0 0 0
 927600000 -0.043318  0.041334 -0.000271 -0.000226 0 0 0 0
 927900000 -0.043483  0.042132 -0.000174 -0.000229 0 0 0 0
 928200000 -0.042390  0.042753 -0.000247 -0.000228 0 0 0 0
 928500000 -0.041690  0.043154 -0.000209 -0.000321 0 0 0 0
 928800000 -0.042383  0.044524 -0.000216 -0.000264 0 0 0 0
 929100000 -0.041255  0.044883 -0.000294 -0.000230 0 0 0 0
 929400000 -0.041412  0.045118 -0.000303 -0.000237 0 0 0 0
 929700000 -0.040490  0.045653 -0.000321 -0.000307 0 0 0 0
 930000000 -0.039035  0.045815 -0.000301 -0.000257 0 0 0 0
 930300000 -0.037361  0.047695 -0.000310 -0.000287 0 0 0 0
 930600000 -0.036538  0.048279 -0.000407 -0.000264 0 0 0 0
 930900000 -0.037238  0.049144 -0.000348 -0.000249 0 0 0 0
 931200000 -0.036797  0.048506 -0.000343 -0.000260 0 0 0 0
 931500000 -0.036075  0.049919 -0.000425 -0.000323 0 0 0 0
 931800000 -0.035599  0.050921 -0.000416 -0.000253 0 0 0 0
 932100000 -0.035437  0.051570 -0.000406 -0.000299 0 0 0 0
 932400000 -0.034442  0.051512 -0.000488 -0.000229 0 0 0 0
 932700000 -0.033983  0.052344 -0.000517 -0.000320 0 0 0 0
 933000000 -0.033640  0.052811 -0.000530 -0.000268 0 0 0 0
 933300000 -0.032720  0.053614 -0.000570 -0.000214 0 0 0 0
 933600000 -0.031337  0.053748 -0.000586 -0.000270 0 0 0 0
 933900000 -0.030307  0.054216 -0.000645 -0.000298 0 0 0 0
 934200000 -0.029779  0.054787 -0.000676 -0.000251 0 0 0 0
 934500000 -0.029274  0.055073 -0.000719 -0.000236 0 0 0 0
 934800000 -0.028357  0.055925 -0.000732 -0.000245 0 0 0 0
 935100000 -0.027776  0.055972 -0.000802 -0.000221 0 0 0 0
 935400000 -0.027045  0.056615 -0.000934 -0.000204 0 0 0 0
 935700000 -0.026552  0.057141 -0.000917 -0.000285 0 0 0 0
 936000000 -0.025777  0.057257 -0.001002 -0.000244 0 0 0 0
 936300000 -0.025873  0.057693 -0.001033 -0.000281 0 0 0 0
 936600000 -0.024673  0.058620 -0.001134 -0.000226 0 0 0 0
 936900000 -0.024338  0.058567 -0.001106 -0.000172 0 0 0 0
 937200000 -0.022564  0.059032 -0.001280 -0.000121 0 0 0 0
 937500000 -0.021614  0.059752 -0.001340 -0.000123 0 0 0 0
 937800000 -0.019524  0.059109 -0.001531 -0.000041 0 0 0 0
 938100000 -0.018591  0.059548 -0.001592 -0.000005 0 0 0 0
 938400000 -0.020165  0.060071 -0.001705 -0.000017 0 0 0 0
 938700000 -0.018543  0.060197 -0.001869  0.000154 0 0 0 0
 939000000 -0.017872  0.060637 -0.002042  0.000274 0 0 0 0
 939300000 -0.017095  0.060769 -0.002232  0.000303 0 0 0 0
 939600000 -0.017096  0.061584 -0.002437  0.000468 0 0 0 0
 939900000 -0.015072  0.061516 -0.002604  0.000669 0 0 0 0
 940200000 -0.015736  0.061950 -0.002885  0.000805 0 0 0 0
 940500000 -0.013108  0.062020 -0.003134  0.001114 0 0 0 0
 940800000 -0.012185  0.062185 -0.003371  0.001563 0 0 0 0
 941100000 -0.011656  0.061731 -0.003673  0.001773 0 0 0 0
 941400000 -0.009527  0.061671 -0.003875  0.002392 0 0 0 0
 941700000 -0.008552  0.062006 -0.003953  0.002996 0 0 0 0
 942000000 -0.009102  0.062702 -0.004125  0.003656 0 0 0 0
 942300000 -0.008067  0.062416 -0.003794  0.004402 0 0 0 0
 942600000 -0.007767  0.062784 -0.003169  0.004882 0 0 0 0
 942900000 -0.007371  0.062624 -0.002517  0.004606 0 0 0 0
 943200000 -0.005879  0.063132 -0.001548  0.002931 0 0 0 0
 943500000 -0.005296  0.062649 -0.002510 -0.002476 0 0 0 0
 943800000 -0.003669  0.063068 -0.014062 -0.013302 0 0 0 0
 944100000 -0.004004  0.062903 -0.054584 -0.006112 0 0 0 0
 944400000 -0.002221  0.062939 -0.064145  0.069144 0 0 0 0
 944700000  0.000225  0.062032  0.001131  0.109918 0 0 0 0
 945000000  0.000854  0.061850  0.066057  0.092615 0 0 0 0
 945300000  0.002607  0.062159  0.105233  0.046240 0 0 0 0
 945600000  0.002495  0.062106  0.116552 -0.004495 0 0 0 0
 945900000  0.002781  0.062395  0.099638 -0.061126 0 0 0 0
 946200000  0.002182  0.062535  0.054332 -0.102285 0 0 0 0
 946500000  0.003901  0.061415 -0.008898 -0.113693 0 0 0 0
 946800000  0.004526  0.062031 -0.077067 -0.071909 0 0 0 0
 947100000  0.006182  0.061338 -0.068310  0.017174 0 0 0 0
 947400000  0.006288  0.061127 -0.013980  0.021760 0 0 0 0
 947700000  0.007463  0.060798 -0.001431  0.005870 0 0 0 0
 948000000  0.007068  0.061504 -0.001390 -0.000907 0 0 0 0
 948300000  0.008846  0.059984 -0.002588 -0.003077 0 0 0 0
 948600000  0.010616  0.059994 -0.003393 -0.003393 0 0 0 0
 948900000  0.013102  0.059156 -0.003767 -0.003120 0 0 0 0
 949200000  0.012441  0.058646 -0.003937 -0.002608 0 0 0 0
 949500000  0.012260  0.058687 -0.003852 -0.002162 0 0 0 0
 949800000  0.013462  0.057896 -0.003870 -0.001399 0 0 0 0
 950100000  0.013775  0.057935 -0.003449 -0.001011 0 0 0 0
 950400000  0.014320  0.057813 -0.003023 -0.000717 0 0 0 0
 950700000  0.015980  0.057287 -0.002835 -0.000597 0 0 0 0
 951000000  0.016237  0.056928 -0.002459 -0.000453 0 0 0 0
 951300000  0.016621  0.056213 -0.002267 -0.000372 0 0 0 0
 951600000  0.017534  0.056606 -0.002101 -0.000211 0 0 0 0
 951900000  0.018636  0.054917 -0.001893 -0.000141 0 0 0 0
 952200000  0.021425  0.053562 -0.001797 -0.000122 0 0 0 0
 952500000  0.022254  0.052448 -0.001622 -0.000043 0 0 0 0
 952800000  0.021187  0.053336 -0.001471  0.000002 0 0 0 0
 953100000  0.021269  0.052761 -0.001389 -0.000058 0 0 0 0
 953400000  0.022573  0.052361 -0.001306  0.000027 0 0 0 0
 953700000  0.023312  0.052136 -0.001258  0.000040 0 0 0 0
 954000000  0.023636  0.050675 -0.001150  0.000050 0 0 0 0
 954300000  0.025081  0.051086 -0.001058  0.000068 0 0 0 0
 954600000  0.024429  0.050962 -0.000948  0.000072 0 0 0 0
 954900000  0.025357  0.049751 -0.000978  0.000158 0 0 0 0
 955200000  0.026702  0.049056 -0.000876  0.000146 0 0 0 0
 955500000  0.027268  0.047819 -0.000797  0.000244 0 0 0 0
 955800000  0.027245  0.047165 -0.000707  0.000174 0 0 0 0
 956100000  0.028491  0.046211 -0.000673  0.000189 0 0 0 0
 956400000  0.028903  0.045620 -0.000710  0.000117 0 0 0 0
 956700000  0.029217  0.045128 -0.000668  0.000183 0 0 0 0
 957000000  0.030528  0.045028 -0.000551  0.000204 0 0 0 0
 957300000  0.031019  0.044085 -0.000571  0.000195 0 0 0 0
 957600000  0.031383  0.042452 -0.000573  0.000152 0 0 0 0
 957900000  0.032234  0.042754 -0.000508  0.000220 0 0 0 0
 958200000  0.032411  0.041334 -0.000425  0.000271 0 0 0 0
 958500000  0.031630  0.041629 -0.000505  0.000210 0 0 0 0
 958800000  0.032696  0.039540 -0.000443  0.000249 0 0 0 0
 959100000  0.034197  0.038801 -0.000417  0.000277 0 0 0 0
 959400000  0.034844  0.036957 -0.000341  0.000246 0 0 0 0
 959700000  0.036068  0.036241 -0.000340  0.000220 0 0 0 0
 960000000  0.034615  0.036885 -0.000362  0.000324 0 0 0 0
