!File created by NanoVNA-F V2
# Hz S RI R 50
 900000000 -0.015393 -0.021605 -0.000083  0.000133 0 0 0 0
 900300000 -0.017446 -0.021041 -0.000091  0.000108 0 0 0 0
 900600000 -0.017735 -0.020608 -0.000058  0.000117 0 0 0 0
 900900000 -0.018860 -0.021160 -0.000097  0.000121 0 0 0 0
 901200000 -0.018659 -0.020986 -0.000160  0.000118 0 0 0 0
 901500000 -0.020491 -0.019920 -0.000091  0.000111 0 0 0 0
 901800000 -0.021065 -0.020138 -0.000056  0.000080 0 0 0 0
 902100000 -0.022651 -0.019747 -0.000062  0.000028 0 0 0 0
 902400000 -0.022668 -0.019870 -0.000052  0.000140 0 0 0 0
 902700000 -0.023578 -0.019608 -0.000050  0.000104 0 0 0 0
 903000000 -0.024735 -0.018798 -0.000157  0.000097 0 0 0 0
 903300000 -0.025086 -0.018705 -0.000089  0.000081 0 0 0 0
 903600000 -0.025027 -0.018426 -0.000049  0.000072 0 0 0 0
 903900000 -0.027067 -0.017624 -0.000082  0.000035 0 0 0 0
 904200000 -0.027694 -0.017204 -0.000026  0.000068 0 0 0 0
 904500000 -0.028684 -0.017042 -0.000042  0.000139 0 0 0 0
 904800000 -0.028648 -0.016221 -0.000054  0.000094 0 0 0 0
 905100000 -0.029852 -0.015945  0.000022  0.000078 0 0 0 0
 905400000 -0.029668 -0.015075 -0.000130  0.000113 0 0 0 0
 905700000 -0.031457 -0.015070 -0.000041  0.000053 0 0 0 0
 906000000 -0.031903 -0.014422 -0.000052  0.000074 0 0 0 0
 906300000 -0.033404 -0.013166 -0.000030  0.000034 0 0 0 0
 906600000 -0.033124 -0.012826 -0.000025  0.000042 0 0 0 0
 906900000 -0.033735 -0.013259 -0.000037  0.000100 0 0 0 0
 907200000 -0.035251 -0.012522 -0.000052  0.000184 0 0 0 0
 907500000 -0.035710 -0.012404 -0.000011  0.000166 0 0 0 0
 907800000 -0.035629 -0.010917  0.000020  0.000137 0 0 0 0
 908100000 -0.036648 -0.010576  0.000032  0.000108 0 0 0 0
 908400000 -0.037397 -0.009747  0.000047  0.000051 0 0 0 0
 908700000 -0.036975 -0.009051 -0.000006  0.000017 0 0 0 0
 909000000 -0.037681 -0.008008 -0.000004  0.000062 0 0 0 0
 909300000 -0.039203 -0.007862 -0.000095  0.000053 0 0 0 0
 909600000 -0.039407 -0.007211 -0.000060  0.000115 0 0 0 0
 909900000 -0.040851 -0.006017 -0.000086  0.000166 0 0 0 0
 910200000 -0.040249 -0.005928 -0.000023  0.000164 0 0 0 0
 910500000 -0.041671 -0.004382 -0.000010  0.000194 0 0 0 0
 910800000 -0.042070 -0.003653  0.000038  0.000069 0 0 0 0
 911100000 -0.041539 -0.003698 -0.000007  0.000005 0 0 0 0
 911400000 -0.042303 -0.003145  0.000055  0.000138 0 0 0 0
 911700000 -0.042815 -0.002374  0.000045  0.000114 0 0 0 0
 912000000 -0.043069 -0.000939  0.000067  0.000145 0 0 0 0
 912300000 -0.044050 -0.000304  0.000122  0.000147 0 0 0 0
 912600000 -0.043310  0.000092  0.000187  0.000166 0 0 0 0
 912900000 -0.044866  0.000845  0.000104  0.000130 0 0 0 0
 913200000 -0.044357  0.002954  0.000121  0.000100 0 0 0 0
 913500000 -0.044592  0.002791  0.000174  0.000128 0 0 0 0
 913800000 -0.045272  0.003580  0.000166  0.000131 0 0 0 0
 914100000 -0.044845  0.004455  0.000157  0.000158 0 0 0 0
 914400000 -0.046410  0.004897  0.000287  0.000157 0 0 0 0
 914700000 -0.045929  0.006149  0.000179  0.000198 0 0 0 0
 915000000 -0.045539  0.007419  0.000187  0.000102 0 0 0 0
 915300000 -0.046892  0.007884  0.000280  0.000169 0 0 0 0
 915600000 -0.046224  0.009150  0.000168  0.000186 0 0 0 0
 915900000 -0.046310  0.009781  0.000171  0.000159 0 0 0 0
 916200000 -0.047063  0.010941  0.000289  0.000263 0 0 0 0
 916500000 -0.046916  0.011243  0.000252  0.000206 0 0 0 0
 916800000 -0.048118  0.012509  0.000196  0.000154 0 0 0 0
 917100000 -0.047592  0.013347  0.000367  0.000247 0 0 0 0
 917400000 -0.048265  0.013761  0.000285  0.000203 0 0 0 0
 917700000 -0.047695  0.014996  0.000330  0.000197 0 0 0 0
 918000000 -0.049275  0.015456  0.000329  0.000249 0 0 0 0
 918300000 -0.048409  0.017605  0.000348  0.000235 0 0 0 0
 918600000 -0.048872  0.018559  0.000413  0.000191 0 0 0 0
 918900000 -0.048161  0.018905  0.000480  0.000263 0 0 0 0
 919200000 -0.048490  0.019880  0.000433  0.000237 0 0 0 0
 919500000 -0.047758  0.020776  0.000518  0.000239 0 0 0 0
 919800000 -0.048251  0.021759  0.000590  0.000334 0 0 0 0
 920100000 -0.049156  0.022790  0.000592  0.000216 0 0 0 0
 920400000 -0.049022  0.023722  0.000611  0.000233 0 0 0 0
 920700000 -0.048509  0.024138  0.000675  0.000303 0 0 0 0
 921000000 -0.048364  0.024956  0.000720  0.000242 0 0 0 0
 921300000 -0.047472  0.025612  0.000679  0.000271 0 0 0 0
 921600000 -0.047326  0.026576  0.000804  0.000257 0 0 0 0
 921900000 -0.047451  0.027715  0.000878  0.000228 0 0 0 0
 922200000 -0.047072  0.028974  0.000885  0.000260 0 0 0 0
 922500000 -0.045502  0.029828  0.000883  0.000213 0 0 0 0
 922800000 -0.046129  0.030591  0.001033  0.000299 0 0 0 0
 923100000 -0.045302  0.031657  0.001070  0.000268 0 0 0 0
 923400000 -0.045995  0.032023  0.001140  0.000129 0 0 0 0
 923700000 -0.045364  0.032781  0.001265  0.000190 0 0 0 0
 924000000 -0.045117  0.033981  0.001327  0.000095 0 0 0 0
 924300000 -0.045814  0.034919  0.001472  0.000062 0 0 0 0
 924600000 -0.044448  0.035407  0.001643  0.000119 0 0 0 0
 924900000 -0.044096  0.036189  0.001678  0.000054 0 0 0 0
 925200000 -0.044838  0.036796  0.001794 -0.000029 0 0 0 0
 925500000 -0.043319  0.038121  0.001907 -0.000062 0 0 0 0
 925800000 -0.043848  0.038266  0.002073 -0.000209 0 0 0 0
 926100000 -0.041634  0.039547  0.002291 -0.000338 0 0 0 0
 926400000 -0.041165  0.039939  0.002487 -0.000419 0 0 0 0
 926700000 -0.041162  0.040712  0.002692 -0.000549 0 0 0 0
 927000000 -0.041586  0.041664  0.002843 -0.000794 0 0 0 0
 927300000 -0.041347  0.042168  0.003074 -0.000900 0 0 0 0
 927600000 -0.041171  0.042713  0.003371 -0.001263 0 0 0 0
 927900000 -0.040982  0.044160  0.003590 -0.001629 0 0 0 0
 928200000 -0.039753  0.044793  0.003871 -0.001942 0 0 0 0
 928500000 -0.039787  0.045350  0.004175 -0.002462 0 0 0 0
 928800000 -0.038733  0.046140  0.004164 -0.003151 0 0 0 0
 929100000 -0.037282  0.046410  0.004204 -0.003679 0 0 0 0
 929400000 -0.037851  0.046893  0.003931 -0.004238 0 0 0 0
 929700000 -0.036126  0.047778  0.003189 -0.004714 0 0 0 0
 930000000 -0.034205  0.048642  0.002224 -0.004062 0 0 0 0
 930300000 -0.033788  0.049208  0.001474 -0.001008 0 0 0 0
 930600000 -0.034480  0.049847  0.004165  0.007123 0 0 0 0
 930900000 -0.034667  0.050812  0.024934  0.019501 0 0 0 0
 931200000 -0.034285  0.051620  0.075822 -0.011475 0 0 0 0
 931500000 -0.033331  0.051821  0.051445 -0.091273 0 0 0 0
 931800000 -0.032474  0.052911 -0.019437 -0.109438 0 0 0 0
 932100000 -0.032631  0.052712 -0.073914 -0.086170 0 0 0 0
 932400000 -0.029993  0.053071 -0.107744 -0.037536 0 0 0 0
 932700000 -0.030745  0.053508 -0.112804  0.014930 0 0 0 0
 933000000 -0.029808  0.054455 -0.090056  0.066052 0 0 0 0
 933300000 -0.028528  0.055031 -0.040306  0.100291 0 0 0 0
 933600000 -0.025520  0.055174  0.027375  0.100054 0 0 0 0
 933900000 -0.025750  0.055894  0.075956  0.034968 0 0 0 0
 934200000 -0.024792  0.056491  0.033084 -0.017218 0 0 0 0
 934500000 -0.025618  0.056685  0.006020 -0.008424 0 0 0 0
 934800000 -0.024522  0.057385  0.001303  0.000218 0 0 0 0
 935100000 -0.024328  0.057727  0.001595  0.003580 0 0 0 0
 935400000 -0.024074  0.058611  0.002400  0.004370 0 0 0 0
 935700000 -0.022914  0.058665  0.002937  0.004398 0 0 0 0
 936000000 -0.021780  0.058296  0.003274  0.003922 0 0 0 0
 936300000 -0.021922  0.059103  0.003359  0.003338 0 0 0 0
 936600000 -0.021727  0.059494  0.003148  0.002875 0 0 0 0
 936900000 -0.019647  0.059867  0.003124  0.002425 0 0 0 0
 937200000 -0.017974  0.059527  0.002992  0.002032 0 0 0 0
 937500000 -0.017897  0.059962  0.002802  0.001767 0 0 0 0
 937800000 -0.016982  0.059739  0.002685  0.001415 0 0 0 0
 938100000 -0.016720  0.060121  0.002565  0.001135 0 0 0 0
 938400000 -0.015655  0.060799  0.002400  0.000902 0 0 0 0
 938700000 -0.015146  0.061155  0.002247  0.000779 0 0 0 0
 939000000 -0.013965  0.061708  0.002089  0.000643 0 0 0 0
 939300000 -0.013442  0.061852  0.001920  0.000522 0 0 0 0
 939600000 -0.012067  0.061647  0.001798  0.000372 0 0 0 0
 939900000 -0.012785  0.062468  0.001723  0.000279 0 0 0 0
 940200000 -0.012039  0.062319  0.001499  0.000311 0 0 0 0
 940500000 -0.010735  0.062711  0.001401  0.000207 0 0 0 0
 940800000 -0.008608  0.062353  0.001324  0.000054 0 0 0 0
 941100000 -0.006188  0.062264  0.001214  0.000108 0 0 0 0
 941400000 -0.005310  0.061835  0.001242  0.000095 0 0 0 0
 941700000 -0.005113  0.061895  0.001067  0.000010 0 0 0 0
 942000000 -0.005455  0.062795  0.001077 -0.000030 0 0 0 0
 942300000 -0.004270  0.063240  0.000973 -0.000046 0 0 0 0
 942600000 -0.004690  0.063251  0.000958 -0.000075 0 0 0 0
 942900000 -0.002877  0.062481  0.000797 -0.000070 0 0 0 0
 943200000 -0.002685  0.062751  0.000816 -0.000045 0 0 0 0
 943500000 -0.001064  0.062903  0.000743 -0.000158 0 0 0 0
 943800000 -0.001059  0.063700  0.000766 -0.000077 0 0 0 0
 944100000  0.000546  0.062399  0.000724 -0.000077 0 0 0 0
 944400000  0.001511  0.062373  0.000673 -0.000174 0 0 0 0
 944700000  0.003681  0.061967  0.000634 -0.000163 0 0 0 0
 945000000  0.004571  0.062188  0.000592 -0.000153 0 0 0 0
 945300000  0.004311  0.062235  0.000554 -0.000153 0 0 0 0
 945600000  0.005276  0.062627  0.000483 -0.000185 0 0 0 0
 945900000  0.005947  0.062144  0.000517 -0.000210 0 0 0 0
 946200000  0.006115  0.062274  0.000426 -0.000277 0 0 0 0
 946500000  0.006948  0.061692  0.000378 -0.000141 0 0 0 0
 946800000  0.007725  0.062054  0.000454 -0.000175 0 0 0 0
 947100000  0.010125  0.060702  0.000365 -0.000187 0 0 0 0
 947400000  0.008609  0.061768  0.000427 -0.000240 0 0 0 0
 947700000  0.010339  0.060731  0.000369 -0.000239 0 0 0 0
 948000000  0.011724  0.060015  0.000377 -0.000217 0 0 0 0
 948300000  0.014340  0.058587  0.000351 -0.000198 0 0 0 0
 948600000  0.014591  0.058283  0.000339 -0.000275 0 0 0 0
 948900000  0.016414  0.057729  0.000371 -0.000206 0 0 0 0
 949200000  0.014922  0.058669  0.000372 -0.000223 0 0 0 0
 949500000  0.016446  0.057954  0.000356 -0.000234 0 0 0 0
 949800000  0.017569  0.057722  0.000264 -0.000329 0 0 0 0
 950100000  0.017456  0.058334  0.000220 -0.000194 0 0 0 0
 950400000  0.018251  0.057531  0.000177 -0.000162 0 0 0 0
 950700000  0.018737  0.056657  0.000222 -0.000203 0 0 0 0
 951000000  0.020032  0.056163  0.000156 -0.000207 0 0 0 0
 951300000  0.020464  0.055212  0.000200 -0.000264 0 0 0 0
 951600000  0.020233  0.055888  0.000230 -0.000241 0 0 0 0
 951900000  0.023863  0.053892  0.000224 -0.000135 0 0 0 0
 952200000  0.022815  0.053627  0.000234 -0.000191 0 0 0 0
 952500000  0.023010  0.053332  0.000118 -0.000177 0 0 0 0
 952800000  0.023992  0.052537  0.000174 -0.000204 0 0 0 0
 953100000  0.024180  0.051859  0.000176 -0.000157 0 0 0 0
 953400000  0.025395  0.051551  0.000171 -0.000154 0 0 0 0
 953700000  0.026274  0.050977  0.000160 -0.000157 0 0 0 0
 954000000  0.026599  0.050897  0.000208 -0.000206 0 0 0 0
 954300000  0.027625  0.049598  0.000152 -0.000158 0 0 0 0
 954600000  0.028551  0.049529  0.000148 -0.000147 0 0 0 0
 954900000  0.028608  0.048073  0.000163 -0.000169 0 0 0 0
 955200000  0.029650  0.048146  0.000101 -0.000182 0 0 0 0
 955500000  0.030270  0.047502  0.000086 -0.000197 0 0 0 0
 955800000  0.030474  0.047122  0.000120 -0.000160 0 0 0 0
 956100000  0.031124  0.045635  0.000078 -0.000165 0 0 0 0
 956400000  0.031945  0.044091  0.000087 -0.000163 0 0 0 0
 956700000  0.032123  0.044406  0.000080 -0.000098 0 0 0 0
 957000000  0.032923  0.043946 -0.000006 -0.000182 0 0 0 0
 957300000  0.033287  0.042458  0.000081 -0.000156 0 0 0 0
 957600000  0.033001  0.042527  0.000119 -0.000152 0 0 0 0
 957900000  0.034839  0.041772  0.000016 -0.000144 0 0 0 0
 958200000  0.034237  0.040838  0.000104 -0.000123 0 0 0 0
 958500000  0.035124  0.041043  0.000055 -0.000154 0 0 0 0
 958800000  0.036224  0.039325  0.000095 -0.000152 0 0 0 0
 959100000  0.036341  0.038535  0.000040 -0.000119 0 0 0 0
 959400000  0.036414  0.038110  0.000131 -0.000122 0 0 0 0
 959700000  0.038354  0.035626  0.000082 -0.000144 0 0 0 0
 960000000  0.038589  0.034723  0.000102 -0.000149 0 0 0 0
