!File created by NanoVNA-F V2
# Hz S RI R 50
 900000000 -0.015443 -0.021666 -0.000167  0.000060 0 0 0 0
 900300000 -0.017457 -0.020845 -0.000134  0.000101 0 0 0 0
 900600000 -0.017222 -0.020640 -0.000096  0.000108 0 0 0 0
 900900000 -0.017812 -0.021675 -0.000100  0.000084 0 0 0 0
 901200000 -0.019059 -0.020433 -0.000143  0.000036 0 0 0 0
 901500000 -0.019423 -0.020153 -0.000183  0.000077 0 0 0 0
 901800000 -0.021215 -0.020042 -0.000106  0.000067 0 0 0 0
 902100000 -0.021071 -0.019884 -0.000134  0.000115 0 0 0 0
 902400000 -0.023598 -0.020018 -0.000090  0.000121 0 0 0 0
 902700000 -0.023189 -0.019586 -0.000147  0.000008 0 0 0 0
 903000000 -0.024052 -0.019174 -0.000076  0.000067 0 0 0 0
 903300000 -0.025002 -0.018958 -0.000153  0.000045 0 0 0 0
 903600000 -0.025792 -0.017896 -0.000151  0.000086 0 0 0 0
 903900000 -0.026663 -0.017862 -0.000131  0.000090 0 0 0 0
 904200000 -0.027085 -0.017863 -0.000136  0.000079 0 0 0 0
 904500000 -0.028264 -0.016389 -0.000137 -0.000003 0 0 0 0
 904800000 -0.028039 -0.016619 -0.000128  0.000012 0 0 0 0
 905100000 -0.029515 -0.015973 -0.000135  0.000086 0 0 0 0
 905400000 -0.029572 -0.015528 -0.000084  0.000082 0 0 0 0
 905700000 -0.030963 -0.015183 -0.000091  0.000058 0 0 0 0
 906000000 -0.030638 -0.014512 -0.000054  0.000068 0 0 0 0
 906300000 -0.032038 -0.013123 -0.000127  0.000008 0 0 0 0
 906600000 -0.033271 -0.013648 -0.000102  0.000036 0 0 0 0
 906900000 -0.034159 -0.013159 -0.000094  0.000107 0 0 0 0
 907200000 -0.034102 -0.012344 -0.000101  0.000121 0 0 0 0
 907500000 -0.035195 -0.011940 -0.000081  0.000125 0 0 0 0
 907800000 -0.036079 -0.011018 -0.000051  0.000008 0 0 0 0
 908100000 -0.035274 -0.010835 -0.000144  0.000062 0 0 0 0
 908400000 -0.035892 -0.009567 -0.000112  0.000139 0 0 0 0
 908700000 -0.037344 -0.009136 -0.000181  0.000087 0 0 0 0
 909000000 -0.037493 -0.008834 -0.000056  0.000076 0 0 0 0
 909300000 -0.038106 -0.007249 -0.000117  0.000030 0 0 0 0
 909600000 -0.037717 -0.007372 -0.000124  0.000117 0 0 0 0
 909900000 -0.039428 -0.006678 -0.000138  0.000076 0 0 0 0
 910200000 -0.040359 -0.006331 -0.000025  0.000167 0 0 0 0
 910500000 -0.040205 -0.004901 -0.000093  0.000185 0 0 0 0
 910800000 -0.040636 -0.004918 -0.000009  0.000105 0 0 0 0
 911100000 -0.041358 -0.003329 -0.000113  0.000043 0 0 0 0
 911400000 -0.041668 -0.002602 -0.000040  0.000116 0 0 0 0
 911700000 -0.042242 -0.002191 -0.000021  0.000080 0 0 0 0
 912000000 -0.042337 -0.001464 -0.000049  0.000079 0 0 0 0
 912300000 -0.043073 -0.001338 -0.000052  0.000054 0 0 0 0
 912600000 -0.043679  0.000108 -0.000073  0.000097 0 0 0 0
 912900000 -0.043084  0.000777 -0.000095  0.000145 0 0 0 0
 913200000 -0.043997  0.002555 -0.000039  0.000127 0 0 0 0
 913500000 -0.043880  0.003003 -0.000064  0.000151 0 0 0 0
 913800000 -0.045179  0.003993 -0.000051  0.000093 0 0 0 0
 914100000 -0.044882  0.004284 -0.000010  0.000165 0 0 0 0
 914400000 -0.045899  0.005464 -0.000045  0.000149 0 0 0 0
 914700000 -0.046649  0.005801  0.000005  0.000229 0 0 0 0
 915000000 -0.045729  0.006594  0.000003  0.000166 0 0 0 0
 915300000 -0.046806  0.006741  0.000024  0.000124 0 0 0 0
 915600000 -0.047238  0.008064 -0.000012  0.000213 0 0 0 0
 915900000 -0.047128  0.009443 -0.000019  0.000178 0 0 0 0
 916200000 -0.047399  0.010064 -0.000027  0.000207 0 0 0 0
 916500000 -0.047931  0.011265  0.000038  0.000230 0 0 0 0
 916800000 -0.048248  0.012513  0.000056  0.000194 0 0 0 0
 917100000 -0.047148  0.013122  0.000046  0.000198 0 0 0 0
 917400000 -0.047627  0.013986  0.000126  0.000199 0 0 0 0
 917700000 -0.048147  0.014852  0.000034  0.000263 0 0 0 0
 918000000 -0.049087  0.016517  0.000042  0.000191 0 0 0 0
 918300000 -0.048144  0.017079  0.000029  0.000169 0 0 0 0
 918600000 -0.048593  0.018539  0.000086  0.000216 0 0 0 0
 918900000 -0.047937  0.018712  0.000137  0.000307 0 0 0 0
 919200000 -0.048123  0.019772  0.000117  0.000236 0 0 0 0
 919500000 -0.048270  0.019626  0.000169  0.000272 0 0 0 0
 919800000 -0.048524  0.021582  0.000178  0.000331 0 0 0 0
 920100000 -0.046859  0.023354  0.000137  0.000260 0 0 0 0
 920400000 -0.048134  0.023047  0.000171  0.000298 0 0 0 0
 920700000 -0.047210  0.024669  0.000179  0.000343 0 0 0 0
 921000000 -0.048170  0.025283  0.000191  0.000246 0 0 0 0
 921300000 -0.048475  0.025865  0.000263  0.000410 0 0 0 0
 921600000 -0.048466  0.026904  0.000230  0.000307 0 0 0 0
 921900000 -0.048074  0.028270  0.000304  0.000365 0 0 0 0
 922200000 -0.047706  0.028595  0.000283  0.000376 0 0 0 0
 922500000 -0.047338  0.029530  0.000362  0.000410 0 0 0 0
 922800000 -0.047375  0.030480  0.000378  0.000430 0 0 0 0
 923100000 -0.047403  0.029930  0.000437  0.000476 0 0 0 0
 923400000 -0.046784  0.031245  0.000464  0.000408 0 0 0 0
 923700000 -0.045549  0.032938  0.000555  0.000509 0 0 0 0
 924000000 -0.045131  0.032800  0.000524  0.000462 0 0 0 0
 924300000 -0.044223  0.034114  0.000553  0.000488 0 0 0 0
 924600000 -0.044823  0.034615  0.000667  0.000538 0 0 0 0
 924900000 -0.044491  0.035419  0.000643  0.000586 0 0 0 0
 925200000 -0.044705  0.036140  0.000737  0.000489 0 0 0 0
 925500000 -0.044497  0.037541  0.000820  0.000608 0 0 0 0
 925800000 -0.044466  0.038401  0.000819  0.000575 0 0 0 0
 926100000 -0.042936  0.038235  0.000930  0.000553 0 0 0 0
 926400000 -0.042963  0.038982  0.000924  0.000620 0 0 0 0
 926700000 -0.042713  0.039881  0.001088  0.000600 0 0 0 0
 927000000 -0.042199  0.040470  0.001204  0.000627 0 0 0 0
 927300000 -0.041666  0.041853  0.001201  0.000593 0 0 0 0
 927600000 -0.038855  0.042783  0.001285  0.000588 0 0 0 0
 927900000 -0.039052  0.043753  0.001590  0.000569 0 0 0 0
 928200000 -0.040106  0.043737  0.001734  0.000709 0 0 0 0
 928500000 -0.039125  0.045139  0.001861  0.000632 0 0 0 0
 928800000 -0.038401  0.045616  0.002016  0.000577 0 0 0 0
 929100000 -0.038684  0.046413  0.002213  0.000553 0 0 0 0
 929400000 -0.037910  0.046676  0.002446  0.000488 0 0 0 0
 929700000 -0.036356  0.048206  0.002674  0.000407 0 0 0 0
 930000000 -0.036848  0.047799  0.002942  0.000393 0 0 0 0
 930300000 -0.035668  0.049170  0.003283  0.000232 0 0 0 0
 930600000 -0.034882  0.049791  0.003596 -0.000063 0 0 0 0
 930900000 -0.034361  0.049974  0.003919 -0.000213 0 0 0 0
 931200000 -0.032044  0.050620  0.004411 -0.000556 0 0 0 0
 931500000 -0.033081  0.050691  0.004741 -0.000886 0 0 0 0
 931800000 -0.030879  0.051880  0.004950 -0.001491 0 0 0 0
 932100000 -0.031730  0.052801  0.004883 -0.002070 0 0 0 0
 932400000 -0.031447  0.053193  0.004180 -0.002444 0 0 0 0
 932700000 -0.030664  0.053642  0.002654 -0.001616 0 0 0 0
 933000000 -0.029690  0.054301  0.000622  0.002719 0 0 0 0
 933300000 -0.028673  0.054603  0.003051  0.015800 0 0 0 0
 933600000 -0.028163  0.055140  0.033615  0.034423 0 0 0 0
 933900000 -0.026980  0.055878  0.089570 -0.005753 0 0 0 0
 934200000 -0.027648  0.056216  0.069449 -0.084426 0 0 0 0
 934500000 -0.023407  0.056372  0.005226 -0.115843 0 0 0 0
 934800000 -0.023329  0.056598 -0.056413 -0.105627 0 0 0 0
 935100000 -0.022509  0.057203 -0.102022 -0.065880 0 0 0 0
 935400000 -0.023524  0.057027 -0.121657 -0.008111 0 0 0 0
 935700000 -0.022866  0.057900 -0.110165  0.052532 0 0 0 0
 936000000 -0.022693  0.058184 -0.060469  0.103888 0 0 0 0
 936300000 -0.021490  0.058718  0.026074  0.108739 0 0 0 0
 936600000 -0.021080  0.059261  0.067986  0.026899 0 0 0 0
 936900000 -0.019285  0.059519  0.024989 -0.011059 0 0 0 0
 937200000 -0.019922  0.059884  0.005331 -0.004673 0 0 0 0
 937500000 -0.018295  0.059829  0.000848  0.001085 0 0 0 0
 937800000 -0.016822  0.060243  0.000532  0.003652 0 0 0 0
 938100000 -0.016301  0.060605  0.001171  0.004456 0 0 0 0
 938400000 -0.013776  0.059851  0.001635  0.004437 0 0 0 0
 938700000 -0.014924  0.061149  0.001925  0.004150 0 0 0 0
 939000000 -0.014424  0.061061  0.002139  0.003805 0 0 0 0
 939300000 -0.013051  0.061596  0.002425  0.003390 0 0 0 0
 939600000 -0.012146  0.061420  0.002495  0.002560 0 0 0 0
 939900000 -0.011878  0.061696  0.002237  0.002080 0 0 0 0
 940200000 -0.011222  0.061979  0.002103  0.001846 0 0 0 0
 940500000 -0.009327  0.062563  0.001885  0.001575 0 0 0 0
 940800000 -0.010267  0.062622  0.001731  0.001399 0 0 0 0
 941100000 -0.009025  0.062447  0.001599  0.001257 0 0 0 0
 941400000 -0.007818  0.062900  0.001488  0.001113 0 0 0 0
 941700000 -0.006156  0.062721  0.001482  0.000942 0 0 0 0
 942000000 -0.005982  0.062521  0.001321  0.000877 0 0 0 0
 942300000 -0.004269  0.063084  0.001205  0.000809 0 0 0 0
 942600000 -0.002039  0.062432  0.001182  0.000667 0 0 0 0
 942900000 -0.002434  0.063902  0.001087  0.000597 0 0 0 0
 943200000 -0.001950  0.062247  0.001061  0.000555 0 0 0 0
 943500000 -0.000596  0.062813  0.001068  0.000434 0 0 0 0
 943800000 -0.000315  0.062432  0.000930  0.000453 0 0 0 0
 944100000  0.000832  0.062516  0.000968  0.000353 0 0 0 0
 944400000  0.001006  0.062663  0.000858  0.000342 0 0 0 0
 944700000  0.001939  0.062431  0.000799  0.000385 0 0 0 0
 945000000  0.002333  0.063047  0.000758  0.000246 0 0 0 0
 945300000  0.004599  0.062426  0.000738  0.000179 0 0 0 0
 945600000  0.006250  0.062021  0.000687  0.000188 0 0 0 0
 945900000  0.005588  0.061370  0.000716  0.000177 0 0 0 0
 946200000  0.009054  0.060666  0.000554  0.000137 0 0 0 0
 946500000  0.007576  0.061056  0.000537  0.000130 0 0 0 0
 946800000  0.009039  0.061692  0.000565  0.000087 0 0 0 0
 947100000  0.009031  0.061498  0.000556  0.000109 0 0 0 0
 947400000  0.009358  0.060590  0.000476  0.000088 0 0 0 0
 947700000  0.011603  0.060415  0.000467  0.000070 0 0 0 0
 948000000  0.011646  0.060068  0.000474  0.000089 0 0 0 0
 948300000  0.011609  0.060426  0.000479  0.000029 0 0 0 0
 948600000  0.012179  0.060088  0.000424  0.000026 0 0 0 0
 948900000  0.014543  0.059144  0.000467 -0.000003 0 0 0 0
 949200000  0.015956  0.057547  0.000390 -0.000057 0 0 0 0
 949500000  0.017900  0.057304  0.000392 -0.000051 0 0 0 0
 949800000  0.018454  0.057675  0.000406 -0.000017 0 0 0 0
 950100000  0.018079  0.057496  0.000347 -0.000054 0 0 0 0
 950400000  0.018460  0.056274  0.000365 -0.000051 0 0 0 0
 950700000  0.018110  0.056795  0.000351 -0.000075 0 0 0 0
 951000000  0.020451  0.055646  0.000306 -0.000049 0 0 0 0
 951300000  0.021061  0.055829  0.000281 -0.000015 0 0 0 0
 951600000  0.021289  0.054680  0.000172 -0.000034 0 0 0 0
 951900000  0.022422  0.054419  0.000298 -0.000046 0 0 0 0
 952200000  0.022388  0.054474  0.000284 -0.000042 0 0 0 0
 952500000  0.023208  0.053761  0.000339 -0.000065 0 0 0 0
 952800000  0.025752  0.051881  0.000261 -0.000046 0 0 0 0
 953100000  0.025263  0.051654  0.000266 -0.000014 0 0 0 0
 953400000  0.025333  0.051442  0.000269 -0.000045 0 0 0 0
 953700000  0.026507  0.050901  0.000248 -0.000064 0 0 0 0
 954000000  0.026964  0.050309  0.000252 -0.000087 0 0 0 0
 954300000  0.026853  0.049887  0.000220 -0.000097 0 0 0 0
 954600000  0.028244  0.048896  0.000209 -0.000029 0 0 0 0
 954900000  0.028744  0.048832  0.000326 -0.000051 0 0 0 0
 955200000  0.029154  0.047208  0.000218 -0.000060 0 0 0 0
 955500000  0.029393  0.048326  0.000206 -0.000127 0 0 0 0
 955800000  0.030913  0.046300  0.000264 -0.000068 0 0 0 0
 956100000  0.030604  0.046206  0.000287 -0.000093 0 0 0 0
 956400000  0.031835  0.044917  0.000208 -0.000072 0 0 0 0
 956700000  0.033315  0.044418  0.000249 -0.000079 0 0 0 0
 957000000  0.033294  0.043195  0.000272 -0.000103 0 0 0 0
 957300000  0.033947  0.043044  0.000137 -0.000109 0 0 0 0
 957600000  0.033663  0.042500  0.000175 -0.000082 0 0 0 0
 957900000  0.034826  0.041058  0.000241 -0.000060 0 0 0 0
 958200000  0.035414  0.040752  0.000136 -0.000036 0 0 0 0
 958500000  0.035494  0.039543  0.000155 -0.000085 0 0 0 0
 958800000  0.036404  0.038859  0.000203 -0.000102 0 0 0 0
 959100000  0.036345  0.038548  0.000070 -0.000011 0 0 0 0
 959400000  0.036960  0.037523  0.000171 -0.000079 0 0 0 0
 959700000  0.036415  0.037619  0.000169 -0.000050 0 0 0 0
 960000000  0.038062  0.035937  0.000130 -0.000040 0 0 0 0
