!File created by NanoVNA-F V2
# Hz S RI R 50
 900000000 -0.014968 -0.024124  0.002553 -0.001422 0 0 0 0
 900300000 -0.015934 -0.023118  0.002514 -0.001701 0 0 0 0
 900600000 -0.016931 -0.023601  0.002417 -0.001946 0 0 0 0
 900900000 -0.017135 -0.023701  0.002246 -0.002164 0 0 0 0
 901200000 -0.018178 -0.022695  0.001933 -0.002037 0 0 0 0
 901500000 -0.020283 -0.023644  0.001280 -0.001554 0 0 0 0
 901800000 -0.019356 -0.022318  0.000611  0.000560 0 0 0 0
 902100000 -0.021211 -0.022999  0.000859  0.005927 0 0 0 0
 902400000 -0.022018 -0.021769  0.009031  0.017842 0 0 0 0
 902700000 -0.022316 -0.021076  0.049969  0.021968 0 0 0 0
 903000000 -0.022667 -0.020656  0.071597 -0.049369 0 0 0 0
 903300000 -0.023488 -0.020468  0.019883 -0.087167 0 0 0 0
 903600000 -0.026061 -0.019174 -0.026124 -0.087759 0 0 0 0
 903900000 -0.026358 -0.020372 -0.066506 -0.068214 0 0 0 0
 904200000 -0.027491 -0.019825 -0.094139 -0.030671 0 0 0 0
 904500000 -0.029046 -0.019940 -0.099022  0.018904 0 0 0 0
 904800000 -0.029180 -0.018146 -0.076238  0.065824 0 0 0 0
 905100000 -0.030655 -0.017852 -0.025063  0.096085 0 0 0 0
 905400000 -0.030244 -0.017304  0.046147  0.073854 0 0 0 0
 905700000 -0.030729 -0.018103  0.044682  0.008889 0 0 0 0
 906000000 -0.031618 -0.016484  0.018001 -0.005733 0 0 0 0
 906300000 -0.032702 -0.016528  0.004094 -0.002483 0 0 0 0
 906600000 -0.032695 -0.015731  0.000745  0.002840 0 0 0 0
 906900000 -0.033618 -0.014768  0.001488  0.005418 0 0 0 0
 907200000 -0.034203 -0.014649  0.002977  0.005577 0 0 0 0
 907500000 -0.035039 -0.014608  0.003262  0.004539 0 0 0 0
 907800000 -0.036640 -0.014185  0.003052  0.004489 0 0 0 0
 908100000 -0.036961 -0.012249  0.003763  0.004041 0 0 0 0
 908400000 -0.037859 -0.012873  0.004004  0.003324 0 0 0 0
 908700000 -0.038427 -0.011532  0.003972  0.002418 0 0 0 0
 909000000 -0.038744 -0.010623  0.003716  0.001722 0 0 0 0
 909300000 -0.038953 -0.010584  0.003534  0.001334 0 0 0 0
 909600000 -0.039825 -0.009778  0.003221  0.000916 0 0 0 0
 909900000 -0.041025 -0.008944  0.002955  0.000606 0 0 0 0
 910200000 -0.041265 -0.008437  0.002676  0.000336 0 0 0 0
 910500000 -0.042086 -0.007593  0.002441  0.000081 0 0 0 0
 910800000 -0.042415 -0.006467  0.002202 -0.000023 0 0 0 0
 911100000 -0.042642 -0.005382  0.002029 -0.000068 0 0 0 0
 911400000 -0.043420 -0.005024  0.001924 -0.000145 0 0 0 0
 911700000 -0.044506 -0.004278  0.001696 -0.000312 0 0 0 0
 912000000 -0.045221 -0.003617  0.001568 -0.000246 0 0 0 0
 912300000 -0.044725 -0.002579  0.001425 -0.000330 0 0 0 0
 912600000 -0.045564 -0.001864  0.001369 -0.000318 0 0 0 0
 912900000 -0.045133 -0.001390  0.001228 -0.000354 0 0 0 0
 913200000 -0.045879 -0.000214  0.001092 -0.000459 0 0 0 0
 913500000 -0.046894  0.000353  0.000941 -0.000472 0 0 0 0
 913800000 -0.047395  0.001536  0.000966 -0.000467 0 0 0 0
 914100000 -0.046515  0.003115  0.000815 -0.000483 0 0 0 0
 914400000 -0.047465  0.003430  0.000732 -0.000498 0 0 0 0
 914700000 -0.047954  0.004171  0.000724 -0.000442 0 0 0 0
 915000000 -0.048192  0.005409  0.000637 -0.000454 0 0 0 0
 915300000 -0.047949  0.006212  0.000567 -0.000491 0 0 0 0
 915600000 -0.049653  0.007038  0.000595 -0.000476 0 0 0 0
 915900000 -0.049500  0.008720  0.000493 -0.000454 0 0 0 0
 916200000 -0.049052  0.008346  0.000427 -0.000500 0 0 0 0
 916500000 -0.049173  0.009646  0.000430 -0.000434 0 0 0 0
 916800000 -0.049776  0.010206  0.000368 -0.000423 0 0 0 0
 917100000 -0.049814  0.010440  0.000365 -0.000455 0 0 0 0
 917400000 -0.049837  0.013414  0.000338 -0.000451 0 0 0 0
 917700000 -0.050750  0.013291  0.000371 -0.000360 0 0 0 0
 918000000 -0.050624  0.014621  0.000242 -0.000365 0 0 0 0
 918300000 -0.051293  0.015708  0.000293 -0.000418 0 0 0 0
 918600000 -0.051062  0.015766  0.000262 -0.000397 0 0 0 0
 918900000 -0.051284  0.017143  0.000268 -0.000410 0 0 0 0
 919200000 -0.050974  0.018676  0.000218 -0.000468 0 0 0 0
 919500000 -0.050567  0.020019  0.000192 -0.000386 0 0 0 0
 919800000 -0.050773  0.020195  0.000121 -0.000376 0 0 0 0
 920100000 -0.050039  0.021461  0.000092 -0.000374 0 0 0 0
 920400000 -0.050825  0.022318  0.000105 -0.000345 0 0 0 0
 920700000 -0.049791  0.023006  0.000106 -0.000299 0 0 0 0
 921000000 -0.050472  0.024131  0.000121 -0.000327 0 0 0 0
 921300000 -0.050433  0.024839  0.000093 -0.000312 0 0 0 0
 921600000 -0.049148  0.026488  0.000019 -0.000309 0 0 0 0
 921900000 -0.048782  0.027707  0.000042 -0.000358 0 0 0 0
 922200000 -0.049400  0.027331  0.000074 -0.000376 0 0 0 0
 922500000 -0.049323  0.028665  0.000046 -0.000331 0 0 0 0
 922800000 -0.049418  0.029693  0.000012 -0.000306 0 0 0 0
 923100000 -0.048943  0.030364 -0.000060 -0.000271 0 0 0 0
 923400000 -0.049650  0.031488 -0.000028 -0.000230 0 0 0 0
 923700000 -0.048425  0.031930  0.000005 -0.000249 0 0 0 0
 924000000 -0.048227  0.032497 -0.000009 -0.000221 0 0 0 0
 924300000 -0.047533  0.033244  0.000020 -0.000234 0 0 0 0
 924600000 -0.047878  0.034695  0.000024 -0.000216 0 0 0 0
 924900000 -0.047501  0.035724 -0.000007 -0.000134 0 0 0 0
 925200000 -0.046541  0.036581 -0.000070 -0.000252 0 0 0 0
 925500000 -0.044983  0.037654 -0.000033 -0.000201 0 0 0 0
 925800000 -0.045852  0.038369 -0.000004 -0.000245 0 0 0 0
 926100000 -0.046182  0.038360 -0.000069 -0.000246 0 0 0 0
 926400000 -0.046034  0.039668 -0.000080 -0.000174 0 0 0 0
 926700000 -0.045128  0.040626 -0.000051 -0.000135 0 0 0 0
 927000000 -0.044775  0.041486 -0.000000 -0.000197 0 0 0 0
 927300000 -0.044380  0.041793 -0.000052 -0.000177 0 0 0 0
 927600000 -0.043946  0.042815 -0.000000 -0.000152 0 0 0 0
 927900000 -0.042824  0.043365 -0.000059 -0.000173 0 0 0 0
 928200000 -0.042024  0.043947 -0.000041 -0.000164 0 0 0 0
 928500000 -0.042246  0.044795 -0.000033 -0.000141 0 0 0 0
 928800000 -0.039845  0.045982 -0.000006 -0.000168 0 0 0 0
 929100000 -0.039903  0.047112 -0.000044 -0.000171 0 0 0 0
 929400000 -0.039627  0.046681 -0.000027 -0.000146 0 0 0 0
 929700000 -0.040093  0.047633 -0.000087 -0.000143 0 0 0 0
 930000000 -0.039415  0.048343 -0.000055 -0.000097 0 0 0 0
 930300000 -0.039007  0.049535 -0.000093 -0.000055 0 0 0 0
 930600000 -0.038820  0.050174 -0.000036 -0.000172 0 0 0 0
 930900000 -0.036900  0.050645  0.000008 -0.000104 0 0 0 0
 931200000 -0.037134  0.051156 -0.000022 -0.000153 0 0 0 0
 931500000 -0.036269  0.052039 -0.000098 -0.000108 0 0 0 0
 931800000 -0.036329  0.052334 -0.000134 -0.000156 0 0 0 0
 932100000 -0.034350  0.053063 -0.000082 -0.000085 0 0 0 0
 932400000 -0.033657  0.053651 -0.000048 -0.000089 0 0 0 0
 932700000 -0.033338  0.054689 -0.000101 -0.000094 0 0 0 0
 933000000 -0.031798  0.054817 -0.000092 -0.000015 0 0 0 0
 933300000 -0.031612  0.055225 -0.000083 -0.000101 0 0 0 0
 933600000 -0.030334  0.056132 -0.000041 -0.000067 0 0 0 0
 933900000 -0.029770  0.056315 -0.000084 -0.000075 0 0 0 0
 934200000 -0.029742  0.056628 -0.000069 -0.000052 0 0 0 0
 934500000 -0.028056  0.057028 -0.000092 -0.000086 0 0 0 0
 934800000 -0.028850  0.057550 -0.000020 -0.000068 0 0 0 0
 935100000 -0.027805  0.057628 -0.000081 -0.000051 0 0 0 0
 935400000 -0.026410  0.057884 -0.000113 -0.000045 0 0 0 0
 935700000 -0.025422  0.058587 -0.000100 -0.000039 0 0 0 0
 936000000 -0.024863  0.059570 -0.000040 -0.000030 0 0 0 0
 936300000 -0.024817  0.059644 -0.000063 -0.000042 0 0 0 0
 936600000 -0.023178  0.059368 -0.000119 -0.000084 0 0 0 0
 936900000 -0.022138  0.060044 -0.000119 -0.000074 0 0 0 0
 937200000 -0.021956  0.060512 -0.000028 -0.000082 0 0 0 0
 937500000 -0.021695  0.060775 -0.000062 -0.000071 0 0 0 0
 937800000 -0.019955  0.061315 -0.000063 -0.000060 0 0 0 0
 938100000 -0.019464  0.061708 -0.000012 -0.000038 0 0 0 0
 938400000 -0.018218  0.062771 -0.000079 -0.000017 0 0 0 0
 938700000 -0.017764  0.062687 -0.000158 -0.000033 0 0 0 0
 939000000 -0.018374  0.063143 -0.000028 -0.000080 0 0 0 0
 939300000 -0.016038  0.062859 -0.000064 -0.000017 0 0 0 0
 939600000 -0.013625  0.063267 -0.000111 -0.000021 0 0 0 0
 939900000 -0.013021  0.062834 -0.000053 -0.000011 0 0 0 0
 940200000 -0.013160  0.063858 -0.000050 -0.000002 0 0 0 0
 940500000 -0.012322  0.063494 -0.000033  0.000012 0 0 0 0
 940800000 -0.011378  0.063353 -0.000044 -0.000067 0 0 0 0
 941100000 -0.012194  0.064021 -0.000015 -0.000049 0 0 0 0
 941400000 -0.010835  0.064765 -0.000055 -0.000044 0 0 0 0
 941700000 -0.010375  0.064258 -0.000056 -0.000003 0 0 0 0
 942000000 -0.008422  0.064535 -0.000118 -0.000032 0 0 0 0
 942300000 -0.007445  0.064581 -0.000129  0.000040 0 0 0 0
 942600000 -0.006910  0.065267 -0.000118  0.000014 0 0 0 0
 942900000 -0.005611  0.064751 -0.000104  0.000038 0 0 0 0
 943200000 -0.002716  0.064393 -0.000102 -0.000020 0 0 0 0
 943500000 -0.002019  0.064664 -0.000021  0.000011 0 0 0 0
 943800000 -0.000909  0.064430 -0.000084  0.000012 0 0 0 0
 944100000 -0.002211  0.064149 -0.000084 -0.000041 0 0 0 0
 944400000 -0.001554  0.064819 -0.000125 -0.000038 0 0 0 0
 944700000 -0.000330  0.064609 -0.000128  0.000022 0 0 0 0
 945000000  0.000067  0.065319 -0.000080  0.000010 0 0 0 0
 945300000  0.001116  0.065032 -0.000149  0.000006 0 0 0 0
 945600000  0.002048  0.064957 -0.000093 -0.000006 0 0 0 0
 945900000  0.002272  0.065517 -0.000099 -0.000009 0 0 0 0
 946200000  0.003074  0.064129 -0.000074 -0.000094 0 0 0 0
 946500000  0.005351  0.064356 -0.000104 -0.000044 0 0 0 0
 946800000  0.008041  0.063284 -0.000035 -0.000029 0 0 0 0
 947100000  0.007099  0.064425 -0.000092  0.000002 0 0 0 0
 947400000  0.009823  0.062656 -0.000059  0.000054 0 0 0 0
 947700000  0.008764  0.063089 -0.000055  0.000029 0 0 0 0
 948000000  0.009794  0.062733 -0.000045 -0.000027 0 0 0 0
 948300000  0.009853  0.062290 -0.000119 -0.000050 0 0 0 0
 948600000  0.011480  0.063023 -0.000088 -0.000038 0 0 0 0
 948900000  0.010968  0.061546 -0.000105 -0.000024 0 0 0 0
 949200000  0.013905  0.061604 -0.000154  0.000007 0 0 0 0
 949500000  0.013304  0.061983 -0.000043 -0.000121 0 0 0 0
 949800000  0.013447  0.062051 -0.000130 -0.000043 0 0 0 0
 950100000  0.014933  0.061004 -0.000101 -0.000081 0 0 0 0
 950400000  0.016783  0.059792 -0.000063 -0.000084 0 0 0 0
 950700000  0.017029  0.059867 -0.000073 -0.000083 0 0 0 0
 951000000  0.017415  0.059300 -0.000104 -0.000103 0 0 0 0
 951300000  0.019306  0.058715 -0.000066 -0.000068 0 0 0 0
 951600000  0.018801  0.059046 -0.000060 -0.000057 0 0 0 0
 951900000  0.021234  0.057361 -0.000030 -0.000043 0 0 0 0
 952200000  0.020598  0.057353 -0.000099  0.000019 0 0 0 0
 952500000  0.021852  0.056863 -0.000072 -0.000044 0 0 0 0
 952800000  0.022609  0.055652 -0.000074 -0.000024 0 0 0 0
 953100000  0.023105  0.055008 -0.000003 -0.000064 0 0 0 0
 953400000  0.025524  0.054110 -0.000019 -0.000056 0 0 0 0
 953700000  0.025602  0.054706 -0.000035 -0.000027 0 0 0 0
 954000000  0.025120  0.053244 -0.000009 -0.000036 0 0 0 0
 954300000  0.025786  0.053316 -0.000057  0.000008 0 0 0 0
 954600000  0.026733  0.052759 -0.000024 -0.000019 0 0 0 0
 954900000  0.026823  0.052056 -0.000030 -0.000012 0 0 0 0
 955200000  0.028198  0.050523 -0.000025 -0.000057 0 0 0 0
 955500000  0.029779  0.050557 -0.000030 -0.000023 0 0 0 0
 955800000  0.029355  0.049633 -0.000031  0.000041 0 0 0 0
 956100000  0.030006  0.048750 -0.000012  0.000017 0 0 0 0
 956400000  0.031037  0.048833  0.000018 -0.000037 0 0 0 0
 956700000  0.031351  0.048158 -0.000049 -0.000009 0 0 0 0
 957000000  0.031314  0.047692 -0.000019 -0.000044 0 0 0 0
 957300000  0.033778  0.046053  0.000015 -0.000026 0 0 0 0
 957600000  0.033155  0.045593 -0.000071  0.000061 0 0 0 0
 957900000  0.034152  0.045065 -0.000009  0.000023 0 0 0 0
 958200000  0.034666  0.043683 -0.000032  0.000048 0 0 0 0
 958500000  0.035497  0.043256 -0.000068 -0.000017 0 0 0 0
 958800000  0.035784  0.041622  0.000025  0.000069 0 0 0 0
 959100000  0.035749  0.041406  0.000000  0.000002 0 0 0 0
 959400000  0.036229  0.040654  0.000011 -0.000010 0 0 0 0
 959700000  0.036418  0.039995  0.000037  0.000019 0 0 0 0
 960000000  0.037448  0.038582 -0.000013  0.000016 0 0 0 0
