!File created by NanoVNA-F V2
# Hz S RI R 50
 900000000 -0.015203 -0.024317 -0.000248  0.000266 0 0 0 0
 900300000 -0.016774 -0.023706 -0.000190  0.000256 0 0 0 0
 900600000 -0.017522 -0.024375 -0.000244  0.000199 0 0 0 0
 900900000 -0.017354 -0.023653 -0.000278  0.000266 0 0 0 0
 901200000 -0.019135 -0.022866 -0.000250  0.000301 0 0 0 0
 901500000 -0.019817 -0.022937 -0.000220  0.000315 0 0 0 0
 901800000 -0.020541 -0.023068 -0.000316  0.000258 0 0 0 0
 902100000 -0.020600 -0.022946 -0.000232  0.000326 0 0 0 0
 902400000 -0.022261 -0.022797 -0.000323  0.000349 0 0 0 0
 902700000 -0.023260 -0.022789 -0.000299  0.000330 0 0 0 0
 903000000 -0.023988 -0.021703 -0.000257  0.000425 0 0 0 0
 903300000 -0.024104 -0.021712 -0.000271  0.000408 0 0 0 0
 903600000 -0.025082 -0.021482 -0.000314  0.000421 0 0 0 0
 903900000 -0.025479 -0.020698 -0.000274  0.000412 0 0 0 0
 904200000 -0.026712 -0.020709 -0.000187  0.000408 0 0 0 0
 904500000 -0.027117 -0.020723 -0.000294  0.000556 0 0 0 0
 904800000 -0.028220 -0.019594 -0.000266  0.000430 0 0 0 0
 905100000 -0.029438 -0.019181 -0.000281  0.000445 0 0 0 0
 905400000 -0.029201 -0.018847 -0.000266  0.000512 0 0 0 0
 905700000 -0.030380 -0.019063 -0.000255  0.000486 0 0 0 0
 906000000 -0.032023 -0.017364 -0.000231  0.000555 0 0 0 0
 906300000 -0.032987 -0.016864 -0.000190  0.000639 0 0 0 0
 906600000 -0.032925 -0.016773 -0.000214  0.000637 0 0 0 0
 906900000 -0.033726 -0.015835 -0.000136  0.000635 0 0 0 0
 907200000 -0.033966 -0.015014 -0.000134  0.000674 0 0 0 0
 907500000 -0.034974 -0.015164 -0.000199  0.000734 0 0 0 0
 907800000 -0.035683 -0.014882 -0.000170  0.000749 0 0 0 0
 908100000 -0.037189 -0.014716 -0.000127  0.000728 0 0 0 0
 908400000 -0.036425 -0.012892 -0.000042  0.000832 0 0 0 0
 908700000 -0.037493 -0.012599 -0.000039  0.000791 0 0 0 0
 909000000 -0.038466 -0.011844 -0.000086  0.000898 0 0 0 0
 909300000 -0.039152 -0.011064 -0.000017  0.000989 0 0 0 0
 909600000 -0.039625 -0.010981  0.000039  0.001031 0 0 0 0
 909900000 -0.039506 -0.009729  0.000021  0.001116 0 0 0 0
 910200000 -0.040715 -0.009912  0.000116  0.001091 0 0 0 0
 910500000 -0.041159 -0.008517  0.000247  0.001209 0 0 0 0
 910800000 -0.041518 -0.008250  0.000287  0.001266 0 0 0 0
 911100000 -0.042250 -0.007153  0.000278  0.001326 0 0 0 0
 911400000 -0.042810 -0.006494  0.000486  0.001447 0 0 0 0
 911700000 -0.043472 -0.005074  0.000622  0.001526 0 0 0 0
 912000000 -0.042856 -0.004704  0.000610  0.001606 0 0 0 0
 912300000 -0.043815 -0.003692  0.000725  0.001739 0 0 0 0
 912600000 -0.044177 -0.003753  0.000874  0.001830 0 0 0 0
 912900000 -0.046004 -0.002429  0.001118  0.001939 0 0 0 0
 913200000 -0.045844 -0.001743  0.001384  0.001955 0 0 0 0
 913500000 -0.046304 -0.001291  0.001545  0.002079 0 0 0 0
 913800000 -0.046587 -0.000136  0.001801  0.002113 0 0 0 0
 914100000 -0.046760  0.000796  0.002112  0.002184 0 0 0 0
 914400000 -0.047222  0.001102  0.002390  0.002193 0 0 0 0
 914700000 -0.047624  0.001887  0.002718  0.002140 0 0 0 0
 915000000 -0.047991  0.002721  0.003151  0.001940 0 0 0 0
 915300000 -0.047760  0.004226  0.003299  0.001789 0 0 0 0
 915600000 -0.048445  0.005372  0.003474  0.001639 0 0 0 0
 915900000 -0.048782  0.005191  0.003882  0.001722 0 0 0 0
 916200000 -0.048568  0.006654  0.004244  0.001322 0 0 0 0
 916500000 -0.049074  0.007098  0.004255  0.000953 0 0 0 0
 916800000 -0.049281  0.008392  0.003692  0.000377 0 0 0 0
 917100000 -0.050365  0.009250  0.001908  0.000349 0 0 0 0
 917400000 -0.049891  0.010526 -0.001677  0.002339 0 0 0 0
 917700000 -0.051113  0.011132 -0.006801  0.011181 0 0 0 0
 918000000 -0.050140  0.012289 -0.003711  0.037729 0 0 0 0
 918300000 -0.050648  0.012753  0.053460  0.052724 0 0 0 0
 918600000 -0.050487  0.014340  0.088456 -0.003481 0 0 0 0
 918900000 -0.050001  0.015463  0.072572 -0.054257 0 0 0 0
 919200000 -0.050080  0.015652  0.041249 -0.085024 0 0 0 0
 919500000 -0.049636  0.017166  0.000764 -0.096289 0 0 0 0
 919800000 -0.050984  0.017156 -0.044523 -0.088548 0 0 0 0
 920100000 -0.050500  0.018774 -0.081775 -0.056377 0 0 0 0
 920400000 -0.051309  0.019992 -0.100297 -0.008880 0 0 0 0
 920700000 -0.051098  0.021046 -0.075188  0.055758 0 0 0 0
 921000000 -0.050923  0.021381 -0.004451  0.065764 0 0 0 0
 921300000 -0.050636  0.022313  0.018402  0.023432 0 0 0 0
 921600000 -0.050307  0.023218  0.008325  0.004422 0 0 0 0
 921900000 -0.049832  0.024160  0.000414  0.001074 0 0 0 0
 922200000 -0.049701  0.025168 -0.002842  0.001708 0 0 0 0
 922500000 -0.049342  0.026100 -0.003804  0.002914 0 0 0 0
 922800000 -0.048243  0.026395 -0.003792  0.003529 0 0 0 0
 923100000 -0.048719  0.028127 -0.003273  0.003966 0 0 0 0
 923400000 -0.048787  0.028783 -0.002888  0.004022 0 0 0 0
 923700000 -0.049249  0.029257 -0.002149  0.003984 0 0 0 0
 924000000 -0.048955  0.031003 -0.001694  0.003872 0 0 0 0
 924300000 -0.048743  0.031608 -0.001414  0.003586 0 0 0 0
 924600000 -0.048208  0.032446 -0.001006  0.003405 0 0 0 0
 924900000 -0.047301  0.032964 -0.000611  0.003210 0 0 0 0
 925200000 -0.047311  0.033991 -0.000489  0.002911 0 0 0 0
 925500000 -0.047600  0.034322 -0.000319  0.002725 0 0 0 0
 925800000 -0.046284  0.035028 -0.000050  0.002444 0 0 0 0
 926100000 -0.045302  0.036458  0.000028  0.002223 0 0 0 0
 926400000 -0.044403  0.037918  0.000152  0.002104 0 0 0 0
 926700000 -0.043613  0.037836  0.000212  0.001865 0 0 0 0
 927000000 -0.044782  0.038115  0.000296  0.001763 0 0 0 0
 927300000 -0.044687  0.039278  0.000300  0.001712 0 0 0 0
 927600000 -0.044728  0.039962  0.000250  0.001547 0 0 0 0
 927900000 -0.044026  0.041738  0.000395  0.001496 0 0 0 0
 928200000 -0.043931  0.041812  0.000407  0.001327 0 0 0 0
 928500000 -0.042665  0.042815  0.000424  0.001160 0 0 0 0
 928800000 -0.041857  0.044305  0.000386  0.001102 0 0 0 0
 929100000 -0.041176  0.043934  0.000422  0.001067 0 0 0 0
 929400000 -0.040412  0.045082  0.000419  0.000958 0 0 0 0
 929700000 -0.040315  0.045358  0.000423  0.000924 0 0 0 0
 930000000 -0.038006  0.045999  0.000442  0.000801 0 0 0 0
 930300000 -0.037623  0.047732  0.000431  0.000759 0 0 0 0
 930600000 -0.038043  0.047288  0.000416  0.000648 0 0 0 0
 930900000 -0.038068  0.048361  0.000406  0.000663 0 0 0 0
 931200000 -0.037075  0.049245  0.000422  0.000661 0 0 0 0
 931500000 -0.037385  0.050044  0.000415  0.000575 0 0 0 0
 931800000 -0.036583  0.050251  0.000406  0.000542 0 0 0 0
 932100000 -0.035989  0.051287  0.000377  0.000524 0 0 0 0
 932400000 -0.035462  0.051479  0.000444  0.000498 0 0 0 0
 932700000 -0.034034  0.052548  0.000454  0.000404 0 0 0 0
 933000000 -0.033024  0.052909  0.000397  0.000438 0 0 0 0
 933300000 -0.032560  0.053871  0.000421  0.000293 0 0 0 0
 933600000 -0.030063  0.054087  0.000458  0.000395 0 0 0 0
 933900000 -0.029419  0.054336  0.000402  0.000337 0 0 0 0
 934200000 -0.030309  0.054902  0.000357  0.000332 0 0 0 0
 934500000 -0.029890  0.055446  0.000356  0.000271 0 0 0 0
 934800000 -0.029288  0.056160  0.000326  0.000319 0 0 0 0
 935100000 -0.028585  0.055747  0.000406  0.000249 0 0 0 0
 935400000 -0.027543  0.056756  0.000353  0.000292 0 0 0 0
 935700000 -0.026799  0.057093  0.000330  0.000214 0 0 0 0
 936000000 -0.025444  0.057725  0.000295  0.000191 0 0 0 0
 936300000 -0.026039  0.058151  0.000368  0.000166 0 0 0 0
 936600000 -0.025812  0.058662  0.000314  0.000168 0 0 0 0
 936900000 -0.022649  0.058002  0.000372  0.000105 0 0 0 0
 937200000 -0.022488  0.059083  0.000277  0.000149 0 0 0 0
 937500000 -0.020149  0.059806  0.000313  0.000113 0 0 0 0
 937800000 -0.020190  0.059239  0.000312  0.000105 0 0 0 0
 938100000 -0.019622  0.060719  0.000281  0.000124 0 0 0 0
 938400000 -0.020248  0.060276  0.000262  0.000132 0 0 0 0
 938700000 -0.017893  0.060628  0.000245  0.000080 0 0 0 0
 939000000 -0.017471  0.060662  0.000305  0.000080 0 0 0 0
 939300000 -0.018081  0.061758  0.000264  0.000084 0 0 0 0
 939600000 -0.015919  0.061336  0.000293  0.000076 0 0 0 0
 939900000 -0.016121  0.062428  0.000281  0.000009 0 0 0 0
 940200000 -0.015399  0.062074  0.000254  0.000058 0 0 0 0
 940500000 -0.013192  0.062278  0.000198  0.000036 0 0 0 0
 940800000 -0.010962  0.062431  0.000249  0.000035 0 0 0 0
 941100000 -0.011531  0.063059  0.000150  0.000065 0 0 0 0
 941400000 -0.009328  0.062450  0.000195  0.000043 0 0 0 0
 941700000 -0.009780  0.062731  0.000245  0.000013 0 0 0 0
 942000000 -0.010085  0.063365  0.000182 -0.000013 0 0 0 0
 942300000 -0.009053  0.063341  0.000254 -0.000030 0 0 0 0
 942600000 -0.008226  0.062914  0.000213  0.000065 0 0 0 0
 942900000 -0.007095  0.063771  0.000158  0.000036 0 0 0 0
 943200000 -0.005068  0.063218  0.000227  0.000004 0 0 0 0
 943500000 -0.004438  0.063587  0.000276  0.000031 0 0 0 0
 943800000 -0.004012  0.063070  0.000184  0.000021 0 0 0 0
 944100000 -0.003280  0.063932  0.000217 -0.000031 0 0 0 0
 944400000 -0.000823  0.062635  0.000143 -0.000012 0 0 0 0
 944700000  0.000752  0.062705  0.000149  0.000039 0 0 0 0
 945000000  0.001677  0.062503  0.000163 -0.000040 0 0 0 0
 945300000  0.000954  0.062509  0.000099 -0.000048 0 0 0 0
 945600000  0.001541  0.062839  0.000104 -0.000095 0 0 0 0
 945900000  0.002233  0.062479  0.000220 -0.000141 0 0 0 0
 946200000  0.003678  0.062004  0.000066 -0.000080 0 0 0 0
 946500000  0.003636  0.063313  0.000052 -0.000045 0 0 0 0
 946800000  0.005399  0.062666  0.000166 -0.000150 0 0 0 0
 947100000  0.004903  0.062398  0.000028 -0.000038 0 0 0 0
 947400000  0.006165  0.062168  0.000104 -0.000070 0 0 0 0
 947700000  0.006771  0.061461  0.000115 -0.000079 0 0 0 0
 948000000  0.008375  0.061779  0.000160 -0.000170 0 0 0 0
 948300000  0.011263  0.060108  0.000039 -0.000137 0 0 0 0
 948600000  0.012419  0.059479  0.000090 -0.000106 0 0 0 0
 948900000  0.011368  0.060547  0.000046 -0.000139 0 0 0 0
 949200000  0.012475  0.059814  0.000127 -0.000106 0 0 0 0
 949500000  0.013684  0.059252  0.000091 -0.000098 0 0 0 0
 949800000  0.014537  0.059487  0.000077 -0.000104 0 0 0 0
 950100000  0.014428  0.059376  0.000098 -0.000142 0 0 0 0
 950400000  0.014820  0.058679  0.000098 -0.000140 0 0 0 0
 950700000  0.015373  0.058775  0.000075 -0.000097 0 0 0 0
 951000000  0.017787  0.057299  0.000080 -0.000149 0 0 0 0
 951300000  0.018301  0.057170  0.000096 -0.000161 0 0 0 0
 951600000  0.018659  0.056096  0.000036 -0.000102 0 0 0 0
 951900000  0.021180  0.054937  0.000078 -0.000064 0 0 0 0
 952200000  0.020783  0.055211  0.000051 -0.000101 0 0 0 0
 952500000  0.020817  0.054990  0.000022 -0.000144 0 0 0 0
 952800000  0.021162  0.054190  0.000066 -0.000129 0 0 0 0
 953100000  0.022628  0.053673  0.000061 -0.000114 0 0 0 0
 953400000  0.022904  0.052655  0.000089 -0.000131 0 0 0 0
 953700000  0.023376  0.052921  0.000096 -0.000086 0 0 0 0
 954000000  0.023821  0.052272  0.000164 -0.000099 0 0 0 0
 954300000  0.024272  0.051991  0.000067 -0.000138 0 0 0 0
 954600000  0.024946  0.052031  0.000033 -0.000099 0 0 0 0
 954900000  0.026251  0.051582  0.000087 -0.000154 0 0 0 0
 955200000  0.028018  0.049857  0.000104 -0.000161 0 0 0 0
 955500000  0.028362  0.048803  0.000051 -0.000106 0 0 0 0
 955800000  0.029727  0.047984  0.000025 -0.000098 0 0 0 0
 956100000  0.030041  0.047140  0.000060 -0.000106 0 0 0 0
 956400000  0.028956  0.046668  0.000035 -0.000035 0 0 0 0
 956700000  0.030585  0.046463  0.000063 -0.000125 0 0 0 0
 957000000  0.030654  0.044824  0.000039 -0.000070 0 0 0 0
 957300000  0.030283  0.044377  0.000089 -0.000100 0 0 0 0
 957600000  0.032101  0.043982  0.000113 -0.000079 0 0 0 0
 957900000  0.032580  0.043508  0.000050 -0.000093 0 0 0 0
 958200000  0.033868  0.042483  0.000046 -0.000117 0 0 0 0
 958500000  0.033723  0.041428  0.000041 -0.000050 0 0 0 0
 958800000  0.034079  0.041479  0.000049 -0.000106 0 0 0 0
 959100000  0.036859  0.039853  0.000091 -0.000087 0 0 0 0
 959400000  0.036118  0.039444  0.000048 -0.000094 0 0 0 0
 959700000  0.036339  0.037731 -0.000044  0.000007 0 0 0 0
 960000000  0.036886  0.037301  0.000049  0.000022 0 0 0 0
